Sample in Buffer,Sample in Window,TRIGGER,ila_data[617:0],receiver_0[31:0],userdata_rx_0[31:0],receiver_1[31:0],userdata_rx_1[31:0],userdata_rx_2[31:0],receiver_2[31:0],userdata_rx_3[31:0],receiver_3[31:0],userdata_tx_0[31:0],transmitter_0[31:0],userdata_tx_1[31:0],transmitter_1[31:0],userdata_tx_2[31:0],transmitter_2[31:0],transmitter_3[31:0],userdata_tx_3[31:0],prbs_match_int[3:0],ch0_rxctrl0_int[15:0],ch1_rxctrl0_int[15:0],ch2_rxctrl0_int[15:0],ch3_rxctrl0_int[15:0],ch0_rxctrl1_int[15:0],ch1_rxctrl1_int[15:0],ch2_rxctrl1_int[15:0],ch3_rxctrl1_int[15:0],ch0_rxctrl2_int[7:0],ch1_rxctrl2_int[7:0],ch2_rxctrl2_int[7:0],ch3_rxctrl2_int[7:0],ch0_rxctrl3_int[7:0],ch1_rxctrl3_int[7:0],ch2_rxctrl3_int[7:0],ch3_rxctrl3_int[7:0],ch0_txctrl0_int[15:0],ch1_txctrl0_int[15:0],ch2_txctrl0_int[15:0],ch3_txctrl0_int[15:0],ch0_txctrl1_int[15:0],ch2_txctrl1_int[15:0],ch3_txctrl1_int[15:0],ch0_txctrl2_int[7:0],ch1_txctrl2_int[7:0],ch2_txctrl2_int[7:0],ch3_txctrl2_int[7:0],hb0_gtwiz_userclk_rx_usrclk2_int,hb0_gtwiz_userclk_rx_active_int,hb_gtwiz_reset_all_int,hb0_gtwiz_reset_rx_done_int,hb0_gtwiz_userclk_tx_usrclk2_int,hb0_gtwiz_userclk_tx_active_int
Radix - UNSIGNED,UNSIGNED,UNSIGNED,HEX,HEX,HEX,HEX,HEX,HEX,HEX,HEX,HEX,HEX,HEX,HEX,HEX,HEX,HEX,HEX,HEX,HEX,HEX,HEX,HEX,HEX,HEX,HEX,HEX,HEX,HEX,HEX,HEX,HEX,HEX,HEX,HEX,HEX,HEX,HEX,HEX,HEX,HEX,HEX,HEX,HEX,HEX,HEX,HEX,HEX,HEX,HEX,HEX,HEX,HEX
0,0,0,3b0000000000000000000000000000000000000000f0f0f0f00000000000000000000000000000000000000000e2acc45a72acc45a72acc45a7503c3f403cf40559232ec5afa22ec1af3f3e503c,3f3e503c,3f3e503c,a22ec1af,a22ec1af,232ec5af,232ec5af,3cf40559,3cf40559,503c3f40,503c3f40,2acc45a7,2acc45a7,2acc45a7,2acc45a7,2acc45a7,2acc45a7,e,0000,0000,0000,0000,0000,0000,0000,0000,00,00,00,00,f0,f0,f0,f0,0000,0000,0000,0000,0000,0000,0000,00,00,00,00,1,1,0,1,1,1
1,1,0,3b0000000000000000000000000000000000000000f0f0f0f00000000000000000000000000000000000000000e0ab311690ab311690ab31169503c3f41622d3909cfbf0156cfbf01563f3f503c,3f3f503c,3f3f503c,cfbf0156,cfbf0156,cfbf0156,cfbf0156,622d3909,622d3909,503c3f41,503c3f41,0ab31169,0ab31169,0ab31169,0ab31169,0ab31169,0ab31169,e,0000,0000,0000,0000,0000,0000,0000,0000,00,00,00,00,f0,f0,f0,f0,0000,0000,0000,0000,0000,0000,0000,00,00,00,00,1,1,0,1,1,1
2,2,0,3a0000000000000000000000000000000000000000f0f0f0f00000000000000000000000000000000000000000e1230c46e7238946a52b0c66e503c3f42988b4e42f3efc055f3efc0553f40503c,3f40503c,3f40503c,f3efc055,f3efc055,f3efc055,f3efc055,988b4e42,988b4e42,503c3f42,503c3f42,52b0c66e,52b0c66e,7238946a,7238946a,1230c46e,1230c46e,e,0000,0000,0000,0000,0000,0000,0000,0000,00,00,00,00,f0,f0,f0,f0,0000,0000,0000,0000,0000,0000,0000,00,00,00,00,0,1,0,1,1,1
3,3,0,2a0000000000000000000000000000000000000000f0f0f0f00000000000000000000000000000000000000000e9c84a4db9c84a4db9c84a4db503c3f436622d390bcfbf015bcfbf0153f41503c,3f41503c,3f41503c,bcfbf015,bcfbf015,bcfbf015,bcfbf015,6622d390,6622d390,503c3f43,503c3f43,9c84a4db,9c84a4db,9c84a4db,9c84a4db,9c84a4db,9c84a4db,e,0000,0000,0000,0000,0000,0000,0000,0000,00,00,00,00,f0,f0,f0,f0,0000,0000,0000,0000,0000,0000,0000,00,00,00,00,0,1,0,1,0,1
4,4,0,2a0000000000000000000000000000000000000000f0f0f0f00000000000000000000000000000000000000000ea7212936a7212936a7212936503c3f445988b4e4af3efc05af3efc053f42503c,3f42503c,3f42503c,af3efc05,af3efc05,af3efc05,af3efc05,5988b4e4,5988b4e4,503c3f44,503c3f44,a7212936,a7212936,a7212936,a7212936,a7212936,a7212936,e,0000,0000,0000,0000,0000,0000,0000,0000,00,00,00,00,f0,f0,f0,f0,0000,0000,0000,0000,0000,0000,0000,00,00,00,00,0,1,0,1,0,1
5,5,0,3b0000000000000000000000000000000000000000f0f0f0f00000000000000000000000000000000000000000e69c84a4d69c84a4d69c84a4d503c3f45146a27386bc7bd01eac6bd013f43503c,3f43503c,3f43503c,eac6bd01,eac6bd01,6bc7bd01,6bc7bd01,146a2738,146a2738,503c3f45,503c3f45,69c84a4d,69c84a4d,69c84a4d,69c84a4d,69c84a4d,69c84a4d,e,0000,0000,0000,0000,0000,0000,0000,0000,00,00,00,00,f0,f0,f0,f0,0000,0000,0000,0000,0000,0000,0000,00,00,00,00,1,1,0,1,1,1
6,6,0,3b0000000000000000000000000000000000000000f0f0f0f00000000000000000000000000000000000000000e5a7212935a7212935a721293503c3f4642526dc755988b4e55988b4e3f44503c,3f44503c,3f44503c,55988b4e,55988b4e,55988b4e,55988b4e,42526dc7,42526dc7,503c3f46,503c3f46,5a721293,5a721293,5a721293,5a721293,5a721293,5a721293,e,0000,0000,0000,0000,0000,0000,0000,0000,00,00,00,00,f0,f0,f0,f0,0000,0000,0000,0000,0000,0000,0000,00,00,00,00,1,1,0,1,1,1
7,7,0,3a0000000000000000000000000000000000000000f0f0f0f00000000000000000000000000000000000000000e1e8f04a05f8cc4acdb8c84ac503c3f4790949b71156622d3156622d33f45503c,3f45503c,3f45503c,156622d3,156622d3,156622d3,156622d3,90949b71,90949b71,503c3f47,503c3f47,db8c84ac,db8c84ac,5f8cc4ac,5f8cc4ac,1e8f04a0,1e8f04a0,e,0000,0000,0000,0000,0000,0000,0000,0000,00,00,00,00,f0,f0,f0,f0,0000,0000,0000,0000,0000,0000,0000,00,00,00,00,0,1,0,1,1,1
8,8,0,2a0000000000000000000000000000000000000000f0f0f0f00000000000000000000000000000000000000000e36e3d06a36e3d06a36e3d06a503c3f48e42526dc055988b4055988b43f46503c,3f46503c,3f46503c,055988b4,055988b4,055988b4,055988b4,e42526dc,e42526dc,503c3f48,503c3f48,36e3d06a,36e3d06a,36e3d06a,36e3d06a,36e3d06a,36e3d06a,e,0000,0000,0000,0000,0000,0000,0000,0000,00,00,00,00,f0,f0,f0,f0,0000,0000,0000,0000,0000,0000,0000,00,00,00,00,0,1,0,1,0,1
9,9,0,2a0000000000000000000000000000000000000000f0f0f0f00000000000000000000000000000000000000000e4db8f41a4db8f41a4db8f41a503c3f49390949b70156622d0156622d3f47503c,3f47503c,3f47503c,0156622d,0156622d,0156622d,0156622d,390949b7,390949b7,503c3f49,503c3f49,4db8f41a,4db8f41a,4db8f41a,4db8f41a,4db8f41a,4db8f41a,e,0000,0000,0000,0000,0000,0000,0000,0000,00,00,00,00,f0,f0,f0,f0,0000,0000,0000,0000,0000,0000,0000,00,00,00,00,0,1,0,1,0,1
10,10,0,3b0000000000000000000000000000000000000000f0f0f0f00000000000000000000000000000000000000000e936e3d06936e3d06936e3d06503c3f4a4e42546d42545a494254da4b3f48503c,3f48503c,3f48503c,4254da4b,4254da4b,42545a49,42545a49,4e42546d,4e42546d,503c3f4a,503c3f4a,936e3d06,936e3d06,936e3d06,936e3d06,936e3d06,936e3d06,e,0000,0000,0000,0000,0000,0000,0000,0000,00,00,00,00,f0,f0,f0,f0,0000,0000,0000,0000,0000,0000,0000,00,00,00,00,1,1,0,1,1,1
11,11,0,3b0000000000000000000000000000000000000000f0f0f0f00000000000000000000000000000000000000000ea4db8f41a4db8f41a4db8f41503c3f4b71e83519d390949bd390949b3f49503c,3f49503c,3f49503c,d390949b,d390949b,d390949b,d390949b,71e83519,71e83519,503c3f4b,503c3f4b,a4db8f41,a4db8f41,a4db8f41,a4db8f41,a4db8f41,a4db8f41,e,0000,0000,0000,0000,0000,0000,0000,0000,00,00,00,00,f0,f0,f0,f0,0000,0000,0000,0000,0000,0000,0000,00,00,00,00,1,1,0,1,1,1
12,12,0,3a0000000000000000000000000000000000000000f0f0f0f00000000000000000000000000000000000000000e6b32ef706a32e7386a32e93a503c3f4cdc7a0d46b4e42526b4e425263f4a503c,3f4a503c,3f4a503c,b4e42526,b4e42526,b4e42526,b4e42526,dc7a0d46,dc7a0d46,503c3f4c,503c3f4c,6a32e93a,6a32e93a,6a32e738,6a32e738,6b32ef70,6b32ef70,e,0000,0000,0000,0000,0000,0000,0000,0000,00,00,00,00,f0,f0,f0,f0,0000,0000,0000,0000,0000,0000,0000,00,00,00,00,0,1,0,1,1,1
13,13,0,2a0000000000000000000000000000000000000000f0f0f0f00000000000000000000000000000000000000000e1a8cbb0e1a8cbb0e1a8cbb0e503c3f4db71e83512d3909492d3909493f4b503c,3f4b503c,3f4b503c,2d390949,2d390949,2d390949,2d390949,b71e8351,b71e8351,503c3f4d,503c3f4d,1a8cbb0e,1a8cbb0e,1a8cbb0e,1a8cbb0e,1a8cbb0e,1a8cbb0e,e,0000,0000,0000,0000,0000,0000,0000,0000,00,00,00,00,f0,f0,f0,f0,0000,0000,0000,0000,0000,0000,0000,00,00,00,00,0,1,0,1,0,1
14,14,0,2a0000000000000000000000000000000000000000f0f0f0f00000000000000000000000000000000000000000e06a32ec306a32ec306a32ec3503c3f4e6dc7a0d48b4e42528b4e42523f4c503c,3f4c503c,3f4c503c,8b4e4252,8b4e4252,8b4e4252,8b4e4252,6dc7a0d4,6dc7a0d4,503c3f4e,503c3f4e,06a32ec3,06a32ec3,06a32ec3,06a32ec3,06a32ec3,06a32ec3,e,0000,0000,0000,0000,0000,0000,0000,0000,00,00,00,00,f0,f0,f0,f0,0000,0000,0000,0000,0000,0000,0000,00,00,00,00,0,1,0,1,0,1
15,15,0,3b0000000000000000000000000000000000000000f0f0f0f00000000000000000000000000000000000000000e41a8cbb041a8cbb041a8cbb0503c3f4f9971ac75a2d3e015a3d3f0153f4d503c,3f4d503c,3f4d503c,a3d3f015,a3d3f015,a2d3e015,a2d3e015,9971ac75,9971ac75,503c3f4f,503c3f4f,41a8cbb0,41a8cbb0,41a8cbb0,41a8cbb0,41a8cbb0,41a8cbb0,e,0000,0000,0000,0000,0000,0000,0000,0000,00,00,00,00,f0,f0,f0,f0,0000,0000,0000,0000,0000,0000,0000,00,00,00,00,1,1,0,1,1,1
16,16,0,3b0000000000000000000000000000000000000000f0f0f0f00000000000000000000000000000000000000000ed06a32ecd06a32ecd06a32ec503c3f50465d875e26dc7a0d26dc7a0d3f4e503c,3f4e503c,3f4e503c,26dc7a0d,26dc7a0d,26dc7a0d,26dc7a0d,465d875e,465d875e,503c3f50,503c3f50,d06a32ec,d06a32ec,d06a32ec,d06a32ec,d06a32ec,d06a32ec,e,0000,0000,0000,0000,0000,0000,0000,0000,00,00,00,00,f0,f0,f0,f0,0000,0000,0000,0000,0000,0000,0000,00,00,00,00,1,1,0,1,1,1
17,17,0,3a0000000000000000000000000000000000000000f0f0f0f00000000000000000000000000000000000000000eee9c9cba8e9efdf22e3e8ef0503c3f51519761d749b71e8349b71e833f4f503c,3f4f503c,3f4f503c,49b71e83,49b71e83,49b71e83,49b71e83,519761d7,519761d7,503c3f51,503c3f51,2e3e8ef0,2e3e8ef0,8e9efdf2,8e9efdf2,ee9c9cba,ee9c9cba,e,0000,0000,0000,0000,0000,0000,0000,0000,00,00,00,00,f0,f0,f0,f0,0000,0000,0000,0000,0000,0000,0000,00,00,00,00,0,1,0,1,1,1
18,18,0,2a0000000000000000000000000000000000000000f0f0f0f00000000000000000000000000000000000000000ec3af3efcc3af3efcc3af3efc503c3f52d465d875526dc7a0526dc7a03f50503c,3f50503c,3f50503c,526dc7a0,526dc7a0,526dc7a0,526dc7a0,d465d875,d465d875,503c3f52,503c3f52,c3af3efc,c3af3efc,c3af3efc,c3af3efc,c3af3efc,c3af3efc,e,0000,0000,0000,0000,0000,0000,0000,0000,00,00,00,00,f0,f0,f0,f0,0000,0000,0000,0000,0000,0000,0000,00,00,00,00,0,1,0,1,0,1
19,19,0,2a0000000000000000000000000000000000000000f0f0f0f00000000000000000000000000000000000000000eb0ebcfbfb0ebcfbfb0ebcfbf503c3f533519761d949b71e8949b71e83f51503c,3f51503c,3f51503c,949b71e8,949b71e8,949b71e8,949b71e8,3519761d,3519761d,503c3f53,503c3f53,b0ebcfbf,b0ebcfbf,b0ebcfbf,b0ebcfbf,b0ebcfbf,b0ebcfbf,e,0000,0000,0000,0000,0000,0000,0000,0000,00,00,00,00,f0,f0,f0,f0,0000,0000,0000,0000,0000,0000,0000,00,00,00,00,0,1,0,1,0,1
20,20,0,3b0000000000000000000000000000000000000000f0f0f0f00000000000000000000000000000000000000000eec3af3efec3af3efec3af3ef503c3f544f4e598625265c3b2526dcfb3f52503c,3f52503c,3f52503c,2526dcfb,2526dcfb,25265c3b,25265c3b,4f4e5986,4f4e5986,503c3f54,503c3f54,ec3af3ef,ec3af3ef,ec3af3ef,ec3af3ef,ec3af3ef,ec3af3ef,e,0000,0000,0000,0000,0000,0000,0000,0000,00,00,00,00,f0,f0,f0,f0,0000,0000,0000,0000,0000,0000,0000,00,00,00,00,1,1,0,1,1,1
21,21,0,3b0000000000000000000000000000000000000000f0f0f0f00000000000000000000000000000000000000000ebb0ebcfbbb0ebcfbbb0ebcfb503c3f55d79f7e0283519761835197613f53503c,3f53503c,3f53503c,83519761,83519761,83519761,83519761,d79f7e02,d79f7e02,503c3f55,503c3f55,bb0ebcfb,bb0ebcfb,bb0ebcfb,bb0ebcfb,bb0ebcfb,bb0ebcfb,e,0000,0000,0000,0000,0000,0000,0000,0000,00,00,00,00,f0,f0,f0,f0,0000,0000,0000,0000,0000,0000,0000,00,00,00,00,1,1,0,1,1,1
22,22,0,3a0000000000000000000000000000000000000000f0f0f0f00000000000000000000000000000000000000000e3c072f8a7e47df0efc87ad8c503c3f5675e7df80a0d465d8a0d465d83f54503c,3f54503c,3f54503c,a0d465d8,a0d465d8,a0d465d8,a0d465d8,75e7df80,75e7df80,503c3f56,503c3f56,fc87ad8c,fc87ad8c,7e47df0e,7e47df0e,3c072f8a,3c072f8a,e,0000,0000,0000,0000,0000,0000,0000,0000,00,00,00,00,f0,f0,f0,f0,0000,0000,0000,0000,0000,0000,0000,00,00,00,00,0,1,0,1,1,1
23,23,0,2a0000000000000000000000000000000000000000f0f0f0f00000000000000000000000000000000000000000ebf015662bf015662bf015662503c3f571d79f7e0e8351976e83519763f55503c,3f55503c,3f55503c,e8351976,e8351976,e8351976,e8351976,1d79f7e0,1d79f7e0,503c3f57,503c3f57,bf015662,bf015662,bf015662,bf015662,bf015662,bf015662,e,0000,0000,0000,0000,0000,0000,0000,0000,00,00,00,00,f0,f0,f0,f0,0000,0000,0000,0000,0000,0000,0000,00,00,00,00,0,1,0,1,0,1
24,24,0,2a0000000000000000000000000000000000000000f0f0f0f00000000000000000000000000000000000000000eefc05598efc05598efc05598503c3f58875e7df87a0d465d7a0d465d3f56503c,3f56503c,3f56503c,7a0d465d,7a0d465d,7a0d465d,7a0d465d,875e7df8,875e7df8,503c3f58,503c3f58,efc05598,efc05598,efc05598,efc05598,efc05598,efc05598,e,0000,0000,0000,0000,0000,0000,0000,0000,00,00,00,00,f0,f0,f0,f0,0000,0000,0000,0000,0000,0000,0000,00,00,00,00,0,1,0,1,0,1
25,25,0,3b0000000000000000000000000000000000000000f0f0f0f00000000000000000000000000000000000000000efbf01566fbf01566fbf01566503c3f5923dfd57e5c8397d65d8313163f57503c,3f57503c,3f57503c,5d831316,5d831316,5c8397d6,5c8397d6,23dfd57e,23dfd57e,503c3f59,503c3f59,fbf01566,fbf01566,fbf01566,fbf01566,fbf01566,fbf01566,e,0000,0000,0000,0000,0000,0000,0000,0000,00,00,00,00,f0,f0,f0,f0,0000,0000,0000,0000,0000,0000,0000,00,00,00,00,1,1,0,1,1,1
26,26,0,3b0000000000000000000000000000000000000000f0f0f0f00000000000000000000000000000000000000000e3efc05593efc05593efc0559503c3f5a80ab3116d875e7dfd875e7df3f58503c,3f58503c,3f58503c,d875e7df,d875e7df,d875e7df,d875e7df,80ab3116,80ab3116,503c3f5a,503c3f5a,3efc0559,3efc0559,3efc0559,3efc0559,3efc0559,3efc0559,e,0000,0000,0000,0000,0000,0000,0000,0000,00,00,00,00,f0,f0,f0,f0,0000,0000,0000,0000,0000,0000,0000,00,00,00,00,1,1,0,1,1,1
27,27,0,3a0000000000000000000000000000000000000000f0f0f0f00000000000000000000000000000000000000000ecf2f0143ee2f311f4ebf090d503c3f5be02acc45761d79f7761d79f73f59503c,3f59503c,3f59503c,761d79f7,761d79f7,761d79f7,761d79f7,e02acc45,e02acc45,503c3f5b,503c3f5b,4ebf090d,4ebf090d,ee2f311f,ee2f311f,cf2f0143,cf2f0143,e,0000,0000,0000,0000,0000,0000,0000,0000,00,00,00,00,f0,f0,f0,f0,0000,0000,0000,0000,0000,0000,0000,00,00,00,00,0,1,0,1,1,1
28,28,0,2a0000000000000000000000000000000000000000f0f0f0f00000000000000000000000000000000000000000e988b4e42988b4e42988b4e42503c3f5cf80ab3115d875e7d5d875e7d3f5a503c,3f5a503c,3f5a503c,5d875e7d,5d875e7d,5d875e7d,5d875e7d,f80ab311,f80ab311,503c3f5c,503c3f5c,988b4e42,988b4e42,988b4e42,988b4e42,988b4e42,988b4e42,e,0000,0000,0000,0000,0000,0000,0000,0000,00,00,00,00,f0,f0,f0,f0,0000,0000,0000,0000,0000,0000,0000,00,00,00,00,0,1,0,1,0,1
29,29,0,2a0000000000000000000000000000000000000000f0f0f0f00000000000000000000000000000000000000000e6622d3906622d3906622d390503c3f5d7e02acc49761d79f9761d79f3f5b503c,3f5b503c,3f5b503c,9761d79f,9761d79f,9761d79f,9761d79f,7e02acc4,7e02acc4,503c3f5d,503c3f5d,6622d390,6622d390,6622d390,6622d390,6622d390,6622d390,e,0000,0000,0000,0000,0000,0000,0000,0000,00,00,00,00,f0,f0,f0,f0,0000,0000,0000,0000,0000,0000,0000,00,00,00,00,0,1,0,1,0,1
30,30,0,3b0000000000000000000000000000000000000000f0f0f0f00000000000000000000000000000000000000000e5988b4e45988b4e45988b4e4503c3f5e9f88a530e7d0b7a5e7d037673f5c503c,3f5c503c,3f5c503c,e7d03767,e7d03767,e7d0b7a5,e7d0b7a5,9f88a530,9f88a530,503c3f5e,503c3f5e,5988b4e4,5988b4e4,5988b4e4,5988b4e4,5988b4e4,5988b4e4,e,0000,0000,0000,0000,0000,0000,0000,0000,00,00,00,00,f0,f0,f0,f0,0000,0000,0000,0000,0000,0000,0000,00,00,00,00,1,1,0,1,1,1
31,31,0,3b0000000000000000000000000000000000000000f0f0f0f00000000000000000000000000000000000000000e56622d3956622d3956622d39503c3f5f45a72129f7e02accf7e02acc3f5d503c,3f5d503c,3f5d503c,f7e02acc,f7e02acc,f7e02acc,f7e02acc,45a72129,45a72129,503c3f5f,503c3f5f,56622d39,56622d39,56622d39,56622d39,56622d39,56622d39,e,0000,0000,0000,0000,0000,0000,0000,0000,00,00,00,00,f0,f0,f0,f0,0000,0000,0000,0000,0000,0000,0000,00,00,00,00,1,1,0,1,1,1
32,32,0,3a0000000000000000000000000000000000000000f0f0f0f00000000000000000000000000000000000000000e47500bcf4418eb4742d089c7503c3f601169c84a7df80ab37df80ab33f5e503c,3f5e503c,3f5e503c,7df80ab3,7df80ab3,7df80ab3,7df80ab3,1169c84a,1169c84a,503c3f60,503c3f60,42d089c7,42d089c7,4418eb47,4418eb47,47500bcf,47500bcf,e,0000,0000,0000,0000,0000,0000,0000,0000,00,00,00,00,f0,f0,f0,f0,0000,0000,0000,0000,0000,0000,0000,00,00,00,00,0,1,0,1,1,1
33,33,0,2a0000000000000000000000000000000000000000f0f0f0f00000000000000000000000000000000000000000e90949b7190949b7190949b71503c3f61c45a72129f7e02ac9f7e02ac3f5f503c,3f5f503c,3f5f503c,9f7e02ac,9f7e02ac,9f7e02ac,9f7e02ac,c45a7212,c45a7212,503c3f61,503c3f61,90949b71,90949b71,90949b71,90949b71,90949b71,90949b71,e,0000,0000,0000,0000,0000,0000,0000,0000,00,00,00,00,f0,f0,f0,f0,0000,0000,0000,0000,0000,0000,0000,00,00,00,00,0,1,0,1,0,1
34,34,0,2a0000000000000000000000000000000000000000f0f0f0f00000000000000000000000000000000000000000ee42526dce42526dce42526dc503c3f6231169c84e7df80abe7df80ab3f60503c,3f60503c,3f60503c,e7df80ab,e7df80ab,e7df80ab,e7df80ab,31169c84,31169c84,503c3f62,503c3f62,e42526dc,e42526dc,e42526dc,e42526dc,e42526dc,e42526dc,e,0000,0000,0000,0000,0000,0000,0000,0000,00,00,00,00,f0,f0,f0,f0,0000,0000,0000,0000,0000,0000,0000,00,00,00,00,0,1,0,1,0,1
35,35,0,3b0000000000000000000000000000000000000000f0f0f0f00000000000000000000000000000000000000000e390949b7390949b7390949b7503c3f638c45a720f9f7a62b78f7a22b3f61503c,3f61503c,3f61503c,78f7a22b,78f7a22b,f9f7a62b,f9f7a62b,8c45a720,8c45a720,503c3f63,503c3f63,390949b7,390949b7,390949b7,390949b7,390949b7,390949b7,e,0000,0000,0000,0000,0000,0000,0000,0000,00,00,00,00,f0,f0,f0,f0,0000,0000,0000,0000,0000,0000,0000,00,00,00,00,1,1,0,1,1,1
36,36,0,3b0000000000000000000000000000000000000000f0f0f0f00000000000000000000000000000000000000000e4e42526d4e42526d4e42526d503c3f644a4db8f4b31169c8b31169c83f62503c,3f62503c,3f62503c,b31169c8,b31169c8,b31169c8,b31169c8,4a4db8f4,4a4db8f4,503c3f64,503c3f64,4e42526d,4e42526d,4e42526d,4e42526d,4e42526d,4e42526d,e,0000,0000,0000,0000,0000,0000,0000,0000,00,00,00,00,f0,f0,f0,f0,0000,0000,0000,0000,0000,0000,0000,00,00,00,00,1,1,0,1,1,1
37,37,0,3a0000000000000000000000000000000000000000f0f0f0f00000000000000000000000000000000000000000ed1c8141bf380b49b51e89419503c3f6512936e3dacc45a72acc45a723f63503c,3f63503c,3f63503c,acc45a72,acc45a72,acc45a72,acc45a72,12936e3d,12936e3d,503c3f65,503c3f65,51e89419,51e89419,f380b49b,f380b49b,d1c8141b,d1c8141b,e,0000,0000,0000,0000,0000,0000,0000,0000,00,00,00,00,f0,f0,f0,f0,0000,0000,0000,0000,0000,0000,0000,00,00,00,00,0,1,0,1,1,1
38,38,0,2a0000000000000000000000000000000000000000f0f0f0f00000000000000000000000000000000000000000edc7a0d46dc7a0d46dc7a0d46503c3f6684a4db8fab31169cab31169c3f64503c,3f64503c,3f64503c,ab31169c,ab31169c,ab31169c,ab31169c,84a4db8f,84a4db8f,503c3f66,503c3f66,dc7a0d46,dc7a0d46,dc7a0d46,dc7a0d46,dc7a0d46,dc7a0d46,e,0000,0000,0000,0000,0000,0000,0000,0000,00,00,00,00,f0,f0,f0,f0,0000,0000,0000,0000,0000,0000,0000,00,00,00,00,0,1,0,1,0,1
39,39,0,2a0000000000000000000000000000000000000000f0f0f0f00000000000000000000000000000000000000000eb71e8351b71e8351b71e8351503c3f67212936e32acc45a72acc45a73f65503c,3f65503c,3f65503c,2acc45a7,2acc45a7,2acc45a7,2acc45a7,212936e3,212936e3,503c3f67,503c3f67,b71e8351,b71e8351,b71e8351,b71e8351,b71e8351,b71e8351,e,0000,0000,0000,0000,0000,0000,0000,0000,00,00,00,00,f0,f0,f0,f0,0000,0000,0000,0000,0000,0000,0000,00,00,00,00,0,1,0,1,0,1
40,40,0,3b0000000000000000000000000000000000000000f0f0f0f00000000000000000000000000000000000000000e6dc7a0d46dc7a0d46dc7a0d4503c3f68c84a4db9c8ba5528c8ba51e83f66503c,3f66503c,3f66503c,c8ba51e8,c8ba51e8,c8ba5528,c8ba5528,c84a4db9,c84a4db9,503c3f68,503c3f68,6dc7a0d4,6dc7a0d4,6dc7a0d4,6dc7a0d4,6dc7a0d4,6dc7a0d4,e,0000,0000,0000,0000,0000,0000,0000,0000,00,00,00,00,f0,f0,f0,f0,0000,0000,0000,0000,0000,0000,0000,00,00,00,00,1,1,0,1,1,1
41,41,0,3b0000000000000000000000000000000000000000f0f0f0f00000000000000000000000000000000000000000e9b71e8359b71e8359b71e835503c3f693d06a32e7212936e7212936e3f67503c,3f67503c,3f67503c,7212936e,7212936e,7212936e,7212936e,3d06a32e,3d06a32e,503c3f69,503c3f69,9b71e835,9b71e835,9b71e835,9b71e835,9b71e835,9b71e835,e,0000,0000,0000,0000,0000,0000,0000,0000,00,00,00,00,f0,f0,f0,f0,0000,0000,0000,0000,0000,0000,0000,00,00,00,00,1,1,0,1,1,1
42,42,0,3a0000000000000000000000000000000000000000f0f0f0f00000000000000000000000000000000000000000e265dfe1c465c0e5c66dc725e503c3f6a8f41a8cb9c84a4db9c84a4db3f68503c,3f68503c,3f68503c,9c84a4db,9c84a4db,9c84a4db,9c84a4db,8f41a8cb,8f41a8cb,503c3f6a,503c3f6a,66dc725e,66dc725e,465c0e5c,465c0e5c,265dfe1c,265dfe1c,e,0000,0000,0000,0000,0000,0000,0000,0000,00,00,00,00,f0,f0,f0,f0,0000,0000,0000,0000,0000,0000,0000,00,00,00,00,0,1,0,1,1,1
