Sample in Buffer,Sample in Window,TRIGGER,ila_data[969:0],receiver_0[31:0],receiver_1[31:0],receiver_2[31:0],receiver_3[31:0],transmitter_0[31:0],transmitter_1[31:0],transmitter_2[31:0],transmitter_3[31:0],prbs_match_int[3:0],hb0_gtwiz_userclk_rx_usrclk2_int,hb0_gtwiz_userclk_rx_active_int,hb_gtwiz_reset_all_int,hb0_gtwiz_reset_rx_done_int,hb0_gtwiz_userclk_tx_usrclk2_int,hb0_gtwiz_userclk_tx_active_int,gtwiz_userclk_tx_reset_int,gtwiz_userclk_tx_usrclk_int,gtwiz_userclk_tx_usrclk2_int,gtwiz_userclk_tx_active_int,gtwiz_userclk_rx_reset_int,gtwiz_userclk_rx_usrclk_int,gtwiz_userclk_rx_usrclk2_int,gtwiz_userclk_rx_active_int,drpaddr_int[35:0],drpclk_int[3:0],drpdi_int[3:0],drpen_int[3:0],drpwe_int[3:0],eyescanreset_int[3:0],rx8b10ben_int[3:0],rxcommadeten_int[3:0],rxlpmen_int[3:0],rxmcommaalignen_int[3:0],rxpcommaalignen_int[3:0],rxrate_int[11:0],tx8b10ben_int[3:0],txdiffctrl_int[15:0],txpostcursor_int[19:0],txprecursor_int[19:0],drpdo_int[63:0],drprdy_int[3:0],gtpowergood_int[3:0],rxbyteisaligned_int[3:0],rxbyterealign_int[3:0],rxcommadet_int[3:0],rxpmaresetdone_int[3:0],txpmaresetdone_int[3:0],ch0_rxctrl0_int[15:0],ch1_rxctrl0_int[15:0],ch2_rxctrl0_int[15:0],ch3_rxctrl0_int[15:0],ch0_rxctrl1_int[15:0],ch1_rxctrl1_int[15:0],ch2_rxctrl1_int[15:0],ch3_rxctrl1_int[15:0],ch0_rxctrl2_int[7:0],ch1_rxctrl2_int[7:0],ch2_rxctrl2_int[7:0],ch3_rxctrl2_int[7:0],ch0_rxctrl3_int[7:0],ch1_rxctrl3_int[7:0],ch2_rxctrl3_int[7:0],ch3_rxctrl3_int[7:0],ch0_txctrl0_int[15:0],ch1_txctrl0_int[15:0],ch2_txctrl0_int[15:0],ch3_txctrl0_int[15:0],ch0_txctrl1_int[15:0],ch1_txctrl1_int[15:0],ch2_txctrl1_int[15:0],ch3_txctrl1_int[15:0],ch0_txctrl2_int[7:0],ch1_txctrl2_int[7:0],ch2_txctrl2_int[7:0],ch3_txctrl2_int[7:0],hb0_rxdata_nml_ctr[39:0],ch0_rxdata_err_ctr[15:0],ch1_rxdata_err_ctr[15:0],ch2_rxdata_err_ctr[15:0],ch3_rxdata_err_ctr[15:0]
Radix - UNSIGNED,UNSIGNED,UNSIGNED,HEX,HEX,HEX,HEX,HEX,HEX,HEX,HEX,HEX,HEX,HEX,HEX,HEX,HEX,HEX,HEX,HEX,HEX,HEX,HEX,HEX,HEX,HEX,HEX,HEX,HEX,HEX,HEX,HEX,HEX,HEX,HEX,HEX,HEX,HEX,HEX,HEX,HEX,HEX,HEX,HEX,HEX,HEX,HEX,HEX,HEX,HEX,HEX,HEX,HEX,HEX,HEX,HEX,HEX,HEX,HEX,HEX,HEX,HEX,HEX,HEX,HEX,HEX,HEX,HEX,HEX,HEX,HEX,HEX,HEX,HEX,HEX,HEX,HEX,HEX,HEX,HEX,HEX,HEX,HEX,HEX
0,0,0,26e167c160cba11c8c5bae614000000000000000000000000000000000000000003c3c3c3c00000000000000000000000000000000000000003fc03fc0000000000000000000000000033333c003ffffc00030160b0582e3ba0503cf143503cf143503cf143503cf143c3b0b0c3211cb0c3211cb0c3e559b0c3,e559b0c3,211cb0c3,211cb0c3,c3b0b0c3,503cf143,503cf143,503cf143,503cf143,0,0,1,0,1,1,1,0,1,1,1,0,0,0,1,0582c160b,c,0,0,0,0,f,f,f,f,f,000,f,cccc,00000,00000,0000000000000000,0,f,f,0,0,f,f,0000,0000,0000,0000,0000,0000,0000,0000,00,00,00,00,f0,f0,f0,f0,0000,0000,0000,0000,0000,0000,0000,0000,00,00,00,00,316eb98500,8472,832e,9f05,9b85
1,1,0,26e367c360cda11e8c5bae614200000000000000000000000000000000000000003c3c3c3c00000000000000000000000000000000000000003fc03fc0000000000000000000000000033333c003ffffc00030160b0582e23a0503c8207503c8207503c4aa7503c5aa79ec8b0c36081b0c36081b0c3fdacb0c3,fdacb0c3,6081b0c3,6081b0c3,9ec8b0c3,503c5aa7,503c4aa7,503c8207,503c8207,0,0,1,0,1,1,1,0,0,0,1,0,0,0,1,0582c160b,c,0,0,0,0,f,f,f,f,f,000,f,cccc,00000,00000,0000000000000000,0,f,f,0,0,f,f,0000,0000,0000,0000,0000,0000,0000,0000,00,00,00,00,f0,f0,f0,f0,0000,0000,0000,0000,0000,0000,0000,0000,00,00,00,00,316eb98508,847a,8336,9f0d,9b8d
2,2,0,26e527c520cf61204c5bae614400000000000000000000000000000000000000003c3c3c3c00000000000000000000000000000000000000003fc03fc0000000000000000000000000033333c003ffffc00030160b0582fa2b0503cc103503cc103503cc103503cc103c5abb0c3d0a0b0c3d0a0b0c3fe56b0c3,fe56b0c3,d0a0b0c3,d0a0b0c3,c5abb0c3,503cc103,503cc103,503cc103,503cc103,0,1,1,0,1,0,1,0,0,0,1,0,1,1,1,0582c160b,c,0,0,0,0,f,f,f,f,f,000,f,cccc,00000,00000,0000000000000000,0,f,f,0,0,f,f,0000,0000,0000,0000,0000,0000,0000,0000,00,00,00,00,f0,f0,f0,f0,0000,0000,0000,0000,0000,0000,0000,0000,00,00,00,00,316eb98510,8481,833d,9f14,9b94
3,3,0,26e727c720d161224c5bae614600000000000000000000000000000000000000003c3c3c3c00000000000000000000000000000000000000003fc03fc0000000000000000000000000033333c003ffffc00030160b0582fb2b0503c6081503c6081503c6081503c608118c0b0c37fabb0c37fabb0c331f6b0c3,31f6b0c3,7fabb0c3,7fabb0c3,18c0b0c3,503c6081,503c6081,503c6081,503c6081,0,1,1,0,1,0,1,0,0,1,1,0,1,1,1,0582c160b,c,0,0,0,0,f,f,f,f,f,000,f,cccc,00000,00000,0000000000000000,0,f,f,0,0,f,f,0000,0000,0000,0000,0000,0000,0000,0000,00,00,00,00,f0,f0,f0,f0,0000,0000,0000,0000,0000,0000,0000,0000,00,00,00,00,316eb98518,8489,8345,9f1c,9b9c
4,4,0,26e8e7c8e0d321240c5bae6147c0000000000000000000000000000000000000003c3c3c3c00000000000000000000000000000000000000003fc03fc0000000000000000000000000033333c003ffffc00030160b0582e3bb0503c3040503c3040503c3040503c30401310b0c3df55b0c3df55b0c3676bb0c3,676bb0c3,df55b0c3,df55b0c3,1310b0c3,503c3040,503c3040,503c3040,503c3040,0,1,1,0,1,1,1,0,1,1,1,0,0,0,1,0582c160b,c,0,0,0,0,f,f,f,f,f,000,f,cccc,00000,00000,0000000000000000,0,f,f,0,0,f,f,0000,0000,0000,0000,0000,0000,0000,0000,00,00,00,00,f0,f0,f0,f0,0000,0000,0000,0000,0000,0000,0000,0000,00,00,00,00,316eb9851f,8490,834c,9f23,9ba3
5,5,0,26eae7cae0d521260c5bae6149c0000000000000000000000000000000000000003c3c3c3c00000000000000000000000000000000000000003fc03fc0000000000000000000000000033333c003ffffc00030160b0582e3ba0503c1820503c1820503c1820503c18209908b0c31f2ab0c31f2ab0c3cc45b0c3,cc45b0c3,1f2ab0c3,1f2ab0c3,9908b0c3,503c1820,503c1820,503c1820,503c1820,0,0,1,0,1,1,1,0,1,1,1,0,0,0,1,0582c160b,c,0,0,0,0,f,f,f,f,f,000,f,cccc,00000,00000,0000000000000000,0,f,f,0,0,f,f,0000,0000,0000,0000,0000,0000,0000,0000,00,00,00,00,f0,f0,f0,f0,0000,0000,0000,0000,0000,0000,0000,0000,00,00,00,00,316eb98527,8498,8354,9f2b,9bab
6,6,0,26ece7cce0d721280c5bae614bc0000000000000000000000000000000000000003c3c3c3c00000000000000000000000000000000000000003fc03fc0000000000000000000000000033333c003ffffc00030160b0582fa3a0503c3faa503c3faa503c3faa503c3faabc04b0c30ff5b0c30ff5b0c3863db0c3,863db0c3,0ff5b0c3,0ff5b0c3,bc04b0c3,503c3faa,503c3faa,503c3faa,503c3faa,0,0,1,0,1,1,1,0,0,0,1,0,1,1,1,0582c160b,c,0,0,0,0,f,f,f,f,f,000,f,cccc,00000,00000,0000000000000000,0,f,f,0,0,f,f,0000,0000,0000,0000,0000,0000,0000,0000,00,00,00,00,f0,f0,f0,f0,0000,0000,0000,0000,0000,0000,0000,0000,00,00,00,00,316eb9852f,84a0,835c,9f33,9bb3
7,7,0,26eee7cee0d9212a0c5bae614dc0000000000000000000000000000000000000003c3c3c3c00000000000000000000000000000000000000003fc03fc0000000000000000000000000033333c003ffffc00030160b0582fa2b0503c1fd5503c1fd5503c1fd5503c1fd507eab0c333e1b0c387e2b0c3b3f1b0c3,b3f1b0c3,87e2b0c3,33e1b0c3,07eab0c3,503c1fd5,503c1fd5,503c1fd5,503c1fd5,0,1,1,0,1,0,1,0,0,0,1,0,1,1,1,0582c160b,c,0,0,0,0,f,f,f,f,f,000,f,cccc,00000,00000,0000000000000000,0,f,f,0,0,f,f,0000,0000,0000,0000,0000,0000,0000,0000,00,00,00,00,f0,f0,f0,f0,0000,0000,0000,0000,0000,0000,0000,0000,00,00,00,00,316eb98537,84a8,8364,9f3b,9bbb
8,8,0,26f0e7d0e0db212c0c5bae614fc0000000000000000000000000000000000000003c3c3c3c00000000000000000000000000000000000000003fc03fc0000000000000000000000000033333c003ffffc00030160b0582e3ab0503c0fea503c0fea503c0fea503c0fea1ce5b0c35977b0c35977b0c3b41bb0c3,b41bb0c3,5977b0c3,5977b0c3,1ce5b0c3,503c0fea,503c0fea,503c0fea,503c0fea,0,1,1,0,1,0,1,0,1,1,1,0,0,0,1,0582c160b,c,0,0,0,0,f,f,f,f,f,000,f,cccc,00000,00000,0000000000000000,0,f,f,0,0,f,f,0000,0000,0000,0000,0000,0000,0000,0000,00,00,00,00,f0,f0,f0,f0,0000,0000,0000,0000,0000,0000,0000,0000,00,00,00,00,316eb9853f,84b0,836c,9f43,9bc3
9,9,0,26f2a7d2a0dce12dcc5bae615180000000000000000000000000000000000000003c3c3c3c00000000000000000000000000000000000000003fc03fc0000000000000000000000000033333c003ffffc00030160b0582e3ba0503c07f5503c07f5503c07f5503c07f581fdb0c3acdbb0c3acdbb0c35a92b0c3,5a92b0c3,acdbb0c3,acdbb0c3,81fdb0c3,503c07f5,503c07f5,503c07f5,503c07f5,0,0,1,0,1,1,1,0,1,1,1,0,0,0,1,0582c160b,c,0,0,0,0,f,f,f,f,f,000,f,cccc,00000,00000,0000000000000000,0,f,f,0,0,f,f,0000,0000,0000,0000,0000,0000,0000,0000,00,00,00,00,f0,f0,f0,f0,0000,0000,0000,0000,0000,0000,0000,0000,00,00,00,00,316eb98546,84b7,8373,9f4a,9bca
10,10,0,26f4a7d4a0dee12fcc5bae615380000000000000000000000000000000000000003c3c3c3c00000000000000000000000000000000000000003fc03fc0000000000000000000000000033333c003ffffc00030160b0582e23a0503c03fa503c26fa503c03fa503c03faa0feb0c3569db0c3569db0c32d39b0c3,2d39b0c3,569db0c3,569db0c3,a0feb0c3,503c03fa,503c03fa,503c26fa,503c03fa,0,0,1,0,1,1,1,0,0,0,1,0,0,0,1,0582c160b,c,0,0,0,0,f,f,f,f,f,000,f,cccc,00000,00000,0000000000000000,0,f,f,0,0,f,f,0000,0000,0000,0000,0000,0000,0000,0000,00,00,00,00,f0,f0,f0,f0,0000,0000,0000,0000,0000,0000,0000,0000,00,00,00,00,316eb9854e,84bf,837b,9f52,9bd2
11,11,0,26f6a7d6a0e0e131cc5bae615580000000000000000000000000000000000000003c3c3c3c00000000000000000000000000000000000000003fc03fc0000000000000000000000000033333c003ffffc00030160b0582fa2a0503c533b503c533b503c533b503c533bc07fb0c3ab31b0c3ab31b0c3f67cb0c3,f67cb0c3,ab31b0c3,ab31b0c3,c07fb0c3,503c533b,503c533b,503c533b,503c533b,0,0,1,0,1,0,1,0,0,0,1,0,1,1,1,0582c160b,c,0,0,0,0,f,f,f,f,f,000,f,cccc,00000,00000,0000000000000000,0,f,f,0,0,f,f,0000,0000,0000,0000,0000,0000,0000,0000,00,00,00,00,f0,f0,f0,f0,0000,0000,0000,0000,0000,0000,0000,0000,00,00,00,00,316eb98556,84c7,8383,9f5a,9bda
12,12,0,26f8a7d8a0e2e133cc5bae615780000000000000000000000000000000000000003c3c3c3c00000000000000000000000000000000000000003fc03fc0000000000000000000000000033333c003ffffc00030160b0582fa2b0503ca99d503ca99d503ca99d503ca99d5567b0c36b4eb0c36b4eb0c3694ab0c3,694ab0c3,6b4eb0c3,6b4eb0c3,5567b0c3,503ca99d,503ca99d,503ca99d,503ca99d,0,1,1,0,1,0,1,0,0,0,1,0,1,1,1,0582c160b,c,0,0,0,0,f,f,f,f,f,000,f,cccc,00000,00000,0000000000000000,0,f,f,0,0,f,f,0000,0000,0000,0000,0000,0000,0000,0000,00,00,00,00,f0,f0,f0,f0,0000,0000,0000,0000,0000,0000,0000,0000,00,00,00,00,316eb9855e,84cf,838b,9f62,9be2
13,13,0,26faa7dae0e4e135cc5bae615940000000000000000000000000000000000000003c3c3c3c00000000000000000000000000000000000000003fc03fc0000000000000000000000000033333c003ffffc00030160b0582e3ab0503c54ce503c54ce503c54ce503c54ce2accb0c345b8b0c345b8b0c33e29b0c3,3e29b0c3,45b8b0c3,45b8b0c3,2accb0c3,503c54ce,503c54ce,503c54ce,503c54ce,0,1,1,0,1,0,1,0,1,1,1,0,0,0,1,0582c160b,c,0,0,0,0,f,f,f,f,f,000,f,cccc,00000,00000,0000000000000000,0,f,f,0,0,f,f,0000,0000,0000,0000,0000,0000,0000,0000,00,00,00,00,f0,f0,f0,f0,0000,0000,0000,0000,0000,0000,0000,0000,00,00,00,00,316eb98565,84d7,8393,9f6b,9bea
14,14,0,26fc67dc60e6a1378c5bae615b40000000000000000000000000000000000000003c3c3c3c00000000000000000000000000000000000000003fc03fc0000000000000000000000000033333c003ffffc00030160b0582e3ba0503caa67503caa67503caa67503caa67f586b0c33dd3b0c33dd3b0c36f74b0c3,6f74b0c3,3dd3b0c3,3dd3b0c3,f586b0c3,503caa67,503caa67,503caa67,503caa67,0,0,1,0,1,1,1,0,1,1,1,0,0,0,1,0582c160b,c,0,0,0,0,f,f,f,f,f,000,f,cccc,00000,00000,0000000000000000,0,f,f,0,0,f,f,0000,0000,0000,0000,0000,0000,0000,0000,00,00,00,00,f0,f0,f0,f0,0000,0000,0000,0000,0000,0000,0000,0000,00,00,00,00,316eb9856d,84de,839a,9f71,9bf1
15,15,0,26fe67de60e8a1398c5bae615d40000000000000000000000000000000000000003c3c3c3c00000000000000000000000000000000000000003fc03fc0000000000000000000000000033333c003ffffc00030160b0582fa3a0503cba58503cba58503cf278503cf658eab3b0c3f189b0c3f189b0c3d74ab0c3,d74ab0c3,f189b0c3,f189b0c3,eab3b0c3,503cf658,503cf278,503cba58,503cba58,0,0,1,0,1,1,1,0,0,0,1,0,1,1,1,0582c160b,c,0,0,0,0,f,f,f,f,f,000,f,cccc,00000,00000,0000000000000000,0,f,f,0,0,f,f,0000,0000,0000,0000,0000,0000,0000,0000,00,00,00,00,f0,f0,f0,f0,0000,0000,0000,0000,0000,0000,0000,0000,00,00,00,00,316eb98575,84e6,83a2,9f79,9bf9
16,16,0,270067e060eaa13b8c5bae615f40000000000000000000000000000000000000003c3c3c3c00000000000000000000000000000000000000003fc03fc0000000000000000000000000033333c003ffffc00030160b0582fa2b0503cdd2c503cdd2c503cdd2c503cdd2c77f5b0c377b4b0c377b4b0c31b25b0c3,1b25b0c3,77b4b0c3,77b4b0c3,77f5b0c3,503cdd2c,503cdd2c,503cdd2c,503cdd2c,0,1,1,0,1,0,1,0,0,0,1,0,1,1,1,0582c160b,c,0,0,0,0,f,f,f,f,f,000,f,cccc,00000,00000,0000000000000000,0,f,f,0,0,f,f,0000,0000,0000,0000,0000,0000,0000,0000,00,00,00,00,f0,f0,f0,f0,0000,0000,0000,0000,0000,0000,0000,0000,00,00,00,00,316eb9857d,84ee,83aa,9f81,9c01
17,17,0,270267e260eca13d8c5bae616140000000000000000000000000000000000000003c3c3c3c00000000000000000000000000000000000000003fc03fc0000000000000000000000000033333c003ffffc00030160b0582fbab0503cee96503cee96503cee96503cee96db5ab0c392f2b0c392f2b0c3738eb0c3,738eb0c3,92f2b0c3,92f2b0c3,db5ab0c3,503cee96,503cee96,503cee96,503cee96,0,1,1,0,1,0,1,0,1,1,1,0,1,1,1,0582c160b,c,0,0,0,0,f,f,f,f,f,000,f,cccc,00000,00000,0000000000000000,0,f,f,0,0,f,f,0000,0000,0000,0000,0000,0000,0000,0000,00,00,00,00,f0,f0,f0,f0,0000,0000,0000,0000,0000,0000,0000,0000,00,00,00,00,316eb98585,84f6,83b2,9f89,9c09
18,18,0,2703e7e3e0ee213f0c5bae616300000000000000000000000000000000000000003c3c3c3c00000000000000000000000000000000000000003fc03fc0000000000000000000000000033333c003ffffc00030160b0582e3bb0503c774b503c774b503c774b503c774b9d2db0c339e9b0c339e9b0c349a8b0c3,49a8b0c3,39e9b0c3,39e9b0c3,9d2db0c3,503c774b,503c774b,503c774b,503c774b,0,1,1,0,1,1,1,0,1,1,1,0,0,0,1,0582c160b,c,0,0,0,0,f,f,f,f,f,000,f,cccc,00000,00000,0000000000000000,0,f,f,0,0,f,f,0000,0000,0000,0000,0000,0000,0000,0000,00,00,00,00,f0,f0,f0,f0,0000,0000,0000,0000,0000,0000,0000,0000,00,00,00,00,316eb9858c,84fc,83b8,9f8f,9c0f
19,19,0,2705e7e5e0f021410c5bae616500000000000000000000000000000000000000003c3c3c3c00000000000000000000000000000000000000003fc03fc0000000000000000000000000033333c003ffffc00030160b0582e3ba0503c3ba5503c3ba5503c3ba5503c3ba531f6b0c37c7bb0c37c7bb0c3bbc4b0c3,bbc4b0c3,7c7bb0c3,7c7bb0c3,31f6b0c3,503c3ba5,503c3ba5,503c3ba5,503c3ba5,0,0,1,0,1,1,1,0,1,1,1,0,0,0,1,0582c160b,c,0,0,0,0,f,f,f,f,f,000,f,cccc,00000,00000,0000000000000000,0,f,f,0,0,f,f,0000,0000,0000,0000,0000,0000,0000,0000,00,00,00,00,f0,f0,f0,f0,0000,0000,0000,0000,0000,0000,0000,0000,00,00,00,00,316eb98594,8504,83c0,9f97,9c17
20,20,0,2707e7e7e0f221430c5bae616700000000000000000000000000000000000000003c3c3c3c00000000000000000000000000000000000000003fc03fc0000000000000000000000000033333c003ffffc00030160b0582fa3a0503cc6f6503cc6f6503cc6f6503cc6f6676bb0c34e5db0c34e5db0c3528db0c3,528db0c3,4e5db0c3,4e5db0c3,676bb0c3,503cc6f6,503cc6f6,503cc6f6,503cc6f6,0,0,1,0,1,1,1,0,0,0,1,0,1,1,1,0582c160b,c,0,0,0,0,f,f,f,f,f,000,f,cccc,00000,00000,0000000000000000,0,f,f,0,0,f,f,0000,0000,0000,0000,0000,0000,0000,0000,00,00,00,00,f0,f0,f0,f0,0000,0000,0000,0000,0000,0000,0000,0000,00,00,00,00,316eb9859c,850c,83c8,9f9f,9c1f
21,21,0,2709e7e9e0f421450c5bae616900000000000000000000000000000000000000003c3c3c3c00000000000000000000000000000000000000003fc03fc0000000000000000000000000033333c003ffffc00030160b0582fa2b0503c637b503c637b503c637b503c637bb83eb0c3a936b0c33836b0c32936b0c3,2936b0c3,3836b0c3,a936b0c3,b83eb0c3,503c637b,503c637b,503c637b,503c637b,0,1,1,0,1,0,1,0,0,0,1,0,1,1,1,0582c160b,c,0,0,0,0,f,f,f,f,f,000,f,cccc,00000,00000,0000000000000000,0,f,f,0,0,f,f,0000,0000,0000,0000,0000,0000,0000,0000,00,00,00,00,f0,f0,f0,f0,0000,0000,0000,0000,0000,0000,0000,0000,00,00,00,00,316eb985a4,8514,83d0,9fa7,9c27
22,22,0,270be7ebe0f621470c5bae616b00000000000000000000000000000000000000003c3c3c3c00000000000000000000000000000000000000003fc03fc0000000000000000000000000033333c003ffffc00030160b0582e3ab0503cb1bd503cb1bd503cb1bd503cb1bdd36fb0c37464b0c37464b0c39117b0c3,9117b0c3,7464b0c3,7464b0c3,d36fb0c3,503cb1bd,503cb1bd,503cb1bd,503cb1bd,0,1,1,0,1,0,1,0,1,1,1,0,0,0,1,0582c160b,c,0,0,0,0,f,f,f,f,f,000,f,cccc,00000,00000,0000000000000000,0,f,f,0,0,f,f,0000,0000,0000,0000,0000,0000,0000,0000,00,00,00,00,f0,f0,f0,f0,0000,0000,0000,0000,0000,0000,0000,0000,00,00,00,00,316eb985ac,851c,83d8,9faf,9c2f
23,23,0,270da7eda0f7e148cc5bae616cc0000000000000000000000000000000000000003c3c3c3c00000000000000000000000000000000000000003fc03fc0000000000000000000000000033333c003ffffc00030160b0582e3ba0503c58de503c58de503c58de503c58de89d7b0c34a4db0c34a4db0c3a714b0c3,a714b0c3,4a4db0c3,4a4db0c3,89d7b0c3,503c58de,503c58de,503c58de,503c58de,0,0,1,0,1,1,1,0,1,1,1,0,0,0,1,0582c160b,c,0,0,0,0,f,f,f,f,f,000,f,cccc,00000,00000,0000000000000000,0,f,f,0,0,f,f,0000,0000,0000,0000,0000,0000,0000,0000,00,00,00,00,f0,f0,f0,f0,0000,0000,0000,0000,0000,0000,0000,0000,00,00,00,00,316eb985b3,8523,83df,9fb6,9c36
24,24,0,270fa7efa0f9e14acc5bae616ec0000000000000000000000000000000000000003c3c3c3c00000000000000000000000000000000000000003fc03fc0000000000000000000000000033333c003ffffc00030160b0582e23a0503c2e6f503c696f503c2c6f503c2c6fb41bb0c32526b0c32526b0c3dc9ab0c3,dc9ab0c3,2526b0c3,2526b0c3,b41bb0c3,503c2c6f,503c2c6f,503c696f,503c2e6f,0,0,1,0,1,1,1,0,0,0,1,0,0,0,1,0582c160b,c,0,0,0,0,f,f,f,f,f,000,f,cccc,00000,00000,0000000000000000,0,f,f,0,0,f,f,0000,0000,0000,0000,0000,0000,0000,0000,00,00,00,00,f0,f0,f0,f0,0000,0000,0000,0000,0000,0000,0000,0000,00,00,00,00,316eb985bb,852b,83e7,9fbe,9c3e
25,25,0,2711a7f1a0fbe14ccc5bae6170c0000000000000000000000000000000000000003c3c3c3c00000000000000000000000000000000000000003fc03fc0000000000000000000000000033333c003ffffc00030160b0582fa2a0503cb5b2503cb5b2503cb5b2503cb5b25ab2b0c3f273b0c3f273b0c38e22b0c3,8e22b0c3,f273b0c3,f273b0c3,5ab2b0c3,503cb5b2,503cb5b2,503cb5b2,503cb5b2,0,0,1,0,1,0,1,0,0,0,1,0,1,1,1,0582c160b,c,0,0,0,0,f,f,f,f,f,000,f,cccc,00000,00000,0000000000000000,0,f,f,0,0,f,f,0000,0000,0000,0000,0000,0000,0000,0000,00,00,00,00,f0,f0,f0,f0,0000,0000,0000,0000,0000,0000,0000,0000,00,00,00,00,316eb985c3,8533,83ef,9fc6,9c46
26,26,0,2713a7f3a0fde14ecc5bae6172c0000000000000000000000000000000000000003c3c3c3c00000000000000000000000000000000000000003fc03fc0000000000000000000000000033333c003ffffc00030160b0582fa2b0503cdad9503cdad9503cdad9503cdad9e949b0c3a8e1b0c3a8e1b0c36b41b0c3,6b41b0c3,a8e1b0c3,a8e1b0c3,e949b0c3,503cdad9,503cdad9,503cdad9,503cdad9,0,1,1,0,1,0,1,0,0,0,1,0,1,1,1,0582c160b,c,0,0,0,0,f,f,f,f,f,000,f,cccc,00000,00000,0000000000000000,0,f,f,0,0,f,f,0000,0000,0000,0000,0000,0000,0000,0000,00,00,00,00,f0,f0,f0,f0,0000,0000,0000,0000,0000,0000,0000,0000,00,00,00,00,316eb985cb,853b,83f7,9fce,9c4e
27,27,0,271527f5e0ffa150cc5bae617480000000000000000000000000000000000000003c3c3c3c00000000000000000000000000000000000000003fc03fc0000000000000000000000000033333c003ffffc00030160b0582e3ab0503ced6c503ced6c503ced6c503ced6c7bbbb0c3c470b0c3c470b0c35eb7b0c3,5eb7b0c3,c470b0c3,c470b0c3,7bbbb0c3,503ced6c,503ced6c,503ced6c,503ced6c,0,1,1,0,1,0,1,0,1,1,1,0,0,0,1,0582c160b,c,0,0,0,0,f,f,f,f,f,000,f,cccc,00000,00000,0000000000000000,0,f,f,0,0,f,f,0000,0000,0000,0000,0000,0000,0000,0000,00,00,00,00,f0,f0,f0,f0,0000,0000,0000,0000,0000,0000,0000,0000,00,00,00,00,316eb985d2,8543,83fe,9fd7,9c54
28,28,0,271767f76101a1528c5bae617680000000000000000000000000000000000000003c3c3c3c00000000000000000000000000000000000000003fc03fc0000000000000000000000000033333c003ffffc00030160b0582e3ba0503cf6b6503cf6b6503cf6b6503cf6b65d52b0c38dd8b0c38dd8b0c3bfd4b0c3,bfd4b0c3,8dd8b0c3,8dd8b0c3,5d52b0c3,503cf6b6,503cf6b6,503cf6b6,503cf6b6,0,0,1,0,1,1,1,0,1,1,1,0,0,0,1,0582c160b,c,0,0,0,0,f,f,f,f,f,000,f,cccc,00000,00000,0000000000000000,0,f,f,0,0,f,f,0000,0000,0000,0000,0000,0000,0000,0000,00,00,00,00,f0,f0,f0,f0,0000,0000,0000,0000,0000,0000,0000,0000,00,00,00,00,316eb985da,854a,8406,9fdd,9c5d
29,29,0,271967f96103a1548c5bae617880000000000000000000000000000000000000003c3c3c3c00000000000000000000000000000000000000003fc03fc0000000000000000000000000033333c003ffffc00030160b0582fa3a0503c2470503c2470503c6470503c30703e29b0c33603b0c33603b0c3cf8ab0c3,cf8ab0c3,3603b0c3,3603b0c3,3e29b0c3,503c3070,503c6470,503c2470,503c2470,0,0,1,0,1,1,1,0,0,0,1,0,1,1,1,0582c160b,c,0,0,0,0,f,f,f,f,f,000,f,cccc,00000,00000,0000000000000000,0,f,f,0,0,f,f,0000,0000,0000,0000,0000,0000,0000,0000,00,00,00,00,f0,f0,f0,f0,0000,0000,0000,0000,0000,0000,0000,0000,00,00,00,00,316eb985e2,8552,840e,9fe5,9c65
