Sample in Buffer,Sample in Window,TRIGGER,receiver_0[31:0],ila_data[617:0],receiver_1[31:0],receiver_2[31:0],receiver_3[31:0],transmitter_0[31:0],transmitter_1[31:0],transmitter_2[31:0],transmitter_3[31:0],prbs_match_int[3:0],ch0_rxctrl0_int[15:0],ch1_rxctrl0_int[15:0],ch2_rxctrl0_int[15:0],ch3_rxctrl0_int[15:0],ch0_rxctrl1_int[15:0],ch1_rxctrl1_int[15:0],ch2_rxctrl1_int[15:0],ch3_rxctrl1_int[15:0],ch0_rxctrl2_int[7:0],ch1_rxctrl2_int[7:0],ch2_rxctrl2_int[7:0],ch3_rxctrl2_int[7:0],ch0_rxctrl3_int[7:0],ch1_rxctrl3_int[7:0],ch2_rxctrl3_int[7:0],ch3_rxctrl3_int[7:0],ch0_txctrl0_int[15:0],ch1_txctrl0_int[15:0],ch2_txctrl0_int[15:0],ch3_txctrl0_int[15:0],ch0_txctrl1_int[15:0],ch1_txctrl1_int[15:0],ch2_txctrl1_int[15:0],ch3_txctrl1_int[15:0],ch0_txctrl2_int[7:0],ch1_txctrl2_int[7:0],ch2_txctrl2_int[7:0],ch3_txctrl2_int[7:0],hb0_gtwiz_userclk_rx_usrclk2_int,hb0_gtwiz_userclk_rx_active_int,hb_gtwiz_reset_all_int,hb0_gtwiz_reset_rx_done_int,hb0_gtwiz_userclk_tx_usrclk2_int,hb0_gtwiz_userclk_tx_active_int
Radix - UNSIGNED,UNSIGNED,UNSIGNED,HEX,HEX,HEX,HEX,HEX,HEX,HEX,HEX,HEX,HEX,HEX,HEX,HEX,HEX,HEX,HEX,HEX,HEX,HEX,HEX,HEX,HEX,HEX,HEX,HEX,HEX,HEX,HEX,HEX,HEX,HEX,HEX,HEX,HEX,HEX,HEX,HEX,HEX,HEX,HEX,HEX,HEX,HEX,HEX
0,0,0,7a69d4a1,3b0000000000000000000000000000000000000000f0f8f0f00000000000000004000600000000000000000000049b71e8349b71e8349b71e8349b71e836c9da26818862bc02d00261b7a69d4a1,2d00261b,18862bc0,6c9da268,49b71e83,49b71e83,49b71e83,49b71e83,0,0000,0000,0000,0000,0000,0006,0004,0000,00,00,00,00,f0,f0,f8,f0,0000,0000,0000,0000,0000,0000,0000,0000,00,00,00,00,1,1,0,1,1,1
1,1,0,14a473f0,3b0000000000000000000000000000000000000000f5f0f0f000000000000100000008000000010000000000000526dc7a0526dc7a0526dc7a0526dc7a0e25a748dfd0f5887e2dae07914a473f0,e2dae079,fd0f5887,e25a748d,526dc7a0,526dc7a0,526dc7a0,526dc7a0,0,0000,0000,0000,0001,0000,0008,0000,0001,00,00,00,00,f0,f0,f0,f5,0000,0000,0000,0000,0000,0000,0000,0000,00,00,00,00,1,1,0,1,1,1
2,2,0,9310c0c6,3a0000000000000000000000000000000000000000f1f0f0f700000000000c0000000b000500000000000300010b59977e9b51b77b9341b717db51b7238091ffff33b8fa148e24d9cfe9310c0c6,e24d9cfe,3b8fa148,091ffff3,b51b7238,341b717d,b51b77b9,b59977e9,0,0001,0003,0000,0000,0005,000b,0000,000c,00,00,00,00,f7,f0,f0,f1,0000,0000,0000,0000,0000,0000,0000,0000,00,00,00,00,0,1,0,1,1,1
3,3,0,3d2431a8,2a0000000000000000000000000000000000000000f0f7f1f400000000000e00050008000c000000030000000400d465d870d465d870d465d870d465d8757f01cb664ee248a9b2e046b3d2431a8,9b2e046b,64ee248a,57f01cb6,0d465d87,0d465d87,0d465d87,0d465d87,0,0004,0000,0003,0000,000c,0008,0005,000e,00,00,00,00,f4,f1,f7,f0,0000,0000,0000,0000,0000,0000,0000,0000,00,00,00,00,0,1,0,1,0,1
4,4,0,24cea510,2a0000000000000000000000000000000000000000f0f0f0f000000000000200040001000900000000000000000835197618351976183519761835197616522090240a06522f16c560e24cea510,f16c560e,40a06522,65220902,83519761,83519761,83519761,83519761,0,0000,0000,0000,0000,0009,0001,0004,0002,00,00,00,00,f0,f0,f0,f0,0000,0000,0000,0000,0000,0000,0000,0000,00,00,00,00,0,1,0,1,0,1
5,5,0,85f29614,3b0000000000000000000000000000000000000000f7f5f5f200000000000000010008000800000008000000000a0d465d8a0d465d8a0d465d8a0d465d861424f01c87cd7b1a000642585f29614,a0006425,c87cd7b1,61424f01,a0d465d8,a0d465d8,a0d465d8,a0d465d8,0,0000,0000,0008,0000,0008,0008,0001,0000,00,00,00,00,f2,f5,f5,f7,0000,0000,0000,0000,0000,0000,0000,0000,00,00,00,00,1,1,0,1,1,1
6,6,0,201f1e10,3b0000000000000000000000000000000000000000fefff0f000000000000000040000000f00040005000000000e8351976e8351976e8351976e8351976a2ed91c2858d00ed6993090b201f1e10,6993090b,858d00ed,a2ed91c2,e8351976,e8351976,e8351976,e8351976,0,0000,0000,0005,0004,000f,0000,0004,0000,00,00,00,00,f0,f0,ff,fe,0000,0000,0000,0000,0000,0000,0000,0000,00,00,00,00,1,1,0,1,1,1
7,7,0,046b5b8c,3a0000000000000000000000000000000000000000f7f0f0f400000000000400020000000100040000000000000031f445c535d775cee0c6ef8431d5ddd47e185707d514fd4cdf3c5ec046b5b8c,cdf3c5ec,7d514fd4,47e18570,431d5ddd,ee0c6ef8,535d775c,031f445c,0,0000,0000,0000,0004,0001,0000,0002,0004,00,00,00,00,f4,f0,f0,f7,0000,0000,0000,0000,0000,0000,0000,0000,00,00,00,00,0,1,0,1,1,1
8,8,0,825d868d,2a0000000000000000000000000000000000000000f1f1f0f10000000000000000000000090001000100000001061d79f7e61d79f7e61d79f7e61d79f7ee42164c39fa26a37935b1143825d868d,935b1143,9fa26a37,e42164c3,61d79f7e,61d79f7e,61d79f7e,61d79f7e,0,0001,0000,0001,0001,0009,0000,0000,0000,00,00,00,00,f1,f0,f1,f1,0000,0000,0000,0000,0000,0000,0000,0000,00,00,00,00,0,1,0,1,0,1
9,9,0,a63180b2,2a0000000000000000000000000000000000000000f6f1f1f000000000000200080000000200020000000100000d875e7dfd875e7dfd875e7dfd875e7df7b6528b918297b650e686142a63180b2,0e686142,18297b65,7b6528b9,d875e7df,d875e7df,d875e7df,d875e7df,0,0000,0001,0000,0002,0002,0000,0008,0002,00,00,00,00,f0,f1,f1,f6,0000,0000,0000,0000,0000,0000,0000,0000,00,00,00,00,0,1,0,1,0,1
10,10,0,400f6961,3b0000000000000000000000000000000000000000f2faf6f7000000010002000500010008000d0000000000010761d79f7761d79f7761d79f7761d79f7a4af1e251d429f459192842c400f6961,9192842c,1d429f45,a4af1e25,761d79f7,761d79f7,761d79f7,761d79f7,0,0001,0000,0000,000d,0008,0001,0005,0002,01,00,00,00,f7,f6,fa,f2,0000,0000,0000,0000,0000,0000,0000,0000,00,00,00,00,1,1,0,1,1,1
11,11,0,0b588b72,3b0000000000000000000000000000000000000000f0f1f4f6000000000005000000000003000000000000000205d875e7d5d875e7d5d875e7d5d875e7dce1864b090288759cb71deba0b588b72,cb71deba,90288759,ce1864b0,5d875e7d,5d875e7d,5d875e7d,5d875e7d,0,0002,0000,0000,0000,0003,0000,0000,0005,00,00,00,00,f6,f4,f1,f0,0000,0000,0000,0000,0000,0000,0000,0000,00,00,00,00,1,1,0,1,1,1
12,12,0,1143fbf0,3a0000000000000000000000000000000000000000f1f0f4f000000000000000040001000000000000000400000ff43d594bf01f7ce3740ff84be61cccdb083a7372d7ae7c764c3e0751143fbf0,64c3e075,2d7ae7c7,b083a737,be61cccd,3740ff84,bf01f7ce,ff43d594,0,0000,0004,0000,0000,0000,0001,0004,0000,00,00,00,00,f0,f4,f0,f1,0000,0000,0000,0000,0000,0000,0000,0000,00,00,00,00,0,1,0,1,1,1
13,13,0,3c4fdee3,2a0000000000000000000000000000000000000000f3f2fff00000000800010000000a000000030000000300080df80ab31df80ab31df80ab31df80ab3103000a3dd8852b74203b04eb3c4fdee3,203b04eb,d8852b74,03000a3d,df80ab31,df80ab31,df80ab31,df80ab31,0,0008,0003,0000,0003,0000,000a,0000,0001,08,00,00,00,f0,ff,f2,f3,0000,0000,0000,0000,0000,0000,0000,0000,00,00,00,00,0,1,0,1,0,1
14,14,0,da221a37,2a0000000000000000000000000000000000000000f0fffcfc00000000000000010008000a000000000004000c0f7e02accf7e02accf7e02accf7e02acc3450f42f51f608de7b24a4bfda221a37,7b24a4bf,51f608de,3450f42f,f7e02acc,f7e02acc,f7e02acc,f7e02acc,0,000c,0004,0000,0000,000a,0008,0001,0000,00,00,00,00,fc,fc,ff,f0,0000,0000,0000,0000,0000,0000,0000,0000,00,00,00,00,0,1,0,1,0,1
15,15,0,aa381d5c,3b0000000000000000000000000000000000000000f8f8f0f2000000000001000a00040000000000000000000007df80ab37df80ab37df80ab37df80ab3c2679493cf0286c66410a849aa381d5c,6410a849,cf0286c6,c2679493,7df80ab3,7df80ab3,7df80ab3,7df80ab3,0,0000,0000,0000,0000,0000,0004,000a,0001,00,00,00,00,f2,f0,f8,f8,0000,0000,0000,0000,0000,0000,0000,0000,00,00,00,00,1,1,0,1,1,1
16,16,0,ea80a4db,3b0000000000000000000000000000000000000000f2f0f0f00000000000000000000a0002000000000000000009f7e02ac9f7e02ac9f7e02ac9f7e02ac6d7b55d883df513a8fa862d8ea80a4db,8fa862d8,83df513a,6d7b55d8,9f7e02ac,9f7e02ac,9f7e02ac,9f7e02ac,0,0000,0000,0000,0000,0002,000a,0000,0000,00,00,00,00,f0,f0,f0,f2,0000,0000,0000,0000,0000,0000,0000,0000,00,00,00,00,1,1,0,1,1,1
17,17,0,eb8c24d1,3a0000000000000000000000000000000000000000f6fcf8fb000000000006000800080003000200080000000b0b7df8ca0f71f94ae73568884f55f9ca9a888d63982f556c23dc53b2feb8c24d1,3dc53b2f,82f556c2,a888d639,f55f9ca9,73568884,f71f94ae,b7df8ca0,0,000b,0000,0008,0002,0003,0008,0008,0006,00,00,00,00,fb,f8,fc,f6,0000,0000,0000,0000,0000,0000,0000,0000,00,00,00,00,0,1,0,1,1,1
18,18,0,e8d096d0,2a0000000000000000000000000000000000000000faf0f2f500000100000000090003000d00020000000300000cc45a721cc45a721cc45a721cc45a72181cd0f3a1f45eb86c9b209bce8d096d0,c9b209bc,1f45eb86,81cd0f3a,cc45a721,cc45a721,cc45a721,cc45a721,0,0000,0003,0000,0002,000d,0003,0009,0000,00,01,00,00,f5,f2,f0,fa,0000,0000,0000,0000,0000,0000,0000,0000,00,00,00,00,0,1,0,1,0,1
19,19,0,0d561176,2a0000000000000000000000000000000000000000f2f6f4f000000000000a00020006000000000002000400000b31169c8b31169c8b31169c8b31169c88fe7cf028759955becca02da0d561176,ecca02da,8759955b,8fe7cf02,b31169c8,b31169c8,b31169c8,b31169c8,0,0000,0004,0002,0000,0000,0006,0002,000a,00,00,00,00,f0,f4,f6,f2,0000,0000,0000,0000,0000,0000,0000,0000,00,00,00,00,0,1,0,1,0,1
20,20,0,74b5e25b,3b0000000000000000000000000000000000000000f0f2f0f10000000000000005000d000000000000000200010acc45a72acc45a72acc45a72acc45a72513a8673d699c40b065391ee74b5e25b,065391ee,d699c40b,513a8673,acc45a72,acc45a72,acc45a72,acc45a72,0,0001,0002,0000,0000,0000,000d,0005,0000,00,00,00,00,f1,f0,f2,f0,0000,0000,0000,0000,0000,0000,0000,0000,00,00,00,00,1,1,0,1,1,1
21,21,0,0754984f,3b0000000000000000000000000000000000000000f0f6f0f900000000000000080000000100000004000000000ab31169cab31169cab31169cab31169c56c2f79d723d5cbbf79d99590754984f,f79d9959,723d5cbb,56c2f79d,ab31169c,ab31169c,ab31169c,ab31169c,0,0000,0000,0004,0000,0001,0000,0008,0000,00,00,00,00,f9,f0,f6,f0,0000,0000,0000,0000,0000,0000,0000,0000,00,00,00,00,1,1,0,1,1,1
22,22,0,5f01a962,3a0000000000000000000000000000000000000000f0fdf0f00006000000040006000200000000000a00000000023ec07e7232877e32a6965a3234856e7eb862d2d8003bcb72d2d7a9f5f01a962,2d2d7a9f,8003bcb7,eb862d2d,234856e7,2a6965a3,232877e3,23ec07e7,0,0000,0000,000a,0000,0000,0002,0006,0004,00,00,06,00,f0,f0,fd,f0,0000,0000,0000,0000,0000,0000,0000,0000,00,00,00,00,0,1,0,1,1,1
23,23,0,7d7c5f19,2a0000000000000000000000000000000000000000fff0f0f000000000000f00000000000500080000000000040c84a4db8c84a4db8c84a4db8c84a4db895842101c96d61ef740f75957d7c5f19,740f7595,c96d61ef,95842101,c84a4db8,c84a4db8,c84a4db8,c84a4db8,0,0004,0000,0000,0008,0005,0000,0000,000f,00,00,00,00,f0,f0,f0,ff,0000,0000,0000,0000,0000,0000,0000,0000,00,00,00,00,0,1,0,1,0,1
24,24,0,6d7b55d8,2a0000000000000000000000000000000000000000f0f2f2f2000000000001000300070000000000020000000007212936e7212936e7212936e7212936e1d4cd699b5f25b68d699c41b6d7b55d8,d699c41b,b5f25b68,1d4cd699,7212936e,7212936e,7212936e,7212936e,0,0000,0000,0002,0000,0000,0007,0003,0001,00,00,00,00,f2,f2,f2,f0,0000,0000,0000,0000,0000,0000,0000,0000,00,00,00,00,0,1,0,1,0,1
25,25,0,28fd9a16,3b0000000000000000000000000000000000000000f8f8f6f600000000000a000200010002000100000000000609c84a4db9c84a4db9c84a4db9c84a4db5cbb7378565478707378786b28fd9a16,7378786b,56547870,5cbb7378,9c84a4db,9c84a4db,9c84a4db,9c84a4db,0,0006,0000,0000,0001,0002,0001,0002,000a,00,00,00,00,f6,f6,f8,f8,0000,0000,0000,0000,0000,0000,0000,0000,00,00,00,00,1,1,0,1,1,1
26,26,0,983475eb,3b0000000000000000000000000000000000000000f0f0f0ff00000000000400000000000100000000000000000a7212936a7212936a7212936a7212936d390525fc616b657a1ba466d983475eb,a1ba466d,c616b657,d390525f,a7212936,a7212936,a7212936,a7212936,0,0000,0000,0000,0000,0001,0000,0000,0004,00,00,00,00,ff,f0,f0,f0,0000,0000,0000,0000,0000,0000,0000,0000,00,00,00,00,1,1,0,1,1,1
27,27,0,86c6e102,3a0000000000000000000000000000000000000000f0f0f2f00000000000000002000200090000000000020000038f84a4c69fc5a0cf9e44acc78dc5a8d61efdf9407504031df94ca9e86c6e102,df94ca9e,07504031,61efdf94,78dc5a8d,f9e44acc,69fc5a0c,38f84a4c,0,0000,0002,0000,0000,0009,0002,0002,0000,00,00,00,00,f0,f2,f0,f0,0000,0000,0000,0000,0000,0000,0000,0000,00,00,00,00,0,1,0,1,1,1
28,28,0,067390ee,2a0000000000000000000000000000000000000000f8f2f0f300000000000d00000006000d000800000000000206e3d06a36e3d06a36e3d06a36e3d06a35b682cf7701b85122cf7f0fc067390ee,2cf7f0fc,701b8512,5b682cf7,6e3d06a3,6e3d06a3,6e3d06a3,6e3d06a3,0,0002,0000,0000,0008,000d,0006,0000,000d,00,00,00,00,f3,f0,f2,f8,0000,0000,0000,0000,0000,0000,0000,0000,00,00,00,00,0,1,0,1,0,1
29,29,0,f79d9959,2a0000000000000000000000000000000000000000faf4f8f00000000000080004000000000000000c000000000db8f41a8db8f41a8db8f41a8db8f41a84f975674fd8a06261e747860f79d9959,1e747860,fd8a0626,4f975674,db8f41a8,db8f41a8,db8f41a8,db8f41a8,0,0000,0000,000c,0000,0000,0000,0004,0008,00,00,00,00,f0,f8,f4,fa,0000,0000,0000,0000,0000,0000,0000,0000,00,00,00,00,0,1,0,1,0,1
30,30,0,8d9b368a,3b0000000000000000000000000000000000000000f0fff0f0000000000000000b000000000000000200000001036e3d06a36e3d06a36e3d06a36e3d06ab657169e5068b7431e9cb6978d9b368a,1e9cb697,5068b743,b657169e,36e3d06a,36e3d06a,36e3d06a,36e3d06a,0,0001,0000,0002,0000,0000,0000,000b,0000,00,00,00,00,f0,f0,ff,f0,0000,0000,0000,0000,0000,0000,0000,0000,00,00,00,00,1,1,0,1,1,1
31,31,0,7321fa40,3b0000000000000000000000000000000000000000f7f6f1f7000000000007000200050004000000060005000004db8f41a4db8f41a4db8f41a4db8f41a5bf007065e48d010831c858c7321fa40,831c858c,5e48d010,5bf00706,4db8f41a,4db8f41a,4db8f41a,4db8f41a,0,0000,0005,0006,0000,0004,0005,0002,0007,00,00,00,00,f7,f1,f6,f7,0000,0000,0000,0000,0000,0000,0000,0000,00,00,00,00,1,1,0,1,1,1
32,32,0,bb38e7c0,3a0000000000000000000000000000000000000000f8fef0fa000000000000000a0002000400000006000000000a36e7b0fb32e3f07a36e15afa36e27868512c76cee309dfac76c75d8bb38e7c0,c76c75d8,ee309dfa,8512c76c,a36e2786,a36e15af,b32e3f07,a36e7b0f,0,0000,0000,0006,0000,0004,0002,000a,0000,00,00,00,00,fa,f0,fe,f8,0000,0000,0000,0000,0000,0000,0000,0000,00,00,00,00,0,1,0,1,1,1
33,33,0,73787969,2a0000000000000000000000000000000000000000f0f0f0f000000000000000000000000100000000000000000a8cbb0eba8cbb0eba8cbb0eba8cbb0eb0626c86059266eabc8608c3673787969,c8608c36,59266eab,0626c860,a8cbb0eb,a8cbb0eb,a8cbb0eb,a8cbb0eb,0,0000,0000,0000,0000,0001,0000,0000,0000,00,00,00,00,f0,f0,f0,f0,0000,0000,0000,0000,0000,0000,0000,0000,00,00,00,00,0,1,0,1,0,1
34,34,0,507a066d,2a0000000000000000000000000000000000000000f0f1f2fe000001000008000000010002000000000003000806a32ec3a6a32ec3a6a32ec3a6a32ec3a8f354a689f959b365742113c507a066d,5742113c,9f959b36,8f354a68,6a32ec3a,6a32ec3a,6a32ec3a,6a32ec3a,0,0008,0003,0000,0000,0002,0001,0000,0008,00,01,00,00,fe,f2,f1,f0,0000,0000,0000,0000,0000,0000,0000,0000,00,00,00,00,0,1,0,1,0,1
35,35,0,fa2f6af8,3b0000000000000000000000000000000000000000f8f1f1f2000000000008000500090008000000000000000601a8cbb0e1a8cbb0e1a8cbb0e1a8cbb0ed0106bac94ca9e109d17e76efa2f6af8,9d17e76e,94ca9e10,d0106bac,1a8cbb0e,1a8cbb0e,1a8cbb0e,1a8cbb0e,0,0006,0000,0000,0000,0008,0009,0005,0008,00,00,00,00,f2,f1,f1,f8,0000,0000,0000,0000,0000,0000,0000,0000,00,00,00,00,1,1,0,1,1,1
36,36,0,b01598e2,3b0000000000000000000000000000000000000000f8fef0f800000000000800040000000d0008000400000008006a32ec306a32ec306a32ec306a32ec39dfa50ce2e93391ee8ca0669b01598e2,e8ca0669,2e93391e,9dfa50ce,06a32ec3,06a32ec3,06a32ec3,06a32ec3,0,0008,0000,0004,0008,000d,0000,0004,0008,00,00,00,00,f8,f0,fe,f8,0000,0000,0000,0000,0000,0000,0000,0000,00,00,00,00,1,1,0,1,1,1
37,37,0,ffbb524f,3a0000000000000000000000000000000000000000f0f0f4f00000000000000001000000080000000000000000069ce8f2169ceff21e98deb016bacdf206eab1535747860ff6532b9bdffbb524f,6532b9bd,747860ff,6eab1535,6bacdf20,e98deb01,69ceff21,69ce8f21,0,0000,0000,0000,0000,0008,0000,0001,0000,00,00,00,00,f0,f4,f0,f0,0000,0000,0000,0000,0000,0000,0000,0000,00,00,00,00,0,1,0,1,1,1
38,38,0,1e9cae97,2a0000000000000000000000000000000000000000f8f3fcf000000000000a000b0005000000080001000c000003af3efc03af3efc03af3efc03af3efc06e080b3704b680c3b06e080b1e9cae97,b06e080b,04b680c3,6e080b37,3af3efc0,3af3efc0,3af3efc0,3af3efc0,0,0000,000c,0001,0008,0000,0005,000b,000a,00,00,00,00,f0,fc,f3,f8,0000,0000,0000,0000,0000,0000,0000,0000,00,00,00,00,0,1,0,1,0,1
39,39,0,94ca9efa,2a0000000000000000000000000000000000000000fff0f0f400000000000e000000040005000a00000000000400ebcfbf00ebcfbf00ebcfbf00ebcfbf081078419a2ad7227db91486e94ca9efa,db91486e,a2ad7227,81078419,0ebcfbf0,0ebcfbf0,0ebcfbf0,0ebcfbf0,0,0004,0000,0000,000a,0005,0004,0000,000e,00,00,00,00,f4,f0,f0,ff,0000,0000,0000,0000,0000,0000,0000,0000,00,00,00,00,0,1,0,1,0,1
40,40,0,4cc8fb34,3b0000000000000000000000000000000000000000f1f5f0fe00000000000000040000000000000000000000000c3af3efcc3af3efcc3af3efcc3af3efc9880cf8e6c75d8640edee3314cc8fb34,0edee331,6c75d864,9880cf8e,c3af3efc,c3af3efc,c3af3efc,c3af3efc,0,0000,0000,0000,0000,0000,0000,0004,0000,00,00,00,00,fe,f0,f5,f1,0000,0000,0000,0000,0000,0000,0000,0000,00,00,00,00,1,1,0,1,1,1
41,41,0,bb524f70,3b0000000000000000000000000000000000000000f4f0fcf10000000000030000000c000100000000000c00000b0ebcfbfb0ebcfbfb0ebcfbfb0ebcfbf482b7c8032390c410ac7eedabb524f70,0ac7eeda,32390c41,482b7c80,b0ebcfbf,b0ebcfbf,b0ebcfbf,b0ebcfbf,0,0000,000c,0000,0000,0001,000c,0000,0003,00,00,00,00,f1,fc,f0,f4,0000,0000,0000,0000,0000,0000,0000,0000,00,00,00,00,1,1,0,1,1,1
42,42,0,f80c3ec3,3a0000000000000000000000000000000000000000faf6fdfe00000000000a000000000008000a0004000000000c418f1efc45ef3afe817dbebc43ef8af9a7fa65c68b7532f3069473af80c3ec3,3069473a,68b7532f,9a7fa65c,c43ef8af,e817dbeb,c45ef3af,c418f1ef,0,0000,0000,0004,000a,0008,0000,0000,000a,00,00,00,00,fe,fd,f6,fa,0000,0000,0000,0000,0000,0000,0000,0000,00,00,00,00,0,1,0,1,1,1
43,43,0,402b7a38,2a0000000000000000000000000000000000000000f0fdf0f000000000000100010000000000000001000000000f0156622f0156622f0156622f0156622486e43e83f6acda06ae73f80402b7a38,6ae73f80,3f6acda0,486e43e8,f0156622,f0156622,f0156622,f0156622,0,0000,0000,0001,0000,0000,0000,0001,0001,00,00,00,00,f0,f0,fd,f0,0000,0000,0000,0000,0000,0000,0000,0000,00,00,00,00,0,1,0,1,0,1
44,44,0,6c75d874,2a0000000000000000000000000000000000000000f7f0f0f100000000000200000000000400060002000000000fc055988fc055988fc055988fc0559886724a7c044c8fb342e388b7c6c75d874,2e388b7c,44c8fb34,6724a7c0,fc055988,fc055988,fc055988,fc055988,0,0000,0000,0002,0006,0004,0000,0000,0002,00,00,00,00,f1,f0,f0,f7,0000,0000,0000,0000,0000,0000,0000,0000,00,00,00,00,0,1,0,1,0,1
45,45,0,54af6162,3b0000000000000000000000000000000000000000f1f2f6f000000000000300090000000000070000000000000bf015662bf015662bf015662bf015662eeca5f865cc699545a2657c354af6162,5a2657c3,5cc69954,eeca5f86,bf015662,bf015662,bf015662,bf015662,0,0000,0000,0000,0007,0000,0000,0009,0003,00,00,00,00,f0,f6,f2,f1,0000,0000,0000,0000,0000,0000,0000,0000,00,00,00,00,1,1,0,1,1,1
46,46,0,74d50d87,3b0000000000000000000000000000000000000000f3f2f2f00000000000030000000a000000010002000200000efc05598efc05598efc05598efc05598645a70a9013dc345e45b9a1974d50d87,e45b9a19,013dc345,645a70a9,efc05598,efc05598,efc05598,efc05598,0,0000,0002,0002,0001,0000,000a,0000,0003,00,00,00,00,f0,f2,f2,f3,0000,0000,0000,0000,0000,0000,0000,0000,00,00,00,00,1,1,0,1,1,1
47,47,0,aedda00e,3a0000000000000000000000000000000000000000f4f0f7f100000000000200000003000200000000000000000a2d21164f3d015366bd115d4e2f014b4121c8f5c6ae73f8048de2112aedda00e,48de2112,6ae73f80,121c8f5c,e2f014b4,6bd115d4,f3d01536,a2d21164,0,0000,0000,0000,0000,0002,0003,0000,0002,00,00,00,00,f1,f7,f0,f4,0000,0000,0000,0000,0000,0000,0000,0000,00,00,00,00,0,1,0,1,1,1
48,48,0,7d135c42,2a0000000000000000000000000000000000000000f0f0f8f100000000000e0000000800010002000000080001088b4e42588b4e42588b4e42588b4e42569741ceb2e388b7cc7129fc47d135c42,c7129fc4,2e388b7c,69741ceb,88b4e425,88b4e425,88b4e425,88b4e425,0,0001,0008,0000,0002,0001,0008,0000,000e,00,00,00,00,f1,f8,f0,f0,0000,0000,0000,0000,0000,0000,0000,0000,00,00,00,00,0,1,0,1,0,1
49,49,0,3513f58e,2a0000000000000000000000000000000000000000f2f6f1f100000000000200010009000100020000000000010622d3909622d3909622d3909622d39097ea789785caf7166802a95113513f58e,802a9511,5caf7166,7ea78978,622d3909,622d3909,622d3909,622d3909,0,0001,0000,0000,0002,0001,0009,0001,0002,00,00,00,00,f1,f1,f6,f2,0000,0000,0000,0000,0000,0000,0000,0000,00,00,00,00,0,1,0,1,0,1
50,50,0,a6750976,3b0000000000000000000000000000000000000000f0f2f0fa00000000000100080001000200000000000000080988b4e42988b4e42988b4e42988b4e42bf2e42c6e45b9a09dc4940dda6750976,dc4940dd,e45b9a09,bf2e42c6,988b4e42,988b4e42,988b4e42,988b4e42,0,0008,0000,0000,0000,0002,0001,0008,0001,00,00,00,00,fa,f0,f2,f0,0000,0000,0000,0000,0000,0000,0000,0000,00,00,00,00,1,1,0,1,1,1
