Sample in Buffer,Sample in Window,TRIGGER,ila_data[617:0],receiver_0[31:0],receiver_1[31:0],receiver_2[31:0],receiver_3[31:0],transmitter_0[31:0],transmitter_1[31:0],transmitter_2[31:0],transmitter_3[31:0],prbs_match_int[3:0],hb0_gtwiz_userclk_rx_usrclk2_int,hb0_gtwiz_userclk_rx_active_int,hb_gtwiz_reset_all_int,hb0_gtwiz_reset_rx_done_int,hb0_gtwiz_userclk_tx_usrclk2_int,hb0_gtwiz_userclk_tx_active_int,gtwiz_userclk_tx_reset_int,gtwiz_userclk_tx_usrclk_int,gtwiz_userclk_tx_usrclk2_int,gtwiz_userclk_tx_active_int,gtwiz_userclk_rx_reset_int,gtwiz_userclk_rx_usrclk_int,gtwiz_userclk_rx_usrclk2_int,gtwiz_userclk_rx_active_int,drpaddr_int[35:0],drpclk_int[3:0],drpdi_int[3:0],drpen_int[3:0],drpwe_int[3:0],eyescanreset_int[3:0],rx8b10ben_int[3:0],rxcommadeten_int[3:0],rxlpmen_int[3:0],rxmcommaalignen_int[3:0],rxpcommaalignen_int[3:0],rxrate_int[11:0],tx8b10ben_int[3:0],txdiffctrl_int[15:0],txpostcursor_int[19:0],txprecursor_int[19:0],drpdo_int[63:0],drprdy_int[3:0],gtpowergood_int[3:0],rxbyteisaligned_int[3:0],rxbyterealign_int[3:0],rxcommadet_int[3:0],rxpmaresetdone_int[3:0],txpmaresetdone_int[3:0],hb0_rxdata_nml_ctr[39:0],ch0_rxdata_err_ctr[15:0],ch1_rxdata_err_ctr[15:0],ch2_rxdata_err_ctr[15:0],ch3_rxdata_err_ctr[15:0]
Radix - UNSIGNED,UNSIGNED,UNSIGNED,HEX,HEX,HEX,HEX,HEX,HEX,HEX,HEX,HEX,HEX,HEX,HEX,HEX,HEX,HEX,HEX,HEX,HEX,HEX,HEX,HEX,HEX,HEX,HEX,HEX,HEX,HEX,HEX,HEX,HEX,HEX,HEX,HEX,HEX,HEX,HEX,HEX,HEX,HEX,HEX,HEX,HEX,HEX,HEX,HEX,HEX,HEX,HEX,HEX,HEX,HEX,HEX,HEX
0,0,0,00000000000000000f12d61d20ffc03fc0000000000000000000000000033333c003fc3fc00034160b0582fa2bf18207f5418207f5418207f5418207f5444f1430444f1430444f1430444f14304,44f14304,44f14304,44f14304,44f14304,18207f54,18207f54,18207f54,18207f54,f,1,1,0,1,0,1,0,0,0,1,0,1,1,1,0582c160b,d,0,0,0,0,f,f,0,f,f,000,f,cccc,00000,00000,0000000000000000,0,f,f,0,0,f,f,3c4b587483,0000,0000,0000,0000
1,1,0,00000000000000000f12d61d22ffc03fc0000000000000000000000000033333c003fc3fc0003c160b0582fbbbf86081fd586081fd586081fd586081fd503faa67703faa67703faa67703faa677,03faa677,03faa677,03faa677,03faa677,86081fd5,86081fd5,86081fd5,86081fd5,f,1,1,0,1,1,1,0,1,1,1,0,1,1,1,0582c160b,f,0,0,0,0,f,f,0,f,f,000,f,cccc,00000,00000,0000000000000000,0,f,f,0,0,f,f,3c4b58748b,0000,0000,0000,0000
2,2,0,00000000000000000f12d61d24bfc03fc0000000000000000000000000033333c003fc3fc0003c160b0582e3bbfa18207f5a18207f5a18207f5a18207f540fea99d40fea99d40fea99d40fea99d,40fea99d,40fea99d,40fea99d,40fea99d,a18207f5,a18207f5,a18207f5,a18207f5,f,1,1,0,1,1,1,0,1,1,1,0,0,0,1,0582c160b,f,0,0,0,0,f,f,0,f,f,000,f,cccc,00000,00000,0000000000000000,0,f,f,0,0,f,f,3c4b587492,0000,0000,0000,0000
3,3,0,00000000000000000f12d61d26bfc03fc0000000000000000000000000033333c003fc3fc0003c160b0582e23af533ba58d533ba58d533ba58d533ba58d103faa67103faa67103faa67103faa67,103faa67,103faa67,103faa67,103faa67,533ba58d,533ba58d,533ba58d,533ba58d,f,0,1,0,1,1,1,0,0,0,1,0,0,0,1,0582c160b,f,0,0,0,0,f,f,0,f,f,000,f,cccc,00000,00000,0000000000000000,0,f,f,0,0,f,f,3c4b58749a,0000,0000,0000,0000
4,4,0,00000000000000000f12d61d28bfc03fc0000000000000000000000000033333c003fc3fc0003c160b0582e22af54cee96354cee96354cee96354cee963040fea99040fea99040fea99040fea99,040fea99,040fea99,040fea99,040fea99,54cee963,54cee963,54cee963,54cee963,f,0,1,0,1,0,1,0,0,0,1,0,0,0,1,0582c160b,f,0,0,0,0,f,f,0,f,f,000,f,cccc,00000,00000,0000000000000000,0,f,f,0,0,f,f,3c4b5874a2,0000,0000,0000,0000
5,5,0,00000000000000000f12d61d2abfc03fc0000000000000000000000000033333c003fc3fc0003c160b0582fa2bfd533ba58d533ba58d533ba58d533ba58c103faa6c103faa6c103faa6c103faa6,c103faa6,c103faa6,c103faa6,c103faa6,d533ba58,d533ba58,d533ba58,d533ba58,f,1,1,0,1,0,1,0,0,0,1,0,1,1,1,0582c160b,f,0,0,0,0,f,f,0,f,f,000,f,cccc,00000,00000,0000000000000000,0,f,f,0,0,f,f,3c4b5874aa,0000,0000,0000,0000
6,6,0,00000000000000000f12d61d2cbfc03fc0000000000000000000000000033333c003fc3fc00034160b0582fbbbff54cee96f54cee96f54cee96f54cee969dd2c6f69dd2c6f69dd2c6f69dd2c6f6,9dd2c6f6,9dd2c6f6,9dd2c6f6,9dd2c6f6,f54cee96,f54cee96,f54cee96,f54cee96,f,1,1,0,1,1,1,0,1,1,1,0,1,1,1,0582c160b,d,0,0,0,0,f,f,0,f,f,000,f,cccc,00000,00000,0000000000000000,0,f,f,0,0,f,f,3c4b5874b2,0000,0000,0000,0000
7,7,0,00000000000000000f12d61d2e7fc03fc0000000000000000000000000033333c003fc3fc0003c160b0582e3bbffd533ba5fd533ba5fd533ba5fd533ba56774b1bd6774b1bd6774b1bd6774b1bd,6774b1bd,6774b1bd,6774b1bd,6774b1bd,fd533ba5,fd533ba5,fd533ba5,fd533ba5,f,1,1,0,1,1,1,0,1,1,1,0,0,0,1,0582c160b,f,0,0,0,0,f,f,0,f,f,000,f,cccc,00000,00000,0000000000000000,0,f,f,0,0,f,f,3c4b5874b9,0000,0000,0000,0000
8,8,0,00000000000000000f12d61d307fc03fc0000000000000000000000000033333c003fc3fc00034160b0582e23af637b5b24637b5b24637b5b24637b5b2499dd2c6f99dd2c6f99dd2c6f99dd2c6f,99dd2c6f,99dd2c6f,99dd2c6f,99dd2c6f,637b5b24,637b5b24,637b5b24,637b5b24,f,0,1,0,1,1,1,0,0,0,1,0,0,0,1,0582c160b,d,0,0,0,0,f,f,0,f,f,000,f,cccc,00000,00000,0000000000000000,0,f,f,0,0,f,f,3c4b5874c1,0000,0000,0000,0000
9,9,0,00000000000000000f12d61d327fc03fc0000000000000000000000000033333c003fc3fc0003c160b0582e22af58ded6c958ded6c958ded6c958ded6c9a6774b1ba6774b1ba6774b1ba6774b1b,a6774b1b,a6774b1b,a6774b1b,a6774b1b,58ded6c9,58ded6c9,58ded6c9,58ded6c9,f,0,1,0,1,0,1,0,0,0,1,0,0,0,1,0582c160b,f,0,0,0,0,f,f,0,f,f,000,f,cccc,00000,00000,0000000000000000,0,f,f,0,0,f,f,3c4b5874c9,0000,0000,0000,0000
10,10,0,00000000000000000f12d61d347fc03fc0000000000000000000000000033333c003fc3fc00034160b0582fa2bf9637b5b29637b5b29637b5b29637b5b2a99dd2c6a99dd2c6a99dd2c6a99dd2c6,a99dd2c6,a99dd2c6,a99dd2c6,a99dd2c6,9637b5b2,9637b5b2,9637b5b2,9637b5b2,f,1,1,0,1,0,1,0,0,0,1,0,1,1,1,0582c160b,d,0,0,0,0,f,f,0,f,f,000,f,cccc,00000,00000,0000000000000000,0,f,f,0,0,f,f,3c4b5874d1,0000,0000,0000,0000
11,11,0,00000000000000000f12d61d367fc03fc0000000000000000000000000033333c003fc3fc0003c160b0582fbbbfa58ded6ca58ded6ca58ded6ca58ded6cbdad9238bdad9238bdad9238bdad9238,bdad9238,bdad9238,bdad9238,bdad9238,a58ded6c,a58ded6c,a58ded6c,a58ded6c,f,1,1,0,1,1,1,0,1,1,1,0,1,1,1,0582c160b,f,0,0,0,0,f,f,0,f,f,000,f,cccc,00000,00000,0000000000000000,0,f,f,0,0,f,f,3c4b5874d9,0000,0000,0000,0000
12,12,0,00000000000000000f12d61d383fc03fc0000000000000000000000000033333c003fc3fc00034160b0582e3bbfe9637b5be9637b5be9637b5be9637b5b6f6b648e6f6b648e6f6b648e6f6b648e,6f6b648e,6f6b648e,6f6b648e,6f6b648e,e9637b5b,e9637b5b,e9637b5b,e9637b5b,f,1,1,0,1,1,1,0,1,1,1,0,0,0,1,0582c160b,d,0,0,0,0,f,f,0,f,f,000,f,cccc,00000,00000,0000000000000000,0,f,f,0,0,f,f,3c4b5874e0,0000,0000,0000,0000
13,13,0,00000000000000000f12d61d3a3fc03fc0000000000000000000000000033333c003fc3fc00034160b0582e23afc91c2f95c91c2f95c91c2f95c91c2f951bdad9231bdad9231bdad9231bdad923,1bdad923,1bdad923,1bdad923,1bdad923,c91c2f95,c91c2f95,c91c2f95,c91c2f95,f,0,1,0,1,1,1,0,0,0,1,0,0,0,1,0582c160b,d,0,0,0,0,f,f,0,f,f,000,f,cccc,00000,00000,0000000000000000,0,f,f,0,0,f,f,3c4b5874e8,0000,0000,0000,0000
14,14,0,00000000000000000f12d61d3c3fc03fc0000000000000000000000000033333c003fc3fc00034160b0582e22afb2470be5b2470be5b2470be5b2470be5c6f6b648c6f6b648c6f6b648c6f6b648,c6f6b648,c6f6b648,c6f6b648,c6f6b648,b2470be5,b2470be5,b2470be5,b2470be5,f,0,1,0,1,0,1,0,0,0,1,0,0,0,1,0582c160b,d,0,0,0,0,f,f,0,f,f,000,f,cccc,00000,00000,0000000000000000,0,f,f,0,0,f,f,3c4b5874f0,0000,0000,0000,0000
15,15,0,00000000000000000f12d61d3e3fc03fc0000000000000000000000000033333c003fc3fc0003c160b0582fa2bf6c91c2f96c91c2f96c91c2f96c91c2f9b1bdad92b1bdad92b1bdad92b1bdad92,b1bdad92,b1bdad92,b1bdad92,b1bdad92,6c91c2f9,6c91c2f9,6c91c2f9,6c91c2f9,f,1,1,0,1,0,1,0,0,0,1,0,1,1,1,0582c160b,f,0,0,0,0,f,f,0,f,f,000,f,cccc,00000,00000,0000000000000000,0,f,f,0,0,f,f,3c4b5874f8,0000,0000,0000,0000
16,16,0,00000000000000000f12d61d403fc03fc0000000000000000000000000033333c003fc3fc00034160b0582fbbbf5b2470be5b2470be5b2470be5b2470be8e17cae68e17cae68e17cae68e17cae6,8e17cae6,8e17cae6,8e17cae6,8e17cae6,5b2470be,5b2470be,5b2470be,5b2470be,f,1,1,0,1,1,1,0,1,1,1,0,1,1,1,0582c160b,d,0,0,0,0,f,f,0,f,f,000,f,cccc,00000,00000,0000000000000000,0,f,f,0,0,f,f,3c4b587500,0000,0000,0000,0000
17,17,0,00000000000000000f12d61d41ffc03fc0000000000000000000000000033333c003fc3fc0003c160b0582e3bbfd6c91c2fd6c91c2fd6c91c2fd6c91c2f2385f2b92385f2b92385f2b92385f2b9,2385f2b9,2385f2b9,2385f2b9,2385f2b9,d6c91c2f,d6c91c2f,d6c91c2f,d6c91c2f,f,1,1,0,1,1,1,0,1,1,1,0,0,0,1,0582c160b,f,0,0,0,0,f,f,0,f,f,000,f,cccc,00000,00000,0000000000000000,0,f,f,0,0,f,f,3c4b587507,0000,0000,0000,0000
18,18,0,00000000000000000f12d61d43ffc03fc0000000000000000000000000033333c003fc3fc00034160b0582e23afe57344f1e57344f1e57344f1e57344f148e17cae48e17cae48e17cae48e17cae,48e17cae,48e17cae,48e17cae,48e17cae,e57344f1,e57344f1,e57344f1,e57344f1,f,0,1,0,1,1,1,0,0,0,1,0,0,0,1,0582c160b,d,0,0,0,0,f,f,0,f,f,000,f,cccc,00000,00000,0000000000000000,0,f,f,0,0,f,f,3c4b58750f,0000,0000,0000,0000
19,19,0,00000000000000000f12d61d45ffc03fc0000000000000000000000000033333c003fc3fc00034160b0582ea2aff95cd13cf95cd13cf95cd13cf95cd13c92385f2b92385f2b92385f2b92385f2b,92385f2b,92385f2b,92385f2b,92385f2b,f95cd13c,f95cd13c,f95cd13c,f95cd13c,f,0,1,0,1,0,1,0,0,0,1,0,1,0,1,0582c160b,d,0,0,0,0,f,f,0,f,f,000,f,cccc,00000,00000,0000000000000000,0,f,f,0,0,f,f,3c4b587517,0000,0000,0000,0000
20,20,0,00000000000000000f12d61d47ffc03fc0000000000000000000000000033333c003fc3fc0003c160b0582fa2bfbe57344fbe57344fbe57344fbe57344f648e17ca648e17ca648e17ca648e17ca,648e17ca,648e17ca,648e17ca,648e17ca,be57344f,be57344f,be57344f,be57344f,f,1,1,0,1,0,1,0,0,0,1,0,1,1,1,0582c160b,f,0,0,0,0,f,f,0,f,f,000,f,cccc,00000,00000,0000000000000000,0,f,f,0,0,f,f,3c4b58751f,0000,0000,0000,0000
21,21,0,00000000000000000f12d61d49ffc03fc0000000000000000000000000033333c003fc3fc0003c160b0582fbbbf2f95cd132f95cd132f95cd132f95cd13b9a278a1b9a278a1b9a278a1b9a278a1,b9a278a1,b9a278a1,b9a278a1,b9a278a1,2f95cd13,2f95cd13,2f95cd13,2f95cd13,f,1,1,0,1,1,1,0,1,1,1,0,1,1,1,0582c160b,f,0,0,0,0,f,f,0,f,f,000,f,cccc,00000,00000,0000000000000000,0,f,f,0,0,f,f,3c4b587527,0000,0000,0000,0000
22,22,0,00000000000000000f12d61d4bbfc03fc0000000000000000000000000033333c003fc3fc0003c160b0582e3bbf0be573440be573440be573440be57344ae689e28ae689e28ae689e28ae689e28,ae689e28,ae689e28,ae689e28,ae689e28,0be57344,0be57344,0be57344,0be57344,f,1,1,0,1,1,1,0,1,1,1,0,0,0,1,0582c160b,f,0,0,0,0,f,f,0,f,f,000,f,cccc,00000,00000,0000000000000000,0,f,f,0,0,f,f,3c4b58752e,0000,0000,0000,0000
23,23,0,00000000000000000f12d61d4dbfc03fc0000000000000000000000000033333c003fc3fc00034160b0582e23af3c50c1033c50c1033c50c1033c50c1032b9a278a2b9a278a2b9a278a2b9a278a,2b9a278a,2b9a278a,2b9a278a,2b9a278a,3c50c103,3c50c103,3c50c103,3c50c103,f,0,1,0,1,1,1,0,0,0,1,0,0,0,1,0582c160b,d,0,0,0,0,f,f,0,f,f,000,f,cccc,00000,00000,0000000000000000,0,f,f,0,0,f,f,3c4b587536,0000,0000,0000,0000
24,24,0,00000000000000000f12d61d4fbfc03fc0000000000000000000000000033333c003fc3fc0003c160b0582e22af4f1430404f1430404f1430404f143040cae689e2cae689e2cae689e2cae689e2,cae689e2,cae689e2,cae689e2,cae689e2,4f143040,4f143040,4f143040,4f143040,f,0,1,0,1,0,1,0,0,0,1,0,0,0,1,0582c160b,f,0,0,0,0,f,f,0,f,f,000,f,cccc,00000,00000,0000000000000000,0,f,f,0,0,f,f,3c4b58753e,0000,0000,0000,0000
25,25,0,00000000000000000f12d61d51bfc03fc0000000000000000000000000033333c003fc3fc0003c160b0582fa2bf13c50c1013c50c1013c50c1013c50c10f2b9a278f2b9a278f2b9a278f2b9a278,f2b9a278,f2b9a278,f2b9a278,f2b9a278,13c50c10,13c50c10,13c50c10,13c50c10,f,1,1,0,1,0,1,0,0,0,1,0,1,1,1,0582c160b,f,0,0,0,0,f,f,0,f,f,000,f,cccc,00000,00000,0000000000000000,0,f,f,0,0,f,f,3c4b587546,0000,0000,0000,0000
26,26,0,00000000000000000f12d61d53bfc03fc0000000000000000000000000033333c003fc3fc0003c160b0582fbbbf44f1430444f1430444f1430444f14304286081fd286081fd286081fd286081fd,286081fd,286081fd,286081fd,286081fd,44f14304,44f14304,44f14304,44f14304,f,1,1,0,1,1,1,0,1,1,1,0,1,1,1,0582c160b,f,0,0,0,0,f,f,0,f,f,000,f,cccc,00000,00000,0000000000000000,0,f,f,0,0,f,f,3c4b58754e,0000,0000,0000,0000
27,27,0,00000000000000000f12d61d557fc03fc0000000000000000000000000033333c003fc3fc0003c160b0582e3bbfd13c50c1d13c50c1d13c50c1d13c50c18a18207f8a18207f8a18207f8a18207f,8a18207f,8a18207f,8a18207f,8a18207f,d13c50c1,d13c50c1,d13c50c1,d13c50c1,f,1,1,0,1,1,1,0,1,1,1,0,0,0,1,0582c160b,f,0,0,0,0,f,f,0,f,f,000,f,cccc,00000,00000,0000000000000000,0,f,f,0,0,f,f,3c4b587555,0000,0000,0000,0000
28,28,0,00000000000000000f12d61d577fc03fc0000000000000000000000000033333c003fc3fc00034160b0582e23af40fea99d40fea99d40fea99d40fea99de286081fe286081fe286081fe286081f,e286081f,e286081f,e286081f,e286081f,40fea99d,40fea99d,40fea99d,40fea99d,f,0,1,0,1,1,1,0,0,0,1,0,0,0,1,0582c160b,d,0,0,0,0,f,f,0,f,f,000,f,cccc,00000,00000,0000000000000000,0,f,f,0,0,f,f,3c4b58755d,0000,0000,0000,0000
29,29,0,00000000000000000f12d61d597fc03fc0000000000000000000000000033333c003fc3fc00034160b0582e22af103faa67103faa67103faa67103faa6778a1820778a1820778a1820778a18207,78a18207,78a18207,78a18207,78a18207,103faa67,103faa67,103faa67,103faa67,f,0,1,0,1,0,1,0,0,0,1,0,0,0,1,0582c160b,d,0,0,0,0,f,f,0,f,f,000,f,cccc,00000,00000,0000000000000000,0,f,f,0,0,f,f,3c4b587565,0000,0000,0000,0000
30,30,0,00000000000000000f12d61d5b7fc03fc0000000000000000000000000033333c003fc3fc00034160b0582fa2bf040fea99040fea99040fea99040fea999e2860819e2860819e2860819e286081,9e286081,9e286081,9e286081,9e286081,040fea99,040fea99,040fea99,040fea99,f,1,1,0,1,0,1,0,0,0,1,0,1,1,1,0582c160b,d,0,0,0,0,f,f,0,f,f,000,f,cccc,00000,00000,0000000000000000,0,f,f,0,0,f,f,3c4b58756d,0000,0000,0000,0000
31,31,0,00000000000000000f12d61d5d7fc03fc0000000000000000000000000033333c003fc3fc0003c160b0582fbbbfc103faa6c103faa6c103faa6c103faa67f54cee97f54cee97f54cee97f54cee9,7f54cee9,7f54cee9,7f54cee9,7f54cee9,c103faa6,c103faa6,c103faa6,c103faa6,f,1,1,0,1,1,1,0,1,1,1,0,1,1,1,0582c160b,f,0,0,0,0,f,f,0,f,f,000,f,cccc,00000,00000,0000000000000000,0,f,f,0,0,f,f,3c4b587575,0000,0000,0000,0000
32,32,0,00000000000000000f12d61d5f3fc03fc0000000000000000000000000033333c003fc3fc00034160b0582e3bbf3040fea93040fea93040fea93040fea91fd533ba1fd533ba1fd533ba1fd533ba,1fd533ba,1fd533ba,1fd533ba,1fd533ba,3040fea9,3040fea9,3040fea9,3040fea9,f,1,1,0,1,1,1,0,1,1,1,0,0,0,1,0582c160b,d,0,0,0,0,f,f,0,f,f,000,f,cccc,00000,00000,0000000000000000,0,f,f,0,0,f,f,3c4b58757c,0000,0000,0000,0000
33,33,0,00000000000000000f12d61d613fc03fc0000000000000000000000000033333c003fc3fc0003c160b0582e23af6774b1bd6774b1bd6774b1bd6774b1bd07f54cee07f54cee07f54cee07f54cee,07f54cee,07f54cee,07f54cee,07f54cee,6774b1bd,6774b1bd,6774b1bd,6774b1bd,f,0,1,0,1,1,1,0,0,0,1,0,0,0,1,0582c160b,f,0,0,0,0,f,f,0,f,f,000,f,cccc,00000,00000,0000000000000000,0,f,f,0,0,f,f,3c4b587584,0000,0000,0000,0000
34,34,0,00000000000000000f12d61d633fc03fc0000000000000000000000000033333c003fc3fc00034160b0582e22af99dd2c6f99dd2c6f99dd2c6f99dd2c6f81fd533b81fd533b81fd533b81fd533b,81fd533b,81fd533b,81fd533b,81fd533b,99dd2c6f,99dd2c6f,99dd2c6f,99dd2c6f,f,0,1,0,1,0,1,0,0,0,1,0,0,0,1,0582c160b,d,0,0,0,0,f,f,0,f,f,000,f,cccc,00000,00000,0000000000000000,0,f,f,0,0,f,f,3c4b58758c,0000,0000,0000,0000
35,35,0,00000000000000000f12d61d653fc03fc0000000000000000000000000033333c003fc3fc00034160b0582fa2bfa6774b1ba6774b1ba6774b1ba6774b1b207f54ce207f54ce207f54ce207f54ce,207f54ce,207f54ce,207f54ce,207f54ce,a6774b1b,a6774b1b,a6774b1b,a6774b1b,f,1,1,0,1,0,1,0,0,0,1,0,1,1,1,0582c160b,d,0,0,0,0,f,f,0,f,f,000,f,cccc,00000,00000,0000000000000000,0,f,f,0,0,f,f,3c4b587594,0000,0000,0000,0000
36,36,0,00000000000000000f12d61d673fc03fc0000000000000000000000000033333c003fc3fc00034160b0582fbbbfa99dd2c6a99dd2c6a99dd2c6a99dd2c6ba58ded6ba58ded6ba58ded6ba58ded6,ba58ded6,ba58ded6,ba58ded6,ba58ded6,a99dd2c6,a99dd2c6,a99dd2c6,a99dd2c6,f,1,1,0,1,1,1,0,1,1,1,0,1,1,1,0582c160b,d,0,0,0,0,f,f,0,f,f,000,f,cccc,00000,00000,0000000000000000,0,f,f,0,0,f,f,3c4b58759c,0000,0000,0000,0000
37,37,0,00000000000000000f12d61d68ffc03fc0000000000000000000000000033333c003fc3fc00034160b0582e3bbfaa6774b1aa6774b1aa6774b1aa6774b1ee9637b5ee9637b5ee9637b5ee9637b5,ee9637b5,ee9637b5,ee9637b5,ee9637b5,aa6774b1,aa6774b1,aa6774b1,aa6774b1,f,1,1,0,1,1,1,0,1,1,1,0,0,0,1,0582c160b,d,0,0,0,0,f,f,0,f,f,000,f,cccc,00000,00000,0000000000000000,0,f,f,0,0,f,f,3c4b5875a3,0000,0000,0000,0000
38,38,0,00000000000000000f12d61d6affc03fc0000000000000000000000000033333c003fc3fc0003c160b0582e23af6f6b648e6f6b648e6f6b648e6f6b648e3ba58ded3ba58ded3ba58ded3ba58ded,3ba58ded,3ba58ded,3ba58ded,3ba58ded,6f6b648e,6f6b648e,6f6b648e,6f6b648e,f,0,1,0,1,1,1,0,0,0,1,0,0,0,1,0582c160b,f,0,0,0,0,f,f,0,f,f,000,f,cccc,00000,00000,0000000000000000,0,f,f,0,0,f,f,3c4b5875ab,0000,0000,0000,0000
39,39,0,00000000000000000f12d61d6cffc03fc0000000000000000000000000033333c003fc3fc00034160b0582ea2af1bdad9231bdad9231bdad9231bdad923cee9637bcee9637bcee9637bcee9637b,cee9637b,cee9637b,cee9637b,cee9637b,1bdad923,1bdad923,1bdad923,1bdad923,f,0,1,0,1,0,1,0,0,0,1,0,1,0,1,0582c160b,d,0,0,0,0,f,f,0,f,f,000,f,cccc,00000,00000,0000000000000000,0,f,f,0,0,f,f,3c4b5875b3,0000,0000,0000,0000
40,40,0,00000000000000000f12d61d6effc03fc0000000000000000000000000033333c003fc3fc00034160b0582fa2bfc6f6b648c6f6b648c6f6b648c6f6b64833ba58de33ba58de33ba58de33ba58de,33ba58de,33ba58de,33ba58de,33ba58de,c6f6b648,c6f6b648,c6f6b648,c6f6b648,f,1,1,0,1,0,1,0,0,0,1,0,1,1,1,0582c160b,d,0,0,0,0,f,f,0,f,f,000,f,cccc,00000,00000,0000000000000000,0,f,f,0,0,f,f,3c4b5875bb,0000,0000,0000,0000
41,41,0,00000000000000000f12d61d70ffc03fc0000000000000000000000000033333c003fc3fc00034160b0582fbbbfb1bdad92b1bdad92b1bdad92b1bdad92b5b2470bb5b2470bb5b2470bb5b2470b,b5b2470b,b5b2470b,b5b2470b,b5b2470b,b1bdad92,b1bdad92,b1bdad92,b1bdad92,f,1,1,0,1,1,1,0,1,1,1,0,1,1,1,0582c160b,d,0,0,0,0,f,f,0,f,f,000,f,cccc,00000,00000,0000000000000000,0,f,f,0,0,f,f,3c4b5875c3,0000,0000,0000,0000
42,42,0,00000000000000000f12d61d72bfc03fc0000000000000000000000000033333c003fc3fc0003c160b0582e3bbf2c6f6b642c6f6b642c6f6b642c6f6b64ed6c91c2ed6c91c2ed6c91c2ed6c91c2,ed6c91c2,ed6c91c2,ed6c91c2,ed6c91c2,2c6f6b64,2c6f6b64,2c6f6b64,2c6f6b64,f,1,1,0,1,1,1,0,1,1,1,0,0,0,1,0582c160b,f,0,0,0,0,f,f,0,f,f,000,f,cccc,00000,00000,0000000000000000,0,f,f,0,0,f,f,3c4b5875ca,0000,0000,0000,0000
43,43,0,00000000000000000f12d61d74bfc03fc0000000000000000000000000033333c003fc3fc0003c160b0582e23af2385f2b92385f2b92385f2b92385f2b97b5b24707b5b24707b5b24707b5b2470,7b5b2470,7b5b2470,7b5b2470,7b5b2470,2385f2b9,2385f2b9,2385f2b9,2385f2b9,f,0,1,0,1,1,1,0,0,0,1,0,0,0,1,0582c160b,f,0,0,0,0,f,f,0,f,f,000,f,cccc,00000,00000,0000000000000000,0,f,f,0,0,f,f,3c4b5875d2,0000,0000,0000,0000
44,44,0,00000000000000000f12d61d76bfc03fc0000000000000000000000000033333c003fc3fc00034160b0582fa2af48e17cae48e17cae48e17cae48e17caeded6c91cded6c91cded6c91cded6c91c,ded6c91c,ded6c91c,ded6c91c,ded6c91c,48e17cae,48e17cae,48e17cae,48e17cae,f,0,1,0,1,0,1,0,0,0,1,0,1,1,1,0582c160b,d,0,0,0,0,f,f,0,f,f,000,f,cccc,00000,00000,0000000000000000,0,f,f,0,0,f,f,3c4b5875da,0000,0000,0000,0000
45,45,0,00000000000000000f12d61d78bfc03fc0000000000000000000000000033333c003fc3fc00034160b0582fa2bf92385f2b92385f2b92385f2b92385f2b37b5b24737b5b24737b5b24737b5b247,37b5b247,37b5b247,37b5b247,37b5b247,92385f2b,92385f2b,92385f2b,92385f2b,f,1,1,0,1,0,1,0,0,0,1,0,1,1,1,0582c160b,d,0,0,0,0,f,f,0,f,f,000,f,cccc,00000,00000,0000000000000000,0,f,f,0,0,f,f,3c4b5875e2,0000,0000,0000,0000
46,46,0,00000000000000000f12d61d7abfc03fc0000000000000000000000000033333c003fc3fc00034160b0582fbbbf648e17ca648e17ca648e17ca648e17cac2f95cd1c2f95cd1c2f95cd1c2f95cd1,c2f95cd1,c2f95cd1,c2f95cd1,c2f95cd1,648e17ca,648e17ca,648e17ca,648e17ca,f,1,1,0,1,1,1,0,1,1,1,0,1,1,1,0582c160b,d,0,0,0,0,f,f,0,f,f,000,f,cccc,00000,00000,0000000000000000,0,f,f,0,0,f,f,3c4b5875ea,0000,0000,0000,0000
47,47,0,00000000000000000f12d61d7c7fc03fc0000000000000000000000000033333c003fc3fc00034160b0582e3bbfd92385f2d92385f2d92385f2d92385f270be573470be573470be573470be5734,70be5734,70be5734,70be5734,70be5734,d92385f2,d92385f2,d92385f2,d92385f2,f,1,1,0,1,1,1,0,1,1,1,0,0,0,1,0582c160b,d,0,0,0,0,f,f,0,f,f,000,f,cccc,00000,00000,0000000000000000,0,f,f,0,0,f,f,3c4b5875f1,0000,0000,0000,0000
