Sample in Buffer,Sample in Window,TRIGGER,ila_data[513:0],userdata_rx_0[31:0],receiver_0[31:0],userdata_rx_1[31:0],receiver_1[31:0],userdata_rx_2[31:0],receiver_2[31:0],userdata_rx_3[31:0],receiver_3[31:0],userdata_tx_0[31:0],transmitter_0[31:0],userdata_tx_1[31:0],transmitter_1[31:0],userdata_tx_2[31:0],transmitter_2[31:0],userdata_tx_3[31:0],transmitter_3[31:0],prbs_match_int[3:0],hb0_gtwiz_userclk_rx_usrclk2_int,ch0_rxctrl0_int[15:0],hb0_gtwiz_userclk_rx_active_int,hb_gtwiz_reset_all_int,hb0_gtwiz_reset_rx_done_int,hb0_gtwiz_userclk_tx_usrclk2_int,hb0_gtwiz_userclk_tx_active_int,gtwiz_userclk_tx_reset_int,gtwiz_userclk_tx_usrclk_int,gtwiz_userclk_tx_usrclk2_int,gtwiz_userclk_tx_active_int,gtwiz_userclk_rx_reset_int,gtwiz_userclk_rx_usrclk_int,gtwiz_userclk_rx_usrclk2_int,gtwiz_userclk_rx_active_int,drpaddr_int[35:0],ch1_rxctrl0_int[15:0],ch2_rxctrl0_int[15:0],ch3_rxctrl0_int[15:0],drpclk_int[3:0],drpdi_int[3:0],drpen_int[3:0],drpwe_int[3:0],ch0_rxctrl1_int[15:0],eyescanreset_int[3:0],rx8b10ben_int[3:0],rxcommadeten_int[3:0],rxlpmen_int[3:0],ch1_rxctrl1_int[15:0],rxmcommaalignen_int[3:0],rxpcommaalignen_int[3:0],rxrate_int[11:0],ch2_rxctrl1_int[15:0],tx8b10ben_int[3:0],txdiffctrl_int[15:0],ch3_rxctrl1_int[15:0],txpostcursor_int[19:0],ch0_rxctrl2_int[7:0],ch1_rxctrl2_int[7:0],txprecursor_int[19:0],ch2_rxctrl2_int[7:0],ch3_rxctrl2_int[7:0],ch0_rxctrl3_int[7:0],drpdo_int[63:0],ch1_rxctrl3_int[7:0],ch2_rxctrl3_int[7:0],ch3_rxctrl3_int[7:0],ch0_txctrl0_int[15:0],ch1_txctrl0_int[15:0],ch2_txctrl0_int[15:0],drprdy_int[3:0],gtpowergood_int[3:0],rxbyteisaligned_int[3:0],rxbyterealign_int[3:0],rxcommadet_int[3:0],rxpmaresetdone_int[3:0],txpmaresetdone_int[3:0]
Radix - UNSIGNED,UNSIGNED,UNSIGNED,HEX,HEX,HEX,HEX,HEX,HEX,HEX,HEX,HEX,HEX,HEX,HEX,HEX,HEX,HEX,HEX,HEX,HEX,HEX,HEX,HEX,HEX,HEX,HEX,HEX,HEX,HEX,HEX,HEX,HEX,HEX,HEX,HEX,HEX,HEX,HEX,HEX,HEX,HEX,HEX,HEX,HEX,HEX,HEX,HEX,HEX,HEX,HEX,HEX,HEX,HEX,HEX,HEX,HEX,HEX,HEX,HEX,HEX,HEX,HEX,HEX,HEX,HEX,HEX,HEX,HEX,HEX,HEX,HEX,HEX,HEX,HEX,HEX,HEX,HEX
0,0,0,3fc03fc0000000000000000000000000033333c003ffffc00030160b0582fb3b0c54f503c3ab0503c62a7503c9d58503cc553503c3aac503c62a9503c9d56503c,9d56503c,9d56503c,62a9503c,62a9503c,3aac503c,3aac503c,c553503c,c553503c,9d58503c,9d58503c,62a7503c,62a7503c,3ab0503c,3ab0503c,c54f503c,c54f503c,0,1,fb3b,1,0,1,1,1,0,0,1,1,0,1,1,1,0582c160b,0582,160b,0030,c,0,0,0,ffc0,0,f,f,f,03ff,f,f,000,33c0,f,cccc,0333,00000,00,00,00000,00,00,00,0000000000000000,00,00,00,0000,0000,3fc0,0,f,f,0,0,f,f
1,1,0,3fc03fc0000000000000000000000000033333c003ffffc00030160b0582fa2b0c54d503c3ab2503c62a6503c9d59503cc551503c3aae503c62a8503c9d57503c,9d57503c,9d57503c,62a8503c,62a8503c,3aae503c,3aae503c,c551503c,c551503c,9d59503c,9d59503c,62a6503c,62a6503c,3ab2503c,3ab2503c,c54d503c,c54d503c,0,1,fa2b,1,0,1,0,1,0,0,0,1,0,1,1,1,0582c160b,0582,160b,0030,c,0,0,0,ffc0,0,f,f,f,03ff,f,f,000,33c0,f,cccc,0333,00000,00,00,00000,00,00,00,0000000000000000,00,00,00,0000,0000,3fc0,0,f,f,0,0,f,f
2,2,0,3fc03fc0000000000000000000000000033333c003ffffc00030160b0582e22a0c54b503c3ab4503c62a5503c9d5a503cc54f503c3ab0503c62a7503c9d58503c,9d58503c,9d58503c,62a7503c,62a7503c,3ab0503c,3ab0503c,c54f503c,c54f503c,9d5a503c,9d5a503c,62a5503c,62a5503c,3ab4503c,3ab4503c,c54b503c,c54b503c,0,0,e22a,1,0,1,0,1,0,0,0,1,0,0,0,1,0582c160b,0582,160b,0030,c,0,0,0,ffc0,0,f,f,f,03ff,f,f,000,33c0,f,cccc,0333,00000,00,00,00000,00,00,00,0000000000000000,00,00,00,0000,0000,3fc0,0,f,f,0,0,f,f
3,3,0,3fc03fc0000000000000000000000000033333c003ffffc00030160b0582e3aa0c549503c3ab6503c62a4503c9d5b503cc54d503c3ab2503c62a6503c9d59503c,9d59503c,9d59503c,62a6503c,62a6503c,3ab2503c,3ab2503c,c54d503c,c54d503c,9d5b503c,9d5b503c,62a4503c,62a4503c,3ab6503c,3ab6503c,c549503c,c549503c,0,0,e3aa,1,0,1,0,1,0,1,1,1,0,0,0,1,0582c160b,0582,160b,0030,c,0,0,0,ffc0,0,f,f,f,03ff,f,f,000,33c0,f,cccc,0333,00000,00,00,00000,00,00,00,0000000000000000,00,00,00,0000,0000,3fc0,0,f,f,0,0,f,f
4,4,0,3fc03fc0000000000000000000000000033333c003ffffc00030160b0582fbba0c547503c3ab8503c62a3503c9d5c503cc54b503c3ab4503c62a5503c9d5a503c,9d5a503c,9d5a503c,62a5503c,62a5503c,3ab4503c,3ab4503c,c54b503c,c54b503c,9d5c503c,9d5c503c,62a3503c,62a3503c,3ab8503c,3ab8503c,c547503c,c547503c,0,0,fbba,1,0,1,1,1,0,1,1,1,0,1,1,1,0582c160b,0582,160b,0030,c,0,0,0,ffc0,0,f,f,f,03ff,f,f,000,33c0,f,cccc,0333,00000,00,00,00000,00,00,00,0000000000000000,00,00,00,0000,0000,3fc0,0,f,f,0,0,f,f
5,5,0,3fc03fc0000000000000000000000000033333c003ffffc00030160b0582fb3b0c545503c3aba503c62a2503c9d5d503cc549503c3ab6503c62a4503c9d5b503c,9d5b503c,9d5b503c,62a4503c,62a4503c,3ab6503c,3ab6503c,c549503c,c549503c,9d5d503c,9d5d503c,62a2503c,62a2503c,3aba503c,3aba503c,c545503c,c545503c,0,1,fb3b,1,0,1,1,1,0,0,1,1,0,1,1,1,0582c160b,0582,160b,0030,c,0,0,0,ffc0,0,f,f,f,03ff,f,f,000,33c0,f,cccc,0333,00000,00,00,00000,00,00,00,0000000000000000,00,00,00,0000,0000,3fc0,0,f,f,0,0,f,f
6,6,0,3fc03fc0000000000000000000000000033333c003ffffc00030160b0582fa2b0c543503c3abc503c62a1503c9d5e503cc547503c3ab8503c62a3503c9d5c503c,9d5c503c,9d5c503c,62a3503c,62a3503c,3ab8503c,3ab8503c,c547503c,c547503c,9d5e503c,9d5e503c,62a1503c,62a1503c,3abc503c,3abc503c,c543503c,c543503c,0,1,fa2b,1,0,1,0,1,0,0,0,1,0,1,1,1,0582c160b,0582,160b,0030,c,0,0,0,ffc0,0,f,f,f,03ff,f,f,000,33c0,f,cccc,0333,00000,00,00,00000,00,00,00,0000000000000000,00,00,00,0000,0000,3fc0,0,f,f,0,0,f,f
7,7,0,3fc03fc0000000000000000000000000033333c003ffffc00030160b0582e22a0c541503c3abe503c62a0503c9d5f503cc545503c3aba503c62a2503c9d5d503c,9d5d503c,9d5d503c,62a2503c,62a2503c,3aba503c,3aba503c,c545503c,c545503c,9d5f503c,9d5f503c,62a0503c,62a0503c,3abe503c,3abe503c,c541503c,c541503c,0,0,e22a,1,0,1,0,1,0,0,0,1,0,0,0,1,0582c160b,0582,160b,0030,c,0,0,0,ffc0,0,f,f,f,03ff,f,f,000,33c0,f,cccc,0333,00000,00,00,00000,00,00,00,0000000000000000,00,00,00,0000,0000,3fc0,0,f,f,0,0,f,f
8,8,0,3fc03fc0000000000000000000000000033333c003ffffc00030160b0582e3aa0c53f503c3ac0503c629f503c9d60503cc543503c3abc503c62a1503c9d5e503c,9d5e503c,9d5e503c,62a1503c,62a1503c,3abc503c,3abc503c,c543503c,c543503c,9d60503c,9d60503c,629f503c,629f503c,3ac0503c,3ac0503c,c53f503c,c53f503c,0,0,e3aa,1,0,1,0,1,0,1,1,1,0,0,0,1,0582c160b,0582,160b,0030,c,0,0,0,ffc0,0,f,f,f,03ff,f,f,000,33c0,f,cccc,0333,00000,00,00,00000,00,00,00,0000000000000000,00,00,00,0000,0000,3fc0,0,f,f,0,0,f,f
9,9,0,3fc03fc0000000000000000000000000033333c003ffffc00030160b0582fbba0c53d503c3ac2503c629e503c9d61503cc541503c3abe503c62a0503c9d5f503c,9d5f503c,9d5f503c,62a0503c,62a0503c,3abe503c,3abe503c,c541503c,c541503c,9d61503c,9d61503c,629e503c,629e503c,3ac2503c,3ac2503c,c53d503c,c53d503c,0,0,fbba,1,0,1,1,1,0,1,1,1,0,1,1,1,0582c160b,0582,160b,0030,c,0,0,0,ffc0,0,f,f,f,03ff,f,f,000,33c0,f,cccc,0333,00000,00,00,00000,00,00,00,0000000000000000,00,00,00,0000,0000,3fc0,0,f,f,0,0,f,f
10,10,0,3fc03fc0000000000000000000000000033333c003ffffc00030160b0582fb3b0c53b503c3ac4503c629d503c9d62503cc53f503c3ac0503c629f503c9d60503c,9d60503c,9d60503c,629f503c,629f503c,3ac0503c,3ac0503c,c53f503c,c53f503c,9d62503c,9d62503c,629d503c,629d503c,3ac4503c,3ac4503c,c53b503c,c53b503c,0,1,fb3b,1,0,1,1,1,0,0,1,1,0,1,1,1,0582c160b,0582,160b,0030,c,0,0,0,ffc0,0,f,f,f,03ff,f,f,000,33c0,f,cccc,0333,00000,00,00,00000,00,00,00,0000000000000000,00,00,00,0000,0000,3fc0,0,f,f,0,0,f,f
11,11,0,3fc03fc0000000000000000000000000033333c003ffffc00030160b0582fa2b0c539503c3ac6503c629c503c9d63503cc53d503c3ac2503c629e503c9d61503c,9d61503c,9d61503c,629e503c,629e503c,3ac2503c,3ac2503c,c53d503c,c53d503c,9d63503c,9d63503c,629c503c,629c503c,3ac6503c,3ac6503c,c539503c,c539503c,0,1,fa2b,1,0,1,0,1,0,0,0,1,0,1,1,1,0582c160b,0582,160b,0030,c,0,0,0,ffc0,0,f,f,f,03ff,f,f,000,33c0,f,cccc,0333,00000,00,00,00000,00,00,00,0000000000000000,00,00,00,0000,0000,3fc0,0,f,f,0,0,f,f
12,12,0,3fc03fc0000000000000000000000000033333c003ffffc00030160b0582e22a0c537503c3ac8503c629b503c9d64503cc53b503c3ac4503c629d503c9d62503c,9d62503c,9d62503c,629d503c,629d503c,3ac4503c,3ac4503c,c53b503c,c53b503c,9d64503c,9d64503c,629b503c,629b503c,3ac8503c,3ac8503c,c537503c,c537503c,0,0,e22a,1,0,1,0,1,0,0,0,1,0,0,0,1,0582c160b,0582,160b,0030,c,0,0,0,ffc0,0,f,f,f,03ff,f,f,000,33c0,f,cccc,0333,00000,00,00,00000,00,00,00,0000000000000000,00,00,00,0000,0000,3fc0,0,f,f,0,0,f,f
13,13,0,3fc03fc0000000000000000000000000033333c003ffffc00030160b0582e3aa0c535503c3aca503c629a503c9d65503cc539503c3ac6503c629c503c9d63503c,9d63503c,9d63503c,629c503c,629c503c,3ac6503c,3ac6503c,c539503c,c539503c,9d65503c,9d65503c,629a503c,629a503c,3aca503c,3aca503c,c535503c,c535503c,0,0,e3aa,1,0,1,0,1,0,1,1,1,0,0,0,1,0582c160b,0582,160b,0030,c,0,0,0,ffc0,0,f,f,f,03ff,f,f,000,33c0,f,cccc,0333,00000,00,00,00000,00,00,00,0000000000000000,00,00,00,0000,0000,3fc0,0,f,f,0,0,f,f
14,14,0,3fc03fc0000000000000000000000000033333c003ffffc00030160b0582fbba0c533503c3acc503c6299503c9d66503cc537503c3ac8503c629b503c9d64503c,9d64503c,9d64503c,629b503c,629b503c,3ac8503c,3ac8503c,c537503c,c537503c,9d66503c,9d66503c,6299503c,6299503c,3acc503c,3acc503c,c533503c,c533503c,0,0,fbba,1,0,1,1,1,0,1,1,1,0,1,1,1,0582c160b,0582,160b,0030,c,0,0,0,ffc0,0,f,f,f,03ff,f,f,000,33c0,f,cccc,0333,00000,00,00,00000,00,00,00,0000000000000000,00,00,00,0000,0000,3fc0,0,f,f,0,0,f,f
15,15,0,3fc03fc0000000000000000000000000033333c003ffffc00030160b0582fb3b0c531503c3ace503c6298503c9d67503cc535503c3aca503c629a503c9d65503c,9d65503c,9d65503c,629a503c,629a503c,3aca503c,3aca503c,c535503c,c535503c,9d67503c,9d67503c,6298503c,6298503c,3ace503c,3ace503c,c531503c,c531503c,0,1,fb3b,1,0,1,1,1,0,0,1,1,0,1,1,1,0582c160b,0582,160b,0030,c,0,0,0,ffc0,0,f,f,f,03ff,f,f,000,33c0,f,cccc,0333,00000,00,00,00000,00,00,00,0000000000000000,00,00,00,0000,0000,3fc0,0,f,f,0,0,f,f
16,16,0,3fc03fc0000000000000000000000000033333c003ffffc00030160b0582fa2b0c52f503c3ad0503c6297503c9d68503cc533503c3acc503c6299503c9d66503c,9d66503c,9d66503c,6299503c,6299503c,3acc503c,3acc503c,c533503c,c533503c,9d68503c,9d68503c,6297503c,6297503c,3ad0503c,3ad0503c,c52f503c,c52f503c,0,1,fa2b,1,0,1,0,1,0,0,0,1,0,1,1,1,0582c160b,0582,160b,0030,c,0,0,0,ffc0,0,f,f,f,03ff,f,f,000,33c0,f,cccc,0333,00000,00,00,00000,00,00,00,0000000000000000,00,00,00,0000,0000,3fc0,0,f,f,0,0,f,f
17,17,0,3fc03fc0000000000000000000000000033333c003ffffc00030160b0582e22a0c52d503c3ad2503c6296503c9d69503cc531503c3ace503c6298503c9d67503c,9d67503c,9d67503c,6298503c,6298503c,3ace503c,3ace503c,c531503c,c531503c,9d69503c,9d69503c,6296503c,6296503c,3ad2503c,3ad2503c,c52d503c,c52d503c,0,0,e22a,1,0,1,0,1,0,0,0,1,0,0,0,1,0582c160b,0582,160b,0030,c,0,0,0,ffc0,0,f,f,f,03ff,f,f,000,33c0,f,cccc,0333,00000,00,00,00000,00,00,00,0000000000000000,00,00,00,0000,0000,3fc0,0,f,f,0,0,f,f
18,18,0,3fc03fc0000000000000000000000000033333c003ffffc00030160b0582e3ba0c52b503c3ad4503c6295503c9d6a503cc52f503c3ad0503c6297503c9d68503c,9d68503c,9d68503c,6297503c,6297503c,3ad0503c,3ad0503c,c52f503c,c52f503c,9d6a503c,9d6a503c,6295503c,6295503c,3ad4503c,3ad4503c,c52b503c,c52b503c,0,0,e3ba,1,0,1,1,1,0,1,1,1,0,0,0,1,0582c160b,0582,160b,0030,c,0,0,0,ffc0,0,f,f,f,03ff,f,f,000,33c0,f,cccc,0333,00000,00,00,00000,00,00,00,0000000000000000,00,00,00,0000,0000,3fc0,0,f,f,0,0,f,f
19,19,0,3fc03fc0000000000000000000000000033333c003ffffc00030160b0582fbba0c529503c3ad6503c6294503c9d6b503cc52d503c3ad2503c6296503c9d69503c,9d69503c,9d69503c,6296503c,6296503c,3ad2503c,3ad2503c,c52d503c,c52d503c,9d6b503c,9d6b503c,6294503c,6294503c,3ad6503c,3ad6503c,c529503c,c529503c,0,0,fbba,1,0,1,1,1,0,1,1,1,0,1,1,1,0582c160b,0582,160b,0030,c,0,0,0,ffc0,0,f,f,f,03ff,f,f,000,33c0,f,cccc,0333,00000,00,00,00000,00,00,00,0000000000000000,00,00,00,0000,0000,3fc0,0,f,f,0,0,f,f
20,20,0,3fc03fc0000000000000000000000000033333c003ffffc00030160b0582fb3b0c527503c3ad8503c6293503c9d6c503cc52b503c3ad4503c6295503c9d6a503c,9d6a503c,9d6a503c,6295503c,6295503c,3ad4503c,3ad4503c,c52b503c,c52b503c,9d6c503c,9d6c503c,6293503c,6293503c,3ad8503c,3ad8503c,c527503c,c527503c,0,1,fb3b,1,0,1,1,1,0,0,1,1,0,1,1,1,0582c160b,0582,160b,0030,c,0,0,0,ffc0,0,f,f,f,03ff,f,f,000,33c0,f,cccc,0333,00000,00,00,00000,00,00,00,0000000000000000,00,00,00,0000,0000,3fc0,0,f,f,0,0,f,f
21,21,0,3fc03fc0000000000000000000000000033333c003ffffc00030160b0582fa2b0c525503c3ada503c6292503c9d6d503cc529503c3ad6503c6294503c9d6b503c,9d6b503c,9d6b503c,6294503c,6294503c,3ad6503c,3ad6503c,c529503c,c529503c,9d6d503c,9d6d503c,6292503c,6292503c,3ada503c,3ada503c,c525503c,c525503c,0,1,fa2b,1,0,1,0,1,0,0,0,1,0,1,1,1,0582c160b,0582,160b,0030,c,0,0,0,ffc0,0,f,f,f,03ff,f,f,000,33c0,f,cccc,0333,00000,00,00,00000,00,00,00,0000000000000000,00,00,00,0000,0000,3fc0,0,f,f,0,0,f,f
22,22,0,3fc03fc0000000000000000000000000033333c003ffffc00030160b0582e22a0c523503c3adc503c6291503c9d6e503cc527503c3ad8503c6293503c9d6c503c,9d6c503c,9d6c503c,6293503c,6293503c,3ad8503c,3ad8503c,c527503c,c527503c,9d6e503c,9d6e503c,6291503c,6291503c,3adc503c,3adc503c,c523503c,c523503c,0,0,e22a,1,0,1,0,1,0,0,0,1,0,0,0,1,0582c160b,0582,160b,0030,c,0,0,0,ffc0,0,f,f,f,03ff,f,f,000,33c0,f,cccc,0333,00000,00,00,00000,00,00,00,0000000000000000,00,00,00,0000,0000,3fc0,0,f,f,0,0,f,f
23,23,0,3fc03fc0000000000000000000000000033333c003ffffc00030160b0582e3ba0c521503c3ade503c6290503c9d6f503cc525503c3ada503c6292503c9d6d503c,9d6d503c,9d6d503c,6292503c,6292503c,3ada503c,3ada503c,c525503c,c525503c,9d6f503c,9d6f503c,6290503c,6290503c,3ade503c,3ade503c,c521503c,c521503c,0,0,e3ba,1,0,1,1,1,0,1,1,1,0,0,0,1,0582c160b,0582,160b,0030,c,0,0,0,ffc0,0,f,f,f,03ff,f,f,000,33c0,f,cccc,0333,00000,00,00,00000,00,00,00,0000000000000000,00,00,00,0000,0000,3fc0,0,f,f,0,0,f,f
24,24,0,3fc03fc0000000000000000000000000033333c003ffffc00030160b0582fbba0c51f503c3ae0503c628f503c9d70503cc523503c3adc503c6291503c9d6e503c,9d6e503c,9d6e503c,6291503c,6291503c,3adc503c,3adc503c,c523503c,c523503c,9d70503c,9d70503c,628f503c,628f503c,3ae0503c,3ae0503c,c51f503c,c51f503c,0,0,fbba,1,0,1,1,1,0,1,1,1,0,1,1,1,0582c160b,0582,160b,0030,c,0,0,0,ffc0,0,f,f,f,03ff,f,f,000,33c0,f,cccc,0333,00000,00,00,00000,00,00,00,0000000000000000,00,00,00,0000,0000,3fc0,0,f,f,0,0,f,f
25,25,0,3fc03fc0000000000000000000000000033333c003ffffc00030160b0582fb3b0c51d503c3ae2503c628e503c9d71503cc521503c3ade503c6290503c9d6f503c,9d6f503c,9d6f503c,6290503c,6290503c,3ade503c,3ade503c,c521503c,c521503c,9d71503c,9d71503c,628e503c,628e503c,3ae2503c,3ae2503c,c51d503c,c51d503c,0,1,fb3b,1,0,1,1,1,0,0,1,1,0,1,1,1,0582c160b,0582,160b,0030,c,0,0,0,ffc0,0,f,f,f,03ff,f,f,000,33c0,f,cccc,0333,00000,00,00,00000,00,00,00,0000000000000000,00,00,00,0000,0000,3fc0,0,f,f,0,0,f,f
26,26,0,3fc03fc0000000000000000000000000033333c003ffffc00030160b0582fa2b0c51b503c3ae4503c628d503c9d72503cc51f503c3ae0503c628f503c9d70503c,9d70503c,9d70503c,628f503c,628f503c,3ae0503c,3ae0503c,c51f503c,c51f503c,9d72503c,9d72503c,628d503c,628d503c,3ae4503c,3ae4503c,c51b503c,c51b503c,0,1,fa2b,1,0,1,0,1,0,0,0,1,0,1,1,1,0582c160b,0582,160b,0030,c,0,0,0,ffc0,0,f,f,f,03ff,f,f,000,33c0,f,cccc,0333,00000,00,00,00000,00,00,00,0000000000000000,00,00,00,0000,0000,3fc0,0,f,f,0,0,f,f
27,27,0,3fc03fc0000000000000000000000000033333c003ffffc00030160b0582e22a0c519503c3ae6503c628c503c9d73503cc51d503c3ae2503c628e503c9d71503c,9d71503c,9d71503c,628e503c,628e503c,3ae2503c,3ae2503c,c51d503c,c51d503c,9d73503c,9d73503c,628c503c,628c503c,3ae6503c,3ae6503c,c519503c,c519503c,0,0,e22a,1,0,1,0,1,0,0,0,1,0,0,0,1,0582c160b,0582,160b,0030,c,0,0,0,ffc0,0,f,f,f,03ff,f,f,000,33c0,f,cccc,0333,00000,00,00,00000,00,00,00,0000000000000000,00,00,00,0000,0000,3fc0,0,f,f,0,0,f,f
28,28,0,3fc03fc0000000000000000000000000033333c003ffffc00030160b0582e3ba0c517503c3ae8503c628b503c9d74503cc51b503c3ae4503c628d503c9d72503c,9d72503c,9d72503c,628d503c,628d503c,3ae4503c,3ae4503c,c51b503c,c51b503c,9d74503c,9d74503c,628b503c,628b503c,3ae8503c,3ae8503c,c517503c,c517503c,0,0,e3ba,1,0,1,1,1,0,1,1,1,0,0,0,1,0582c160b,0582,160b,0030,c,0,0,0,ffc0,0,f,f,f,03ff,f,f,000,33c0,f,cccc,0333,00000,00,00,00000,00,00,00,0000000000000000,00,00,00,0000,0000,3fc0,0,f,f,0,0,f,f
29,29,0,3fc03fc0000000000000000000000000033333c003ffffc00030160b0582fbba0c515503c3aea503c628a503c9d75503cc519503c3ae6503c628c503c9d73503c,9d73503c,9d73503c,628c503c,628c503c,3ae6503c,3ae6503c,c519503c,c519503c,9d75503c,9d75503c,628a503c,628a503c,3aea503c,3aea503c,c515503c,c515503c,0,0,fbba,1,0,1,1,1,0,1,1,1,0,1,1,1,0582c160b,0582,160b,0030,c,0,0,0,ffc0,0,f,f,f,03ff,f,f,000,33c0,f,cccc,0333,00000,00,00,00000,00,00,00,0000000000000000,00,00,00,0000,0000,3fc0,0,f,f,0,0,f,f
30,30,0,3fc03fc0000000000000000000000000033333c003ffffc00030160b0582fa3b0c513503c3aec503c6289503c9d76503cc517503c3ae8503c628b503c9d74503c,9d74503c,9d74503c,628b503c,628b503c,3ae8503c,3ae8503c,c517503c,c517503c,9d76503c,9d76503c,6289503c,6289503c,3aec503c,3aec503c,c513503c,c513503c,0,1,fa3b,1,0,1,1,1,0,0,0,1,0,1,1,1,0582c160b,0582,160b,0030,c,0,0,0,ffc0,0,f,f,f,03ff,f,f,000,33c0,f,cccc,0333,00000,00,00,00000,00,00,00,0000000000000000,00,00,00,0000,0000,3fc0,0,f,f,0,0,f,f
31,31,0,3fc03fc0000000000000000000000000033333c003ffffc00030160b0582fa2b0c511503c3aee503c6288503c9d77503cc515503c3aea503c628a503c9d75503c,9d75503c,9d75503c,628a503c,628a503c,3aea503c,3aea503c,c515503c,c515503c,9d77503c,9d77503c,6288503c,6288503c,3aee503c,3aee503c,c511503c,c511503c,0,1,fa2b,1,0,1,0,1,0,0,0,1,0,1,1,1,0582c160b,0582,160b,0030,c,0,0,0,ffc0,0,f,f,f,03ff,f,f,000,33c0,f,cccc,0333,00000,00,00,00000,00,00,00,0000000000000000,00,00,00,0000,0000,3fc0,0,f,f,0,0,f,f
32,32,0,3fc03fc0000000000000000000000000033333c003ffffc00030160b0582e22a0c50f503c3af0503c6287503c9d78503cc513503c3aec503c6289503c9d76503c,9d76503c,9d76503c,6289503c,6289503c,3aec503c,3aec503c,c513503c,c513503c,9d78503c,9d78503c,6287503c,6287503c,3af0503c,3af0503c,c50f503c,c50f503c,0,0,e22a,1,0,1,0,1,0,0,0,1,0,0,0,1,0582c160b,0582,160b,0030,c,0,0,0,ffc0,0,f,f,f,03ff,f,f,000,33c0,f,cccc,0333,00000,00,00,00000,00,00,00,0000000000000000,00,00,00,0000,0000,3fc0,0,f,f,0,0,f,f
33,33,0,3fc03fc0000000000000000000000000033333c003ffffc00030160b0582e3aa0c50d503c3af2503c6286503c9d79503cc511503c3aee503c6288503c9d77503c,9d77503c,9d77503c,6288503c,6288503c,3aee503c,3aee503c,c511503c,c511503c,9d79503c,9d79503c,6286503c,6286503c,3af2503c,3af2503c,c50d503c,c50d503c,0,0,e3aa,1,0,1,0,1,0,1,1,1,0,0,0,1,0582c160b,0582,160b,0030,c,0,0,0,ffc0,0,f,f,f,03ff,f,f,000,33c0,f,cccc,0333,00000,00,00,00000,00,00,00,0000000000000000,00,00,00,0000,0000,3fc0,0,f,f,0,0,f,f
34,34,0,3fc03fc0000000000000000000000000033333c003ffffc00030160b0582fbba0c50b503c3af4503c6285503c9d7a503cc50f503c3af0503c6287503c9d78503c,9d78503c,9d78503c,6287503c,6287503c,3af0503c,3af0503c,c50f503c,c50f503c,9d7a503c,9d7a503c,6285503c,6285503c,3af4503c,3af4503c,c50b503c,c50b503c,0,0,fbba,1,0,1,1,1,0,1,1,1,0,1,1,1,0582c160b,0582,160b,0030,c,0,0,0,ffc0,0,f,f,f,03ff,f,f,000,33c0,f,cccc,0333,00000,00,00,00000,00,00,00,0000000000000000,00,00,00,0000,0000,3fc0,0,f,f,0,0,f,f
35,35,0,3fc03fc0000000000000000000000000033333c003ffffc00030160b0582fb3b0c509503c3af6503c6284503c9d7b503cc50d503c3af2503c6286503c9d79503c,9d79503c,9d79503c,6286503c,6286503c,3af2503c,3af2503c,c50d503c,c50d503c,9d7b503c,9d7b503c,6284503c,6284503c,3af6503c,3af6503c,c509503c,c509503c,0,1,fb3b,1,0,1,1,1,0,0,1,1,0,1,1,1,0582c160b,0582,160b,0030,c,0,0,0,ffc0,0,f,f,f,03ff,f,f,000,33c0,f,cccc,0333,00000,00,00,00000,00,00,00,0000000000000000,00,00,00,0000,0000,3fc0,0,f,f,0,0,f,f
36,36,0,3fc03fc0000000000000000000000000033333c003ffffc00030160b0582fa2b0c507503c3af8503c6283503c9d7c503cc50b503c3af4503c6285503c9d7a503c,9d7a503c,9d7a503c,6285503c,6285503c,3af4503c,3af4503c,c50b503c,c50b503c,9d7c503c,9d7c503c,6283503c,6283503c,3af8503c,3af8503c,c507503c,c507503c,0,1,fa2b,1,0,1,0,1,0,0,0,1,0,1,1,1,0582c160b,0582,160b,0030,c,0,0,0,ffc0,0,f,f,f,03ff,f,f,000,33c0,f,cccc,0333,00000,00,00,00000,00,00,00,0000000000000000,00,00,00,0000,0000,3fc0,0,f,f,0,0,f,f
