Sample in Buffer,Sample in Window,TRIGGER,ila_data[617:0],receiver_0[31:0],receiver_1[31:0],receiver_2[31:0],receiver_3[31:0],transmitter_0[31:0],transmitter_1[31:0],transmitter_2[31:0],transmitter_3[31:0],prbs_match_int[3:0],hb0_gtwiz_userclk_rx_usrclk2_int,hb0_gtwiz_userclk_rx_active_int,hb_gtwiz_reset_all_int,hb0_gtwiz_reset_rx_done_int,hb0_gtwiz_userclk_tx_usrclk2_int,hb0_gtwiz_userclk_tx_active_int,gtwiz_userclk_tx_reset_int,gtwiz_userclk_tx_usrclk_int,gtwiz_userclk_tx_usrclk2_int,gtwiz_userclk_tx_active_int,gtwiz_userclk_rx_reset_int,gtwiz_userclk_rx_usrclk_int,gtwiz_userclk_rx_usrclk2_int,gtwiz_userclk_rx_active_int,drpaddr_int[35:0],drpclk_int[3:0],drpdi_int[3:0],drpen_int[3:0],drpwe_int[3:0],eyescanreset_int[3:0],rx8b10ben_int[3:0],rxcommadeten_int[3:0],rxlpmen_int[3:0],rxmcommaalignen_int[3:0],rxpcommaalignen_int[3:0],rxrate_int[11:0],tx8b10ben_int[3:0],txdiffctrl_int[15:0],txpostcursor_int[19:0],txprecursor_int[19:0],drpdo_int[63:0],drprdy_int[3:0],gtpowergood_int[3:0],rxbyteisaligned_int[3:0],rxbyterealign_int[3:0],rxcommadet_int[3:0],rxpmaresetdone_int[3:0],txpmaresetdone_int[3:0],hb0_rxdata_nml_ctr[39:0],ch0_rxdata_err_ctr[15:0],ch1_rxdata_err_ctr[15:0],ch2_rxdata_err_ctr[15:0],ch3_rxdata_err_ctr[15:0]
Radix - UNSIGNED,UNSIGNED,UNSIGNED,HEX,HEX,HEX,HEX,HEX,HEX,HEX,HEX,HEX,HEX,HEX,HEX,HEX,HEX,HEX,HEX,HEX,HEX,HEX,HEX,HEX,HEX,HEX,HEX,HEX,HEX,HEX,HEX,HEX,HEX,HEX,HEX,HEX,HEX,HEX,HEX,HEX,HEX,HEX,HEX,HEX,HEX,HEX,HEX,HEX,HEX,HEX,HEX,HEX,HEX,HEX,HEX,HEX
0,0,0,000000000000000000000000003fc03fc0000000000000000000000000033333c003ffffc0003c160b0582e22af47542bd147542bd147542bd147542bd1f36b199bf36b199bf36b199bf36b199b,f36b199b,f36b199b,f36b199b,f36b199b,47542bd1,47542bd1,47542bd1,47542bd1,f,0,1,0,1,0,1,0,0,0,1,0,0,0,1,0582c160b,f,0,0,0,0,f,f,f,f,f,000,f,cccc,00000,00000,0000000000000000,0,f,f,0,0,f,f,0000000000,0000,0000,0000,0000
1,1,0,000000000000000000000000003fc03fc0000000000000000000000000033333c003ffffc0003c160b0582e32af2d98037e2d98037e2d98037e2d98037eed70564ded70564ded70564ded70564d,ed70564d,ed70564d,ed70564d,ed70564d,2d98037e,2d98037e,2d98037e,2d98037e,f,0,1,0,1,0,1,0,0,1,1,0,0,0,1,0582c160b,f,0,0,0,0,f,f,f,f,f,000,f,cccc,00000,00000,0000000000000000,0,f,f,0,0,f,f,0000000000,0000,0000,0000,0000
2,2,0,000000000000000000000000003fc03fc0000000000000000000000000033333c003ffffc0003c160b0582fbbbf9338198b9338198b9338198b9338198b95825e1495825e1495825e1495825e14,95825e14,95825e14,95825e14,95825e14,9338198b,9338198b,9338198b,9338198b,f,1,1,0,1,1,1,0,1,1,1,0,1,1,1,0582c160b,f,0,0,0,0,f,f,f,f,f,000,f,cccc,00000,00000,0000000000000000,0,f,f,0,0,f,f,0000000000,0000,0000,0000,0000
3,3,0,000000000000000000000000003fc03fc0000000000000000000000000033333c003ffffc0003c160b0582fabbfe728e164e76be065c768b151e728fd6d7e22b9a17e22b9a17e22b9a17e22b9a1,7e22b9a1,7e22b9a1,7e22b9a1,7e22b9a1,e728fd6d,c768b151,e76be065,e728e164,f,1,1,0,1,1,1,0,1,0,1,0,1,1,1,0582c160b,f,0,0,0,0,f,f,f,f,f,000,f,cccc,00000,00000,0000000000000000,0,f,f,0,0,f,f,0000000000,0000,0000,0000,0000
4,4,0,000000000000000000000000003fc03fc0000000000000000000000000033333c003ffffc0003c160b0582ea2bf792421537924215379242153792421535d8d55f35d8d55f35d8d55f35d8d55f3,5d8d55f3,5d8d55f3,5d8d55f3,5d8d55f3,79242153,79242153,79242153,79242153,f,1,1,0,1,0,1,0,0,0,1,0,1,0,1,0582c160b,f,0,0,0,0,f,f,f,f,f,000,f,cccc,00000,00000,0000000000000000,0,f,f,0,0,f,f,0000000000,0000,0000,0000,0000
5,5,0,000000000000000000000000003fc03fc0000000000000000000000000033333c003ffffc0003c160b0582e22afc879769dc879769dc879769dc879769d6243f2f36243f2f36243f2f36243f2f3,6243f2f3,6243f2f3,6243f2f3,6243f2f3,c879769d,c879769d,c879769d,c879769d,f,0,1,0,1,0,1,0,0,0,1,0,0,0,1,0582c160b,f,0,0,0,0,f,f,f,f,f,000,f,cccc,00000,00000,0000000000000000,0,f,f,0,0,f,f,0000000000,0000,0000,0000,0000
6,6,0,000000000000000000000000003fc03fc0000000000000000000000000033333c003ffffc0003c160b0582e32af307355513073555130735551307355518e6785a48e6785a48e6785a48e6785a4,8e6785a4,8e6785a4,8e6785a4,8e6785a4,30735551,30735551,30735551,30735551,f,0,1,0,1,0,1,0,0,1,1,0,0,0,1,0582c160b,f,0,0,0,0,f,f,f,f,f,000,f,cccc,00000,00000,0000000000000000,0,f,f,0,0,f,f,0000000000,0000,0000,0000,0000
7,7,0,000000000000000000000000003fc03fc0000000000000000000000000033333c003ffffc0003c160b0582fbbbf390eeca8390eeca8390eeca8390eeca8c85bdd0dc85bdd0dc85bdd0dc85bdd0d,c85bdd0d,c85bdd0d,c85bdd0d,c85bdd0d,390eeca8,390eeca8,390eeca8,390eeca8,f,1,1,0,1,1,1,0,1,1,1,0,1,1,1,0582c160b,f,0,0,0,0,f,f,f,f,f,000,f,cccc,00000,00000,0000000000000000,0,f,f,0,0,f,f,0000000000,0000,0000,0000,0000
8,8,0,000000000000000000000000003fc03fc0000000000000000000000000033333c003ffffc0003c160b0582fabbfee2eb632ee6f97b2ee6e36e6ee2e96723a71d4653a71d4653a71d4653a71d465,3a71d465,3a71d465,3a71d465,3a71d465,ee2e9672,ee6e36e6,ee6f97b2,ee2eb632,f,1,1,0,1,1,1,0,1,0,1,0,1,1,1,0582c160b,f,0,0,0,0,f,f,f,f,f,000,f,cccc,00000,00000,0000000000000000,0,f,f,0,0,f,f,0000000000,0000,0000,0000,0000
9,9,0,000000000000000000000000003fc03fc0000000000000000000000000033333c003ffffc0003c160b0582ea2bf63bf06b863bf06b863bf06b863bf06b8a5a586a0a5a586a0a5a586a0a5a586a0,a5a586a0,a5a586a0,a5a586a0,a5a586a0,63bf06b8,63bf06b8,63bf06b8,63bf06b8,f,1,1,0,1,0,1,0,0,0,1,0,1,0,1,0582c160b,f,0,0,0,0,f,f,f,f,f,000,f,cccc,00000,00000,0000000000000000,0,f,f,0,0,f,f,0000000000,0000,0000,0000,0000
10,10,0,000000000000000000000000003fc03fc0000000000000000000000000033333c003ffffc0003c160b0582e22af7f87cc317f87cc317f87cc317f87cc314d2d3ebc4d2d3ebc4d2d3ebc4d2d3ebc,4d2d3ebc,4d2d3ebc,4d2d3ebc,4d2d3ebc,7f87cc31,7f87cc31,7f87cc31,7f87cc31,f,0,1,0,1,0,1,0,0,0,1,0,0,0,1,0582c160b,f,0,0,0,0,f,f,f,f,f,000,f,cccc,00000,00000,0000000000000000,0,f,f,0,0,f,f,0000000000,0000,0000,0000,0000
11,11,0,000000000000000000000000003fc03fc0000000000000000000000000033333c003ffffc0003c160b0582e32af5c441d175c441d175c441d175c441d17c809618bc809618bc809618bc809618b,c809618b,c809618b,c809618b,c809618b,5c441d17,5c441d17,5c441d17,5c441d17,f,0,1,0,1,0,1,0,0,1,1,0,0,0,1,0582c160b,f,0,0,0,0,f,f,f,f,f,000,f,cccc,00000,00000,0000000000000000,0,f,f,0,0,f,f,0000000000,0000,0000,0000,0000
12,12,0,000000000000000000000000003fc03fc0000000000000000000000000033333c003ffffc0003c160b0582fbbbf5eba0b475eba0b475eba0b475eba0b476a4c2fbc6a4c2fbc6a4c2fbc6a4c2fbc,6a4c2fbc,6a4c2fbc,6a4c2fbc,6a4c2fbc,5eba0b47,5eba0b47,5eba0b47,5eba0b47,f,1,1,0,1,1,1,0,1,1,1,0,1,1,1,0582c160b,f,0,0,0,0,f,f,f,f,f,000,f,cccc,00000,00000,0000000000000000,0,f,f,0,0,f,f,0000000000,0000,0000,0000,0000
13,13,0,000000000000000000000000003fc03fc0000000000000000000000000033333c003ffffc0003c160b0582fabbf46f87f1ce6f15e1cc6f8bf0c66e85f1e290f28f5290f28f5290f28f5290f28f5,290f28f5,290f28f5,290f28f5,290f28f5,66e85f1e,c6f8bf0c,e6f15e1c,46f87f1c,f,1,1,0,1,1,1,0,1,0,1,0,1,1,1,0582c160b,f,0,0,0,0,f,f,f,f,f,000,f,cccc,00000,00000,0000000000000000,0,f,f,0,0,f,f,0000000000,0000,0000,0000,0000
14,14,0,000000000000000000000000003fc03fc0000000000000000000000000033333c003ffffc0003c160b0582ea2bfa1f1111da1f1111da1f1111da1f1111dbc3e69ddbc3e69ddbc3e69ddbc3e69dd,bc3e69dd,bc3e69dd,bc3e69dd,bc3e69dd,a1f1111d,a1f1111d,a1f1111d,a1f1111d,f,1,1,0,1,0,1,0,0,0,1,0,1,0,1,0582c160b,f,0,0,0,0,f,f,f,f,f,000,f,cccc,00000,00000,0000000000000000,0,f,f,0,0,f,f,0000000000,0000,0000,0000,0000
15,15,0,000000000000000000000000003fc03fc0000000000000000000000000033333c003ffffc0003c160b0582e22af3a46688e3a46688e3a46688e3a46688e1960ec1a1960ec1a1960ec1a1960ec1a,1960ec1a,1960ec1a,1960ec1a,1960ec1a,3a46688e,3a46688e,3a46688e,3a46688e,f,0,1,0,1,0,1,0,0,0,1,0,0,0,1,0582c160b,f,0,0,0,0,f,f,f,f,f,000,f,cccc,00000,00000,0000000000000000,0,f,f,0,0,f,f,0000000000,0000,0000,0000,0000
16,16,0,000000000000000000000000003fc03fc0000000000000000000000000033333c003ffffc0003c160b0582e32af2ebd14a72ebd14a72ebd14a72ebd14a78e3f18208e3f18208e3f18208e3f1820,8e3f1820,8e3f1820,8e3f1820,8e3f1820,2ebd14a7,2ebd14a7,2ebd14a7,2ebd14a7,f,0,1,0,1,0,1,0,0,1,1,0,0,0,1,0582c160b,f,0,0,0,0,f,f,f,f,f,000,f,cccc,00000,00000,0000000000000000,0,f,f,0,0,f,f,0000000000,0000,0000,0000,0000
17,17,0,000000000000000000000000003fc03fc0000000000000000000000000033333c003ffffc0003c160b0582fbbbf939be60d939be60d939be60d939be60d7272428a7272428a7272428a7272428a,7272428a,7272428a,7272428a,7272428a,939be60d,939be60d,939be60d,939be60d,f,1,1,0,1,1,1,0,1,1,1,0,1,1,1,0582c160b,f,0,0,0,0,f,f,f,f,f,000,f,cccc,00000,00000,0000000000000000,0,f,f,0,0,f,f,0000000000,0000,0000,0000,0000
18,18,0,000000000000000000000000003fc03fc0000000000000000000000000033333c003ffffc0003c160b0582fabbfe97392e3691290e1611352a1e95396e307dc819307dc819307dc819307dc8193,07dc8193,07dc8193,07dc8193,07dc8193,e95396e3,611352a1,691290e1,e97392e3,f,1,1,0,1,1,1,0,1,0,1,0,1,1,1,0582c160b,f,0,0,0,0,f,f,f,f,f,000,f,cccc,00000,00000,0000000000000000,0,f,f,0,0,f,f,0000000000,0000,0000,0000,0000
19,19,0,000000000000000000000000003fc03fc0000000000000000000000000033333c003ffffc0003c160b0582ea2bfb6f93b6fb6f93b6fb6f93b6fb6f93b6f5c9454515c9454515c9454515c945451,5c945451,5c945451,5c945451,5c945451,b6f93b6f,b6f93b6f,b6f93b6f,b6f93b6f,f,1,1,0,1,0,1,0,0,0,1,0,1,0,1,0582c160b,f,0,0,0,0,f,f,f,f,f,000,f,cccc,00000,00000,0000000000000000,0,f,f,0,0,f,f,0000000000,0000,0000,0000,0000
20,20,0,000000000000000000000000003fc03fc0000000000000000000000000033333c003ffffc0003c160b0582e22af4ea5f73a4ea5f73a4ea5f73a4ea5f73a99dffb3999dffb3999dffb3999dffb39,99dffb39,99dffb39,99dffb39,99dffb39,4ea5f73a,4ea5f73a,4ea5f73a,4ea5f73a,f,0,1,0,1,0,1,0,0,0,1,0,0,0,1,0582c160b,f,0,0,0,0,f,f,f,f,f,000,f,cccc,00000,00000,0000000000000000,0,f,f,0,0,f,f,0000000000,0000,0000,0000,0000
21,21,0,000000000000000000000000003fc03fc0000000000000000000000000033333c003ffffc0003c160b0582e32afa2f60119a2f60119a2f60119a2f6011995ebddd495ebddd495ebddd495ebddd4,95ebddd4,95ebddd4,95ebddd4,95ebddd4,a2f60119,a2f60119,a2f60119,a2f60119,f,0,1,0,1,0,1,0,0,1,1,0,0,0,1,0582c160b,f,0,0,0,0,f,f,f,f,f,000,f,cccc,00000,00000,0000000000000000,0,f,f,0,0,f,f,0000000000,0000,0000,0000,0000
22,22,0,000000000000000000000000003fc03fc0000000000000000000000000033333c003ffffc0003c160b0582fbbbf19f6969c19f6969c19f6969c19f6969c0b3eb8ea0b3eb8ea0b3eb8ea0b3eb8ea,0b3eb8ea,0b3eb8ea,0b3eb8ea,0b3eb8ea,19f6969c,19f6969c,19f6969c,19f6969c,f,1,1,0,1,1,1,0,1,1,1,0,1,1,1,0582c160b,f,0,0,0,0,f,f,f,f,f,000,f,cccc,00000,00000,0000000000000000,0,f,f,0,0,f,f,0000000000,0000,0000,0000,0000
23,23,0,000000000000000000000000003fc03fc0000000000000000000000000033333c003ffffc0003c160b0582fabbf526de0f1724dc3f15e6df0a1724ddcb11e7f0ce51e7f0ce51e7f0ce51e7f0ce5,1e7f0ce5,1e7f0ce5,1e7f0ce5,1e7f0ce5,724ddcb1,5e6df0a1,724dc3f1,526de0f1,f,1,1,0,1,1,1,0,1,0,1,0,1,1,1,0582c160b,f,0,0,0,0,f,f,f,f,f,000,f,cccc,00000,00000,0000000000000000,0,f,f,0,0,f,f,0000000000,0000,0000,0000,0000
24,24,0,000000000000000000000000003fc03fc0000000000000000000000000033333c003ffffc0003c160b0582ea2bf1bf866a51bf866a51bf866a51bf866a5fdc609b0fdc609b0fdc609b0fdc609b0,fdc609b0,fdc609b0,fdc609b0,fdc609b0,1bf866a5,1bf866a5,1bf866a5,1bf866a5,f,1,1,0,1,0,1,0,0,0,1,0,1,0,1,0582c160b,f,0,0,0,0,f,f,f,f,f,000,f,cccc,00000,00000,0000000000000000,0,f,f,0,0,f,f,0000000000,0000,0000,0000,0000
25,25,0,000000000000000000000000003fc03fc0000000000000000000000000033333c003ffffc0003c160b0582e22af3b584d5e3b584d5e3b584d5e3b584d5e0dc2a24a0dc2a24a0dc2a24a0dc2a24a,0dc2a24a,0dc2a24a,0dc2a24a,0dc2a24a,3b584d5e,3b584d5e,3b584d5e,3b584d5e,f,0,1,0,1,0,1,0,0,0,1,0,0,0,1,0582c160b,f,0,0,0,0,f,f,f,f,f,000,f,cccc,00000,00000,0000000000000000,0,f,f,0,0,f,f,0000000000,0000,0000,0000,0000
26,26,0,000000000000000000000000003fc03fc0000000000000000000000000033333c003ffffc0003c160b0582e32af4b22fa374b22fa374b22fa374b22fa371830b9a31830b9a31830b9a31830b9a3,1830b9a3,1830b9a3,1830b9a3,1830b9a3,4b22fa37,4b22fa37,4b22fa37,4b22fa37,f,0,1,0,1,0,1,0,0,1,1,0,0,0,1,0582c160b,f,0,0,0,0,f,f,f,f,f,000,f,cccc,00000,00000,0000000000000000,0,f,f,0,0,f,f,0000000000,0000,0000,0000,0000
27,27,0,000000000000000000000000003fc03fc0000000000000000000000000033333c003ffffc0003c160b0582fbbbf96687042966870429668704296687042f98367f2f98367f2f98367f2f98367f2,f98367f2,f98367f2,f98367f2,f98367f2,96687042,96687042,96687042,96687042,f,1,1,0,1,1,1,0,1,1,1,0,1,1,1,0582c160b,f,0,0,0,0,f,f,f,f,f,000,f,cccc,00000,00000,0000000000000000,0,f,f,0,0,f,f,0000000000,0000,0000,0000,0000
28,28,0,000000000000000000000000003fc03fc0000000000000000000000000033333c003ffffc0003c160b0582fabbf3b54c3543b14c0543b14d3543b54df5ef438efc4f438efc4f438efc4f438efc4,f438efc4,f438efc4,f438efc4,f438efc4,3b54df5e,3b14d354,3b14c054,3b54c354,f,1,1,0,1,1,1,0,1,0,1,0,1,1,1,0582c160b,f,0,0,0,0,f,f,f,f,f,000,f,cccc,00000,00000,0000000000000000,0,f,f,0,0,f,f,0000000000,0000,0000,0000,0000
29,29,0,000000000000000000000000003fc03fc0000000000000000000000000033333c003ffffc0003c160b0582ea2bf92103c6292103c6292103c6292103c6204abc1f104abc1f104abc1f104abc1f1,04abc1f1,04abc1f1,04abc1f1,04abc1f1,92103c62,92103c62,92103c62,92103c62,f,1,1,0,1,0,1,0,0,0,1,0,1,0,1,0582c160b,f,0,0,0,0,f,f,f,f,f,000,f,cccc,00000,00000,0000000000000000,0,f,f,0,0,f,f,0000000000,0000,0000,0000,0000
30,30,0,000000000000000000000000003fc03fc0000000000000000000000000033333c003ffffc0003c160b0582e22afc8bb0dcbc8bb0dcbc8bb0dcbc8bb0dcb9a1bf7269a1bf7269a1bf7269a1bf726,9a1bf726,9a1bf726,9a1bf726,9a1bf726,c8bb0dcb,c8bb0dcb,c8bb0dcb,c8bb0dcb,f,0,1,0,1,0,1,0,0,0,1,0,0,0,1,0582c160b,f,0,0,0,0,f,f,f,f,f,000,f,cccc,00000,00000,0000000000000000,0,f,f,0,0,f,f,0000000000,0000,0000,0000,0000
31,31,0,000000000000000000000000003fc03fc0000000000000000000000000033333c003ffffc0003c160b0582e32afce1e8d34ce1e8d34ce1e8d34ce1e8d34ba365f16ba365f16ba365f16ba365f16,ba365f16,ba365f16,ba365f16,ba365f16,ce1e8d34,ce1e8d34,ce1e8d34,ce1e8d34,f,0,1,0,1,0,1,0,0,1,1,0,0,0,1,0582c160b,f,0,0,0,0,f,f,f,f,f,000,f,cccc,00000,00000,0000000000000000,0,f,f,0,0,f,f,0000000000,0000,0000,0000,0000
32,32,0,000000000000000000000000003fc03fc0000000000000000000000000033333c003ffffc0003c160b0582fbbbfbd20b0c4bd20b0c4bd20b0c4bd20b0c403027c2503027c2503027c2503027c25,03027c25,03027c25,03027c25,03027c25,bd20b0c4,bd20b0c4,bd20b0c4,bd20b0c4,f,1,1,0,1,1,1,0,1,1,1,0,1,1,1,0582c160b,f,0,0,0,0,f,f,f,f,f,000,f,cccc,00000,00000,0000000000000000,0,f,f,0,0,f,f,0000000000,0000,0000,0000,0000
33,33,0,000000000000000000000000003fc03fc0000000000000000000000000033333c003ffffc0003c160b0582fabbf16fb539e96db721e96fb534a56db73ded9ae0994d9ae0994d9ae0994d9ae0994,d9ae0994,d9ae0994,d9ae0994,d9ae0994,56db73de,96fb534a,96db721e,16fb539e,f,1,1,0,1,1,1,0,1,0,1,0,1,1,1,0582c160b,f,0,0,0,0,f,f,f,f,f,000,f,cccc,00000,00000,0000000000000000,0,f,f,0,0,f,f,0000000000,0000,0000,0000,0000
34,34,0,000000000000000000000000003fc03fc0000000000000000000000000033333c003ffffc0003c160b0582ea2bf758656737586567375865673758656730d944a5a0d944a5a0d944a5a0d944a5a,0d944a5a,0d944a5a,0d944a5a,0d944a5a,75865673,75865673,75865673,75865673,f,1,1,0,1,0,1,0,0,0,1,0,1,0,1,0582c160b,f,0,0,0,0,f,f,f,f,f,000,f,cccc,00000,00000,0000000000000000,0,f,f,0,0,f,f,0000000000,0000,0000,0000,0000
35,35,0,000000000000000000000000003fc03fc0000000000000000000000000033333c003ffffc0003c160b0580222af0ceec8080ceec8080ceec8080ceec808811ef5c2811ef5c2811ef5c2811ef5c2,811ef5c2,811ef5c2,811ef5c2,811ef5c2,0ceec808,0ceec808,0ceec808,0ceec808,f,0,1,0,1,0,1,0,0,0,1,0,0,0,1,0582c1600,f,0,0,0,0,f,f,f,f,f,000,f,cccc,00000,00000,0000000000000000,0,f,f,0,0,f,f,0000000000,0000,0000,0000,0000
36,36,0,000000000000000000000000003fc03fc0000000000000000000000000033333c003ffffc0003c160b0580232af4db5664c4db5664c4db5664c4db5664c2a1f8b482a1f8b482a1f8b482a1f8b48,2a1f8b48,2a1f8b48,2a1f8b48,2a1f8b48,4db5664c,4db5664c,4db5664c,4db5664c,f,0,1,0,1,0,1,0,0,1,1,0,0,0,1,0582c1600,f,0,0,0,0,f,f,f,f,f,000,f,cccc,00000,00000,0000000000000000,0,f,f,0,0,f,f,0000000000,0000,0000,0000,0000
37,37,0,000000000000000000000000003fc03fc0000000000000000000000000033333c003ffffc0003c160b05803bbbfcf4c5024cf4c5024cf4c5024cf4c50248884229b8884229b8884229b8884229b,8884229b,8884229b,8884229b,8884229b,cf4c5024,cf4c5024,cf4c5024,cf4c5024,f,1,1,0,1,1,1,0,1,1,1,0,1,1,1,0582c1600,f,0,0,0,0,f,f,f,f,f,000,f,cccc,00000,00000,0000000000000000,0,f,f,0,0,f,f,0000000000,0000,0000,0000,0000
38,38,0,000000000000000000000000003fc03fc0000000000000000000000000033333c003ffffc0003c160b05803abbfb40d9520944db6a0344d05c0d40db96aece68159ece68159ece68159ece68159,ece68159,ece68159,ece68159,ece68159,d40db96a,344d05c0,944db6a0,b40d9520,f,1,1,0,1,1,1,0,1,0,1,0,1,1,1,0582c1600,f,0,0,0,0,f,f,f,f,f,000,f,cccc,00000,00000,0000000000000000,0,f,f,0,0,f,f,0000000000,0000,0000,0000,0000
39,39,0,000000000000000000000000003fc03fc0000000000000000000000000033333c003ffffc0003c160b05802a2bf4b7613a14b7613a14b7613a14b7613a15e51ce385e51ce385e51ce385e51ce38,5e51ce38,5e51ce38,5e51ce38,5e51ce38,4b7613a1,4b7613a1,4b7613a1,4b7613a1,f,1,1,0,1,0,1,0,0,0,1,0,1,0,1,0582c1600,f,0,0,0,0,f,f,f,f,f,000,f,cccc,00000,00000,0000000000000000,0,f,f,0,0,f,f,0000000000,0000,0000,0000,0000
40,40,0,000000000000000000000000003fc03fc0000000000000000000000000033333c003ffffc0003c160b0580222afe4471ef9e4471ef9e4471ef9e4471ef92a93aa312a93aa312a93aa312a93aa31,2a93aa31,2a93aa31,2a93aa31,2a93aa31,e4471ef9,e4471ef9,e4471ef9,e4471ef9,f,0,1,0,1,0,1,0,0,0,1,0,0,0,1,0582c1600,f,0,0,0,0,f,f,f,f,f,000,f,cccc,00000,00000,0000000000000000,0,f,f,0,0,f,f,0000000000,0000,0000,0000,0000
41,41,0,000000000000000000000000003fc03fc0000000000000000000000000033333c003ffffc0003c160b0580232afd083b98dd083b98dd083b98dd083b98d13ca7c1113ca7c1113ca7c1113ca7c11,13ca7c11,13ca7c11,13ca7c11,13ca7c11,d083b98d,d083b98d,d083b98d,d083b98d,f,0,1,0,1,0,1,0,0,1,1,0,0,0,1,0582c1600,f,0,0,0,0,f,f,f,f,f,000,f,cccc,00000,00000,0000000000000000,0,f,f,0,0,f,f,0000000000,0000,0000,0000,0000
42,42,0,000000000000000000000000003fc03fc0000000000000000000000000033333c003ffffc0003c160b05803bbbf549964e7549964e7549964e7549964e75eca53b55eca53b55eca53b55eca53b5,5eca53b5,5eca53b5,5eca53b5,5eca53b5,549964e7,549964e7,549964e7,549964e7,f,1,1,0,1,1,1,0,1,1,1,0,1,1,1,0582c1600,f,0,0,0,0,f,f,f,f,f,000,f,cccc,00000,00000,0000000000000000,0,f,f,0,0,f,f,0000000000,0000,0000,0000,0000
43,43,0,000000000000000000000000003fc03fc0000000000000000000000000033333c003ffffc0003c160b05803abbfccc58d79ccc5adf9ccc51dd9ccc1bd7b14c87d3c14c87d3c14c87d3c14c87d3c,14c87d3c,14c87d3c,14c87d3c,14c87d3c,ccc1bd7b,ccc51dd9,ccc5adf9,ccc58d79,f,1,1,0,1,1,1,0,1,0,1,0,1,1,1,0582c1600,f,0,0,0,0,f,f,f,f,f,000,f,cccc,00000,00000,0000000000000000,0,f,f,0,0,f,f,0000000000,0000,0000,0000,0000
44,44,0,000000000000000000000000003fc03fc0000000000000000000000000033333c003ffffc0003c160b05802a2bf6be286a36be286a36be286a36be286a3993c7130993c7130993c7130993c7130,993c7130,993c7130,993c7130,993c7130,6be286a3,6be286a3,6be286a3,6be286a3,f,1,1,0,1,0,1,0,0,0,1,0,1,0,1,0582c1600,f,0,0,0,0,f,f,f,f,f,000,f,cccc,00000,00000,0000000000000000,0,f,f,0,0,f,f,0000000000,0000,0000,0000,0000
45,45,0,000000000000000000000000003fc03fc0000000000000000000000000033333c003ffffc0003c160b0580222afb72489bdb72489bdb72489bdb72489bd7194c3fa7194c3fa7194c3fa7194c3fa,7194c3fa,7194c3fa,7194c3fa,7194c3fa,b72489bd,b72489bd,b72489bd,b72489bd,f,0,1,0,1,0,1,0,0,0,1,0,0,0,1,0582c1600,f,0,0,0,0,f,f,f,f,f,000,f,cccc,00000,00000,0000000000000000,0,f,f,0,0,f,f,0000000000,0000,0000,0000,0000
46,46,0,000000000000000000000000003fc03fc0000000000000000000000000033333c003ffffc0003c160b0580232af4a5728cc4a5728cc4a5728cc4a5728cc52a2b90152a2b90152a2b90152a2b901,52a2b901,52a2b901,52a2b901,52a2b901,4a5728cc,4a5728cc,4a5728cc,4a5728cc,f,0,1,0,1,0,1,0,0,1,1,0,0,0,1,0582c1600,f,0,0,0,0,f,f,f,f,f,000,f,cccc,00000,00000,0000000000000000,0,f,f,0,0,f,f,0000000000,0000,0000,0000,0000
47,47,0,000000000000000000000000003fc03fc0000000000000000000000000033333c003ffffc0003c160b05803bbbfe4c4b1c2e4c4b1c2e4c4b1c2e4c4b1c2b329d5a9b329d5a9b329d5a9b329d5a9,b329d5a9,b329d5a9,b329d5a9,b329d5a9,e4c4b1c2,e4c4b1c2,e4c4b1c2,e4c4b1c2,f,1,1,0,1,1,1,0,1,1,1,0,1,1,1,0582c1600,f,0,0,0,0,f,f,f,f,f,000,f,cccc,00000,00000,0000000000000000,0,f,f,0,0,f,f,0000000000,0000,0000,0000,0000
