Sample in Buffer,Sample in Window,TRIGGER,ila_data[969:0],receiver_0[31:0],receiver_1[31:0],receiver_2[31:0],receiver_3[31:0],transmitter_0[31:0],transmitter_1[31:0],transmitter_2[31:0],transmitter_3[31:0],prbs_match_int[3:0],hb0_gtwiz_userclk_rx_usrclk2_int,hb0_gtwiz_userclk_rx_active_int,hb_gtwiz_reset_all_int,hb0_gtwiz_reset_rx_done_int,hb0_gtwiz_userclk_tx_usrclk2_int,hb0_gtwiz_userclk_tx_active_int,gtwiz_userclk_tx_reset_int,gtwiz_userclk_tx_usrclk_int,gtwiz_userclk_tx_usrclk2_int,gtwiz_userclk_tx_active_int,gtwiz_userclk_rx_reset_int,gtwiz_userclk_rx_usrclk_int,gtwiz_userclk_rx_usrclk2_int,gtwiz_userclk_rx_active_int,drpaddr_int[35:0],drpclk_int[3:0],drpdi_int[3:0],drpen_int[3:0],drpwe_int[3:0],eyescanreset_int[3:0],rx8b10ben_int[3:0],rxcommadeten_int[3:0],rxlpmen_int[3:0],rxmcommaalignen_int[3:0],rxpcommaalignen_int[3:0],rxrate_int[11:0],tx8b10ben_int[3:0],txdiffctrl_int[15:0],txpostcursor_int[19:0],txprecursor_int[19:0],drpdo_int[63:0],drprdy_int[3:0],gtpowergood_int[3:0],rxbyteisaligned_int[3:0],rxbyterealign_int[3:0],rxcommadet_int[3:0],rxpmaresetdone_int[3:0],txpmaresetdone_int[3:0],ch0_rxctrl0_int[15:0],ch1_rxctrl0_int[15:0],ch2_rxctrl0_int[15:0],ch3_rxctrl0_int[15:0],ch0_rxctrl1_int[15:0],ch1_rxctrl1_int[15:0],ch2_rxctrl1_int[15:0],ch3_rxctrl1_int[15:0],ch0_rxctrl2_int[7:0],ch1_rxctrl2_int[7:0],ch2_rxctrl2_int[7:0],ch3_rxctrl2_int[7:0],ch0_rxctrl3_int[7:0],ch1_rxctrl3_int[7:0],ch2_rxctrl3_int[7:0],ch3_rxctrl3_int[7:0],ch0_txctrl0_int[15:0],ch1_txctrl0_int[15:0],ch2_txctrl0_int[15:0],ch3_txctrl0_int[15:0],ch0_txctrl1_int[15:0],ch1_txctrl1_int[15:0],ch2_txctrl1_int[15:0],ch3_txctrl1_int[15:0],ch0_txctrl2_int[7:0],ch1_txctrl2_int[7:0],ch2_txctrl2_int[7:0],ch3_txctrl2_int[7:0],hb0_rxdata_nml_ctr[39:0],ch0_rxdata_err_ctr[15:0],ch1_rxdata_err_ctr[15:0],ch2_rxdata_err_ctr[15:0],ch3_rxdata_err_ctr[15:0]
Radix - UNSIGNED,UNSIGNED,UNSIGNED,HEX,HEX,HEX,HEX,HEX,HEX,HEX,HEX,HEX,HEX,HEX,HEX,HEX,HEX,HEX,HEX,HEX,HEX,HEX,HEX,HEX,HEX,HEX,HEX,HEX,HEX,HEX,HEX,HEX,HEX,HEX,HEX,HEX,HEX,HEX,HEX,HEX,HEX,HEX,HEX,HEX,HEX,HEX,HEX,HEX,HEX,HEX,HEX,HEX,HEX,HEX,HEX,HEX,HEX,HEX,HEX,HEX,HEX,HEX,HEX,HEX,HEX,HEX,HEX,HEX,HEX,HEX,HEX,HEX,HEX,HEX,HEX,HEX,HEX,HEX,HEX,HEX,HEX,HEX,HEX,HEX
0,0,0,08c16dcafed1889e0187e3f87e00000000000000000000000000000000000000003d3c3c3c80000000000300000002000280010000800000003fc013c0000000000000000000000000033333c003ffffc00038160b0582f32a0a99dd2c6a99dd2c6a99dd2c6a99dd2c690ca929655c69c25697f1914775bed5b,775bed5b,697f1914,55c69c25,90ca9296,a99dd2c6,a99dd2c6,a99dd2c6,a99dd2c6,0,0,1,0,1,0,1,0,0,1,1,0,0,1,1,0582c160b,e,0,0,0,0,f,f,f,f,f,000,f,cccc,00000,00000,0000000000000000,0,f,4,0,0,f,f,0000,0000,0002,0004,000a,0008,0000,000c,00,00,00,00,f2,f0,f0,f4,0000,0000,0000,0000,0000,0000,0000,0000,00,00,00,00,061f8fe1f8,2278,fb46,b72b,2305
1,1,0,08c36dccfed388a00187e3f88000000000000000000000000000000000000000003ebc3d3e00000000000000020000000200000000000000023fc013c0000000000000000000000000033333c003ffffc00038160b0582fbbb0aa6774b1aa6774b1aa6774b1aa6774b12f0a39de7653ccc554ed404889fa5dc1,89fa5dc1,54ed4048,7653ccc5,2f0a39de,aa6774b1,aa6774b1,aa6774b1,aa6774b1,0,1,1,0,1,1,1,0,1,1,1,0,1,1,1,0582c160b,e,0,0,0,0,f,f,f,f,f,000,f,cccc,00000,00000,0000000000000000,0,f,4,0,0,f,f,0008,0000,0000,0000,0008,0000,0008,0000,00,00,00,00,f8,f4,f0,fa,0000,0000,0000,0000,0000,0000,0000,0000,00,00,00,00,061f8fe200,2280,fb4e,b733,230d
2,2,0,08c56dcefed588a20187e3f88200000000000000000000000000000000000000003c3ebc3c80000000000000024000000000000002000000003fc013c0000000000000000000000000033333c003ffffc00038160b0582fbbb0ea99dd2cea99dd2cea99dd2cea99dd2c70a5d4710a16e70bd5936f9b18756d14,18756d14,d5936f9b,0a16e70b,70a5d471,ea99dd2c,ea99dd2c,ea99dd2c,ea99dd2c,0,1,1,0,1,1,1,0,1,1,1,0,1,1,1,0582c160b,e,0,0,0,0,f,f,f,f,f,000,f,cccc,00000,00000,0000000000000000,0,f,4,0,0,f,f,0000,0000,0008,0000,0000,0000,0009,0000,00,00,00,00,f2,f0,fa,f0,0000,0000,0000,0000,0000,0000,0000,0000,00,00,00,00,061f8fe208,2288,fb56,b73b,2315
3,3,0,08c72dd0bed748a3c187e3f883c0000000000000000000000000000000000000003f7c3c3d00000000000000000002000000010000000000003fc013c0000000000000000000000000033333c003ffffc00038160b0582e2ba01bdad9231bdad9231bdad9231bdad923713b1d7a91b062526c34e9d8e166f8c2,e166f8c2,6c34e9d8,91b06252,713b1d7a,1bdad923,1bdad923,1bdad923,1bdad923,0,0,1,0,1,1,1,0,1,0,1,0,0,0,1,0582c160b,e,0,0,0,0,f,f,f,f,f,000,f,cccc,00000,00000,0000000000000000,0,f,4,0,0,f,f,0000,0000,0000,0004,0000,0008,0000,0000,00,00,00,00,f4,f0,f0,fd,0000,0000,0000,0000,0000,0000,0000,0000,00,00,00,00,061f8fe20f,228f,fb5d,b742,231c
4,4,0,08c92dd2bed948a5c187e3f885c0000000000000000000000000000000000000003cbc3cbc00000000000000004000800000000000000080003fc013c0000000000000000000000000033333c003ffffc00038160b0582e22a0c6f6b648c6f6b648c6f6b648c6f6b64896826afd25ba677414c98b5d5be25468,5be25468,14c98b5d,25ba6774,96826afd,c6f6b648,c6f6b648,c6f6b648,c6f6b648,0,0,1,0,1,0,1,0,0,0,1,0,0,0,1,0582c160b,e,0,0,0,0,f,f,f,f,f,000,f,cccc,00000,00000,0000000000000000,0,f,4,0,0,f,f,0000,0002,0000,0000,0000,0002,0001,0000,00,00,00,00,f0,f2,f0,f2,0000,0000,0000,0000,0000,0000,0000,0000,00,00,00,00,061f8fe217,2297,fb65,b74a,2324
5,5,0,08cb2dd4bedb48a7c187e3f887c0000000000000000000000000000000000000003cbc3c3c00000000000080004000000000008000000000003fc013c0000000000000000000000000033333c003ffffc00038160b0582f32a0b1bdad92b1bdad92b1bdad92b1bdad92de499905c57f6942483b5784c13d02df,c13d02df,483b5784,c57f6942,de499905,b1bdad92,b1bdad92,b1bdad92,b1bdad92,0,0,1,0,1,0,1,0,0,1,1,0,0,1,1,0582c160b,e,0,0,0,0,f,f,f,f,f,000,f,cccc,00000,00000,0000000000000000,0,f,4,0,0,f,f,0000,0000,0000,0002,0000,0000,0001,0002,00,00,00,00,f0,f0,f0,f2,0000,0000,0000,0000,0000,0000,0000,0000,00,00,00,00,061f8fe21f,229f,fb6d,b752,232c
6,6,0,08cd2dd6bedd48a9c187e3f889c0000000000000000000000000000000000000003e3d7c3c40000000000200010000000000020001000000003fc013c0000000000000000000000000033333c003ffffc00038160b0582fbbb02c6f6b642c6f6b642c6f6b642c6f6b649670a5d4c30a16e765d5936f3518756d,3518756d,65d5936f,c30a16e7,9670a5d4,2c6f6b64,2c6f6b64,2c6f6b64,2c6f6b64,0,1,1,0,1,1,1,0,1,1,1,0,1,1,1,0582c160b,e,0,0,0,0,f,f,f,f,f,000,f,cccc,00000,00000,0000000000000000,0,f,4,0,0,f,f,0000,0000,0004,0008,0000,0000,0004,0008,00,00,00,00,f1,f0,f5,f8,0000,0000,0000,0000,0000,0000,0000,0000,00,00,00,00,061f8fe227,22a7,fb75,b75a,2334
7,7,0,08cf2dd8bedf48abc187e3f88bc0000000000000000000000000000000000000003e3c3d3c000000000000000080010000c0000000000100013fc013c0000000000000000000000000033333c003ffffc00038160b0582fbbb04b1bdad94b1bdad94b1bdad94b1bdad97aa3650f52408630d89497fac2fe0965,c2fe0965,d89497fa,52408630,7aa3650f,4b1bdad9,4b1bdad9,4b1bdad9,4b1bdad9,0,1,1,0,1,1,1,0,1,1,1,0,1,1,1,0582c160b,e,0,0,0,0,f,f,f,f,f,000,f,cccc,00000,00000,0000000000000000,0,f,4,0,0,f,f,0004,0004,0000,0000,0003,0004,0002,0000,00,00,00,00,f0,f4,f0,f8,0000,0000,0000,0000,0000,0000,0000,0000,00,00,00,00,061f8fe22f,22af,fb7d,b762,233c
8,8,0,08d0edda7ee108ad8187e3f88d80000000000000000000000000000000000000003c3c3cbc40000000000000020000400000010000000000007fc013c0000000000000000000000000033333c003ffffc00038160b0582e2ba048e17cae48e17cae48e17cae48e17caefdf78e9b743132ad5d606c1a68384418,68384418,5d606c1a,743132ad,fdf78e9b,48e17cae,48e17cae,48e17cae,48e17cae,0,0,1,0,1,1,1,0,1,0,1,0,0,0,1,0582c160b,e,0,0,0,0,f,f,f,f,f,000,f,cccc,00000,00000,0000000000000000,0,f,4,0,0,f,f,0001,0000,0000,0004,0000,0001,0008,0000,00,00,00,00,f1,f2,f0,f0,0000,0000,0000,0000,0000,0000,0000,0000,00,00,00,00,061f8fe236,22b6,fb84,b769,2343
9,9,0,08d2eddc7ee308af8187e3f88f80000000000000000000000000000000000000003cbcbc3c00000000000080028000000100008000000000003fc013c0000000000000000000000000033333c003ffffc00038160b0582e22a092385f2b92385f2b92385f2b92385f2b051f985c42b9d08b843d3216dff459a5,dff459a5,843d3216,42b9d08b,051f985c,92385f2b,92385f2b,92385f2b,92385f2b,0,0,1,0,1,0,1,0,0,0,1,0,0,0,1,0582c160b,e,0,0,0,0,f,f,f,f,f,000,f,cccc,00000,00000,0000000000000000,0,f,4,0,0,f,f,0000,0000,0000,0002,0004,0000,000a,0002,00,00,00,00,f0,f0,f2,f2,0000,0000,0000,0000,0000,0000,0000,0000,00,00,00,00,061f8fe23e,22be,fb8c,b771,234b
10,10,0,08d4edde7ee508b18187e3f89180000000000000000000000000000000000000003c3e3c7e00000000000000018000400000000000000040003fc013c0000000000000000000000000033333c003ffffc00038160b0582f32a0648e17ca648e17ca648e17ca648e17cad471c014e70b844a6f9b82876d14feaa,6d14feaa,6f9b8287,e70b844a,d471c014,648e17ca,648e17ca,648e17ca,648e17ca,0,0,1,0,1,0,1,0,0,1,1,0,0,1,1,0582c160b,e,0,0,0,0,f,f,f,f,f,000,f,cccc,00000,00000,0000000000000000,0,f,4,0,0,f,f,0000,0001,0000,0000,0000,0001,0006,0000,00,00,00,00,f8,f1,f8,f0,0000,0000,0000,0000,0000,0000,0000,0000,00,00,00,00,061f8fe246,22c6,fb94,b779,2353
11,11,0,08d6ede07ee708b38187e3f89380000000000000000000000000000000000000003d3c3cbc0000000000000000400080004000000000008000bfc013c0000000000000000000000000033333c003ffffc00038160b0582fbbb0d92385f2d92385f2d92385f2d92385f21d72a36562524486e9d09697f8c2fe09,f8c2fe09,e9d09697,62524486,1d72a365,d92385f2,d92385f2,d92385f2,d92385f2,0,1,1,0,1,1,1,0,1,1,1,0,1,1,1,0582c160b,e,0,0,0,0,f,f,f,f,f,000,f,cccc,00000,00000,0000000000000000,0,f,4,0,0,f,f,0002,0002,0000,0000,0001,0002,0001,0000,00,00,00,00,f0,f2,f0,f4,0000,0000,0000,0000,0000,0000,0000,0000,00,00,00,00,061f8fe24e,22ce,fb9c,b781,235b
12,12,0,08d8ede27ee908b58187e3f89580000000000000000000000000000000000000003c3c7c3f00000000000180000003800100000000000000033fc013c0000000000000000000000000033333c003ffffc00038160b0582fbbb0b648e17cb648e17cb648e17cb648e17c9b7681efad6adbb01a00775c189e2e6e,189e2e6e,1a00775c,ad6adbb0,9b7681ef,b648e17c,b648e17c,b648e17c,b648e17c,0,1,1,0,1,1,1,0,1,1,1,0,1,1,1,0582c160b,e,0,0,0,0,f,f,f,f,f,000,f,cccc,00000,00000,0000000000000000,0,f,4,0,0,f,f,000c,0000,0000,0000,0004,000e,0000,0006,00,00,00,00,fc,f0,f1,f0,0000,0000,0000,0000,0000,0000,0000,0000,00,00,00,00,061f8fe256,22d6,fba4,b789,2363
13,13,0,08daade43eeac8b74187e3f89740000000000000000000000000000000000000003c3cfc3c00000000000000008000000100000000c00000003fc013c0000000000000000000000000033333c003ffffc00038160b0582e2ba02b9a278a2b9a278a2b9a278a2b9a278a5c9536ad8b64ae2216b99fcaa575447a,a575447a,16b99fca,8b64ae22,5c9536ad,2b9a278a,2b9a278a,2b9a278a,2b9a278a,0,0,1,0,1,1,1,0,1,0,1,0,0,0,1,0582c160b,e,0,0,0,0,f,f,f,f,f,000,f,cccc,00000,00000,0000000000000000,0,f,4,0,0,f,f,0000,0000,0003,0000,0004,0000,0002,0000,00,00,00,00,f0,f0,f3,f0,0000,0000,0000,0000,0000,0000,0000,0000,00,00,00,00,061f8fe25d,22dd,fbab,b790,236a
14,14,0,08dcade63eecc8b94187e3f89940000000000000000000000000000000000000003c7c3efc8000000000004000800280008000000080020000bfc013c0000000000000000000000000033333c003ffffc00038160b0582e22a0cae689e2cae689e2cae689e2cae689e2149e16b04a405c2f87bac1ebaa7c91c5,aa7c91c5,87bac1eb,4a405c2f,149e16b0,cae689e2,cae689e2,cae689e2,cae689e2,0,0,1,0,1,0,1,0,0,0,1,0,0,0,1,0582c160b,e,0,0,0,0,f,f,f,f,f,000,f,cccc,00000,00000,0000000000000000,0,f,4,0,0,f,f,0002,0008,0002,0000,0002,000a,0002,0001,00,00,00,00,f2,fb,f0,f1,0000,0000,0000,0000,0000,0000,0000,0000,00,00,00,00,061f8fe265,22e5,fbb3,b798,2372
15,15,0,08deade83eeec8bb4187e3f89b40000000000000000000000000000000000000003cbcbc3c40000000000000024000000300000000000000007fc013c0000000000000000000000000033333c003ffffc00038160b0582f32a0f2b9a278f2b9a278f2b9a278f2b9a278650f762e8630989697fa802f09659650,09659650,97fa802f,86309896,650f762e,f2b9a278,f2b9a278,f2b9a278,f2b9a278,0,0,1,0,1,0,1,0,0,1,1,0,0,1,1,0582c160b,e,0,0,0,0,f,f,f,f,f,000,f,cccc,00000,00000,0000000000000000,0,f,4,0,0,f,f,0001,0000,0000,0000,000c,0000,0009,0000,00,00,00,00,f1,f0,f2,f2,0000,0000,0000,0000,0000,0000,0000,0000,00,00,00,00,061f8fe26d,22ed,fbbb,b7a0,237a
16,16,0,08e0adea3ef0c8bd4187e3f89d40000000000000000000000000000000000000003c3c3e3d800000000000c0000001c0008000000000000001bfc013c0000000000000000000000000033333c003ffffc00038160b0582fbbb07cae689e7cae689e7cae689e7cae689e8e9b768132ad6adb6c1a027746189e2e,46189e2e,6c1a0277,32ad6adb,8e9b7681,7cae689e,7cae689e,7cae689e,7cae689e,0,1,1,0,1,1,1,0,1,1,1,0,1,1,1,0582c160b,e,0,0,0,0,f,f,f,f,f,000,f,cccc,00000,00000,0000000000000000,0,f,4,0,0,f,f,0006,0000,0000,0000,0002,0007,0000,0003,00,00,00,00,f6,f8,f0,f0,0000,0000,0000,0000,0000,0000,0000,0000,00,00,00,00,061f8fe275,22f5,fbc3,b7a8,2382
17,17,0,08e2adec3ef2c8bf4187e3f89f40000000000000000000000000000000000000003c3e3c3d00000000000000018000000040000002000000003fc013c0000000000000000000000000033333c003ffffc00038160b0582fbbb05f2b9a275f2b9a275f2b9a275f2b9a27adaaf120220a8030ca60e6a67a59da3f,7a59da3f,ca60e6a6,220a8030,adaaf120,5f2b9a27,5f2b9a27,5f2b9a27,5f2b9a27,0,1,1,0,1,1,1,0,1,1,1,0,1,1,1,0582c160b,e,0,0,0,0,f,f,f,f,f,000,f,cccc,00000,00000,0000000000000000,0,f,4,0,0,f,f,0000,0000,0008,0000,0001,0000,0006,0000,00,00,00,00,f4,f0,f8,f0,0000,0000,0000,0000,0000,0000,0000,0000,00,00,00,00,061f8fe27d,22fd,fbcb,b7b0,238a
18,18,0,08e46dedfef488c10187e3f8a100000000000000000000000000000000000000003e3c3e3c40000000000300010000000100000000000000003fc013c0000000000000000000000000033333c003ffffc00038160b0582e2ba0e286081fe286081fe286081fe286081fb08f1ade2f92291feba94fb5c5f5b7a8,c5f5b7a8,eba94fb5,2f92291f,b08f1ade,e286081f,e286081f,e286081f,e286081f,0,0,1,0,1,1,1,0,1,0,1,0,0,0,1,0582c160b,e,0,0,0,0,f,f,f,f,f,000,f,cccc,00000,00000,0000000000000000,0,f,4,0,0,f,f,0000,0000,0000,0000,0004,0000,0004,000c,00,00,00,00,f1,f8,f0,f8,0000,0000,0000,0000,0000,0000,0000,0000,00,00,00,00,061f8fe284,2304,fbd2,b7b7,2391
19,19,0,08e66deffef688c30187e3f8a300000000000000000000000000000000000000003c3d3c3e00000000000040030000c001c0000001000000023fc013c0000000000000000000000000033333c003ffffc00038160b0582e22a078a1820778a1820778a1820778a182072ec1d674960c0e682f3b617c501c0e73,501c0e73,2f3b617c,960c0e68,2ec1d674,78a18207,78a18207,78a18207,78a18207,0,0,1,0,1,0,1,0,0,0,1,0,0,0,1,0582c160b,e,0,0,0,0,f,f,f,f,f,000,f,cccc,00000,00000,0000000000000000,0,f,4,0,0,f,f,0008,0000,0004,0000,0007,0003,000c,0001,00,00,00,00,f8,f0,f4,f0,0000,0000,0000,0000,0000,0000,0000,0000,00,00,00,00,061f8fe28c,230c,fbda,b7bf,2399
20,20,0,08e86df1fef888c50187e3f8a500000000000000000000000000000000000000003c7d3cbc00000000000200008002800000000000000000003fc013c0000000000000000000000000033333c003ffffc00038160b0582f32a09e2860819e2860819e2860819e28608181ef088fdbb00b6f775c3ccf2e6e8985,2e6e8985,775c3ccf,dbb00b6f,81ef088f,9e286081,9e286081,9e286081,9e286081,0,0,1,0,1,0,1,0,0,1,1,0,0,1,1,0582c160b,e,0,0,0,0,f,f,f,f,f,000,f,cccc,00000,00000,0000000000000000,0,f,4,0,0,f,f,0000,0000,0000,0000,0000,000a,0002,0008,00,00,00,00,f0,f2,f4,f1,0000,0000,0000,0000,0000,0000,0000,0000,00,00,00,00,061f8fe294,2314,fbe2,b7c7,23a1
21,21,0,08ea6df3fefa88c70187e3f8a700000000000000000000000000000000000000003c3f3c3c8000000000000002c000000000000003000000003fc013c0000000000000000000000000033333c003ffffc00038160b0582fbbb0278a1820278a1820278a1820278a182036adaaf1ae220e809fc260e6467259da,467259da,9fc260e6,ae220e80,36adaaf1,278a1820,278a1820,278a1820,278a1820,0,1,1,0,1,1,1,0,1,1,1,0,1,1,1,0582c160b,e,0,0,0,0,f,f,f,f,f,000,f,cccc,00000,00000,0000000000000000,0,f,4,0,0,f,f,0000,0000,000c,0000,0000,0000,000b,0000,00,00,00,00,f2,f0,fc,f0,0000,0000,0000,0000,0000,0000,0000,0000,00,00,00,00,061f8fe29c,231c,fbea,b7cf,23a9
22,22,0,08ec6df5fefc88c90187e3f8a900000000000000000000000000000000000000003c3c3cbf80000000000000000000c00080000000000080013fc013c0000000000000000000000000033333c003ffffc00038160b0582fbbb089e2860889e2860889e2860889e28608deb5ff831fe80135b56a8d07a8c8dead,a8c8dead,b56a8d07,1fe80135,deb5ff83,89e28608,89e28608,89e28608,89e28608,0,1,1,0,1,1,1,0,1,1,1,0,1,1,1,0582c160b,e,0,0,0,0,f,f,f,f,f,000,f,cccc,00000,00000,0000000000000000,0,f,4,0,0,f,f,0004,0002,0000,0000,0002,0003,0000,0000,00,00,00,00,fe,f2,f0,f0,0000,0000,0000,0000,0000,0000,0000,0000,00,00,00,00,061f8fe2a4,2324,fbf2,b7d7,23b1
23,23,0,08ee2df7befe48cac187e3f8aac0000000000000000000000000000000000000003d7c7c3d00000000000240010003c00200014000000000003fc013c0000000000000000000000000033333c003ffffc00038160b0582e2ba007f54cee07f54cee07f54cee07f54cee743712c56861bbc87c8b7688735a1e29,735a1e29,7c8b7688,6861bbc8,743712c5,07f54cee,07f54cee,07f54cee,07f54cee,0,0,1,0,1,1,1,0,1,0,1,0,0,0,1,0582c160b,e,0,0,0,0,f,f,f,f,f,000,f,cccc,00000,00000,0000000000000000,0,f,4,0,0,f,f,0000,0000,0000,0005,0008,000f,0004,0009,00,00,00,00,f4,f0,f1,f5,0000,0000,0000,0000,0000,0000,0000,0000,00,00,00,00,061f8fe2ab,232b,fbf9,b7de,23b8
24,24,0,08f02df9bf0048ccc187e3f8acc0000000000000000000000000000000000000003f3dfc3c40000000000000008000000000000001c00000003fc013c0000000000000000000000000033333c003ffffc00038160b0582e22a081fd533b81fd533b81fd533b81fd533b8f6e42cc6f42ba24cf3058158598d669,8598d669,cf305815,6f42ba24,8f6e42cc,81fd533b,81fd533b,81fd533b,81fd533b,0,0,1,0,1,0,1,0,0,0,1,0,0,0,1,0582c160b,e,0,0,0,0,f,f,f,f,f,000,f,cccc,00000,00000,0000000000000000,0,f,4,0,0,f,f,0000,0000,0007,0000,0000,0000,0002,0000,00,00,00,00,f1,f0,f7,fc,0000,0000,0000,0000,0000,0000,0000,0000,00,00,00,00,061f8fe2b3,2333,fc01,b7e6,23c0
25,25,0,08f22dfbbf0248cec187e3f8aec0000000000000000000000000000000000000003c3c7c3c8000000000000002400000018000000040000000bfc013c0000000000000000000000000033333c003ffffc00038160b0582f32a0207f54ce207f54ce207f54ce207f54cef120395b803082b6e6a642f0da3f24a2,da3f24a2,e6a642f0,803082b6,f120395b,207f54ce,207f54ce,207f54ce,207f54ce,0,0,1,0,1,0,1,0,0,1,1,0,0,1,1,0582c160b,e,0,0,0,0,f,f,f,f,f,000,f,cccc,00000,00000,0000000000000000,0,f,4,0,0,f,f,0002,0000,0001,0000,0006,0000,0009,0000,00,00,00,00,f2,f0,f1,f0,0000,0000,0000,0000,0000,0000,0000,0000,00,00,00,00,061f8fe2bb,233b,fc09,b7ee,23c8
26,26,0,08f42dfdbf0448d0c187e3f8b0c0000000000000000000000000000000000000003c3c3c7dc000000000000000000040004000000000004000bfc013c0000000000000000000000000033333c003ffffc00038160b0582fbbb0081fd533081fd533081fd533081fd5331ad6b7ff2d1fec814fbd6a8db5a8c85e,b5a8c85e,4fbd6a8d,2d1fec81,1ad6b7ff,081fd533,081fd533,081fd533,081fd533,0,1,1,0,1,1,1,0,1,1,1,0,1,1,1,0582c160b,e,0,0,0,0,f,f,f,f,f,000,f,cccc,00000,00000,0000000000000000,0,f,4,0,0,f,f,0002,0001,0000,0000,0001,0001,0000,0000,00,00,00,00,f7,f1,f0,f0,0000,0000,0000,0000,0000,0000,0000,0000,00,00,00,00,061f8fe2c3,2343,fc11,b7f6,23d0
27,27,0,08f62dffbf0648d2c187e3f8b2c0000000000000000000000000000000000000003e3e3c3c8000000000028001c002000000020000000000003fc013c0000000000000000000000000033333c003ffffc00038160b0582fbbb08207f54c8207f54c8207f54c8207f54cc5300631c8f16d1888dae079297b6564,297b6564,88dae079,c8f16d18,c5300631,8207f54c,8207f54c,8207f54c,8207f54c,0,1,1,0,1,1,1,0,1,1,1,0,1,1,1,0582c160b,e,0,0,0,0,f,f,f,f,f,000,f,cccc,00000,00000,0000000000000000,0,f,4,0,0,f,f,0000,0000,0000,0008,0000,0008,0007,000a,00,00,00,00,f2,f0,f8,f8,0000,0000,0000,0000,0000,0000,0000,0000,00,00,00,00,061f8fe2cb,234b,fc19,b7fe,23d8
28,28,0,08f7ee017f0808d48187e3f8b480000000000000000000000000000000000000003c3ebc3fc000000000000001800000000000000280000001ffc013c0000000000000000000000000033333c003ffffc00038160b0582e2ba03ba58ded3ba58ded3ba58ded3ba58dedcc65af5d241c0f1415ea501f69e72877,69e72877,15ea501f,241c0f14,cc65af5d,3ba58ded,3ba58ded,3ba58ded,3ba58ded,0,0,1,0,1,1,1,0,1,0,1,0,0,0,1,0582c160b,e,0,0,0,0,f,f,f,f,f,000,f,cccc,00000,00000,0000000000000000,0,f,4,0,0,f,f,0007,0000,000a,0000,0000,0000,0006,0000,00,00,00,00,ff,f0,fa,f0,0000,0000,0000,0000,0000,0000,0000,0000,00,00,00,00,061f8fe2d2,2352,fc20,b805,23df
29,29,0,08f9ee037f0a08d68187e3f8b680000000000000000000000000000000000000003c7e3c7c000000000000000280010000c0000003000100003fc013c0000000000000000000000000033333c003ffffc00038160b0582e22a0cee9637bcee9637bcee9637bcee9637b5b32e955b6fb851ff0fbb6dda2a8107a,a2a8107a,f0fbb6dd,b6fb851f,5b32e955,cee9637b,cee9637b,cee9637b,cee9637b,0,0,1,0,1,0,1,0,0,0,1,0,0,0,1,0582c160b,e,0,0,0,0,f,f,f,f,f,000,f,cccc,00000,00000,0000000000000000,0,f,4,0,0,f,f,0000,0004,000c,0000,0003,0004,000a,0000,00,00,00,00,f0,f1,f8,f1,0000,0000,0000,0000,0000,0000,0000,0000,00,00,00,00,061f8fe2da,235a,fc28,b80d,23e7
