Sample in Buffer,Sample in Window,TRIGGER,ila_data[831:0],receiver_0[31:0],receiver_1[31:0],receiver_2[31:0],receiver_3[31:0],transmitter_0[31:0],transmitter_1[31:0],transmitter_2[31:0],transmitter_3[31:0],prbs_match_int[3:0],hb0_gtwiz_userclk_rx_usrclk2_int,hb0_gtwiz_userclk_rx_active_int,hb_gtwiz_reset_all_int,hb0_gtwiz_reset_rx_done_int,hb0_gtwiz_userclk_tx_usrclk2_int,hb0_gtwiz_userclk_tx_active_int,rx8b10ben_int[3:0],rxcommadeten_int[3:0],rxlpmen_int[3:0],rxmcommaalignen_int[3:0],rxpcommaalignen_int[3:0],tx8b10ben_int[3:0],gtpowergood_int[3:0],rxbyteisaligned_int[3:0],rxbyterealign_int[3:0],rxcommadet_int[3:0],rxpmaresetdone_int[3:0],txpmaresetdone_int[3:0],ch0_rxctrl0_int[15:0],ch1_rxctrl0_int[15:0],ch2_rxctrl0_int[15:0],ch3_rxctrl0_int[15:0],ch0_rxctrl1_int[15:0],ch1_rxctrl1_int[15:0],ch2_rxctrl1_int[15:0],ch3_rxctrl1_int[15:0],ch0_rxctrl2_int[7:0],ch1_rxctrl2_int[7:0],ch2_rxctrl2_int[7:0],ch3_rxctrl2_int[7:0],ch0_rxctrl3_int[7:0],ch1_rxctrl3_int[7:0],ch2_rxctrl3_int[7:0],ch3_rxctrl3_int[7:0],ch0_txctrl0_int[15:0],ch1_txctrl0_int[15:0],ch2_txctrl0_int[15:0],ch3_txctrl0_int[15:0],ch0_txctrl1_int[15:0],ch1_txctrl1_int[15:0],ch2_txctrl1_int[15:0],ch3_txctrl1_int[15:0],ch0_txctrl2_int[7:0],ch1_txctrl2_int[7:0],ch2_txctrl2_int[7:0],ch3_txctrl2_int[7:0],hb0_rxdata_nml_ctr[39:0],ch0_rxdata_err_ctr[15:0],ch1_rxdata_err_ctr[15:0],ch2_rxdata_err_ctr[15:0],ch3_rxdata_err_ctr[15:0],rxchanisaligned_int[3:0],rxchanrealign_int[3:0],rxchanbondseq_int[3:0],rxchbondi_int[19:0],rxchbondo_int[19:0]
Radix - UNSIGNED,UNSIGNED,UNSIGNED,HEX,HEX,HEX,HEX,HEX,HEX,HEX,HEX,HEX,HEX,HEX,HEX,HEX,HEX,HEX,HEX,HEX,HEX,HEX,HEX,HEX,HEX,HEX,HEX,HEX,HEX,HEX,HEX,HEX,HEX,HEX,HEX,HEX,HEX,HEX,HEX,HEX,HEX,HEX,HEX,HEX,HEX,HEX,HEX,HEX,HEX,HEX,HEX,HEX,HEX,HEX,HEX,HEX,HEX,HEX,HEX,HEX,HEX,HEX,HEX,HEX,HEX,HEX,HEX,HEX,HEX
0,0,0,000000000000000b9def9e579e4f9e4cbde0ab29b80000000000000000000000000000000000000003c3c3c3c00000000000000000000000000000000000000003fc03fffffffebfa843a93fa843a93fa843a93fa843a93f17d2a5f3e56b8759e56b875917d2a5f3,17d2a5f3,e56b8759,e56b8759,17d2a5f3,a843a93f,a843a93f,a843a93f,a843a93f,f,1,1,0,1,0,1,f,f,f,f,f,f,f,f,0,0,f,f,0000,0000,0000,0000,0000,0000,0000,0000,00,00,00,00,f0,f0,f0,f0,0000,0000,0000,0000,0000,0000,0000,0000,00,00,00,00,2f782aca6e,e793,e793,e795,e77b,2,0,0,00000,00000
1,1,0,000000000000000b9def9e579e4f9e4cbde0ab29d40000000000000000000000000000000000000003c3c3c3c00000000000000000000000000000000000000003fc03ffffffffaf1d0dada51d0dada51d0dada51d0dada54383aa033a06105e3a06105e4383aa03,4383aa03,3a06105e,3a06105e,4383aa03,1d0dada5,1d0dada5,1d0dada5,1d0dada5,f,0,1,0,1,1,1,f,f,f,f,f,f,f,f,0,0,f,f,0000,0000,0000,0000,0000,0000,0000,0000,00,00,00,00,f0,f0,f0,f0,0000,0000,0000,0000,0000,0000,0000,0000,00,00,00,00,2f782aca75,e793,e793,e795,e77b,2,0,0,00000,00000
2,2,0,000000000000000b9def9e579e4f9e4cbde0ab29f40000000000000000000000000000000000000003c3c3c3c00000000000000000000000000000000000000003fc03ffffffffaf084b01a5084b01a5084b01a5084b01a59bba6c0b1b996f3a1b996f3a9bba6c0b,9bba6c0b,1b996f3a,1b996f3a,9bba6c0b,084b01a5,084b01a5,084b01a5,084b01a5,f,0,1,0,1,1,1,f,f,f,f,f,f,f,f,0,0,f,f,0000,0000,0000,0000,0000,0000,0000,0000,00,00,00,00,f0,f0,f0,f0,0000,0000,0000,0000,0000,0000,0000,0000,00,00,00,00,2f782aca7d,e793,e793,e795,e77b,2,0,0,00000,00000
3,3,0,000000000000000b9def9e579e4f9e4cbde0ab2a140000000000000000000000000000000000000003c3c3c3c00000000000000000000000000000000000000003fc03ffffffffaf52f364f352f364f352f364f352f364f3defd2aa90d6eb8010d6eb801defd2aa9,defd2aa9,0d6eb801,0d6eb801,defd2aa9,52f364f3,52f364f3,52f364f3,52f364f3,f,0,1,0,1,1,1,f,f,f,f,f,f,f,f,0,0,f,f,0000,0000,0000,0000,0000,0000,0000,0000,00,00,00,00,f0,f0,f0,f0,0000,0000,0000,0000,0000,0000,0000,0000,00,00,00,00,2f782aca85,e793,e793,e795,e77b,2,0,0,00000,00000
4,4,0,000000000000000b9def9e579e4f9e4cbde0ab2a340000000000000000000000000000000000000003c3c3c3c00000000000000000000000000000000000000003fc03fffffffebff5047752f5047752f5047752f5047752b26fbaf4296cd910094cd930f14dbed4,f14dbed4,094cd930,296cd910,b26fbaf4,f5047752,f5047752,f5047752,f5047752,f,1,1,0,1,0,1,f,f,f,f,f,f,f,f,0,0,f,f,0000,0000,0000,0000,0000,0000,0000,0000,00,00,00,00,f0,f0,f0,f0,0000,0000,0000,0000,0000,0000,0000,0000,00,00,00,00,2f782aca8d,e793,e793,e795,e77b,2,0,0,00000,00000
5,5,0,000000000000000b9def9e579e4f9e4cbde0ab2a540000000000000000000000000000000000000003c3c3c3c00000000000000000000000000000000000000003fc03fffffffebfe62778abe62778abe62778abe62778abd8382804ce60697dce60697dd8382804,d8382804,ce60697d,ce60697d,d8382804,e62778ab,e62778ab,e62778ab,e62778ab,f,1,1,0,1,0,1,f,f,f,f,f,f,f,f,0,0,f,f,0000,0000,0000,0000,0000,0000,0000,0000,00,00,00,00,f0,f0,f0,f0,0000,0000,0000,0000,0000,0000,0000,0000,00,00,00,00,2f782aca95,e793,e793,e795,e77b,2,0,0,00000,00000
6,6,0,000000000000000b9def9e579e4f9e4cbde0ab2a700000000000000000000000000000000000000003c3c3c3c00000000000000000000000000000000000000003fc03ffffffffaf5d97eca75d97eca75d97eca75d97eca74c47aeaadd185240dd1852404c47aeaa,4c47aeaa,dd185240,dd185240,4c47aeaa,5d97eca7,5d97eca7,5d97eca7,5d97eca7,f,0,1,0,1,1,1,f,f,f,f,f,f,f,f,0,0,f,f,0000,0000,0000,0000,0000,0000,0000,0000,00,00,00,00,f0,f0,f0,f0,0000,0000,0000,0000,0000,0000,0000,0000,00,00,00,00,2f782aca9c,e793,e793,e795,e77b,2,0,0,00000,00000
7,7,0,000000000000000b9def9e579e4f9e4cbde0ab2a900000000000000000000000000000000000000003c3c3c3c00000000000000000000000000000000000000003fc03ffffffffaf2d4f1f752d4f1f752d4f1f752d4f1f7562abea11a880b456a880b45662abea11,62abea11,a880b456,a880b456,62abea11,2d4f1f75,2d4f1f75,2d4f1f75,2d4f1f75,f,0,1,0,1,1,1,f,f,f,f,f,f,f,f,0,0,f,f,0000,0000,0000,0000,0000,0000,0000,0000,00,00,00,00,f0,f0,f0,f0,0000,0000,0000,0000,0000,0000,0000,0000,00,00,00,00,2f782acaa4,e793,e793,e795,e77b,2,0,0,00000,00000
8,8,0,000000000000000b9def9e579e4f9e4cbde0ab2ab00000000000000000000000000000000000000003c3c3c3c00000000000000000000000000000000000000003fc03ffffffffafa7b53a19a7b53a19a7b53a19a7b53a19011de0435f60d1da5f60d1da011de043,011de043,5f60d1da,5f60d1da,011de043,a7b53a19,a7b53a19,a7b53a19,a7b53a19,f,0,1,0,1,1,1,f,f,f,f,f,f,f,f,0,0,f,f,0000,0000,0000,0000,0000,0000,0000,0000,00,00,00,00,f0,f0,f0,f0,0000,0000,0000,0000,0000,0000,0000,0000,00,00,00,00,2f782acaac,e793,e793,e795,e77b,2,0,0,00000,00000
9,9,0,000000000000000b9def9e579e4f9e4cbde0ab2ad00000000000000000000000000000000000000003c3c3c3c00000000000000000000000000000000000000003fc03fffffffebf2b067b972b067b972b067b972b067b973bae73e5541d010155190521780e33c5,780e33c5,55190521,541d0101,3bae73e5,2b067b97,2b067b97,2b067b97,2b067b97,f,1,1,0,1,0,1,f,f,f,f,f,f,f,f,0,0,f,f,0000,0000,0000,0000,0000,0000,0000,0000,00,00,00,00,f0,f0,f0,f0,0000,0000,0000,0000,0000,0000,0000,0000,00,00,00,00,2f782acab4,e793,e793,e795,e77b,2,0,0,00000,00000
10,10,0,000000000000000b9def9e579e4f9e4cbde0ab2af00000000000000000000000000000000000000003c3c3c3c00000000000000000000000000000000000000003fc03fffffffebfca185c09ca185c09ca185c09ca185c0940dca2688b9c64ed8b9c64ed40dca268,40dca268,8b9c64ed,8b9c64ed,40dca268,ca185c09,ca185c09,ca185c09,ca185c09,f,1,1,0,1,0,1,f,f,f,f,f,f,f,f,0,0,f,f,0000,0000,0000,0000,0000,0000,0000,0000,00,00,00,00,f0,f0,f0,f0,0000,0000,0000,0000,0000,0000,0000,0000,00,00,00,00,2f782acabc,e793,e793,e795,e77b,2,0,0,00000,00000
11,11,0,000000000000000b9def9e579e4f9e4cbde0ab2b0c0000000000000000000000000000000000000003c3c3c3c00000000000000000000000000000000000000003fc03ffffffffaf6267b3986267b3986267b3986267b398992347b07afc685c7afc685c992347b0,992347b0,7afc685c,7afc685c,992347b0,6267b398,6267b398,6267b398,6267b398,f,0,1,0,1,1,1,f,f,f,f,f,f,f,f,0,0,f,f,0000,0000,0000,0000,0000,0000,0000,0000,00,00,00,00,f0,f0,f0,f0,0000,0000,0000,0000,0000,0000,0000,0000,00,00,00,00,2f782acac3,e793,e793,e795,e77b,2,0,0,00000,00000
12,12,0,000000000000000b9def9e579e4f9e4cbde0ab2b2c0000000000000000000000000000000000000003c3c3c3c00000000000000000000000000000000000000003fc03ffffffffaf9d77c5469d77c5469d77c5469d77c546d99ab4e42eab0ec32eab0ec3d99ab4e4,d99ab4e4,2eab0ec3,2eab0ec3,d99ab4e4,9d77c546,9d77c546,9d77c546,9d77c546,f,0,1,0,1,1,1,f,f,f,f,f,f,f,f,0,0,f,f,0000,0000,0000,0000,0000,0000,0000,0000,00,00,00,00,f0,f0,f0,f0,0000,0000,0000,0000,0000,0000,0000,0000,00,00,00,00,2f782acacb,e793,e793,e795,e77b,2,0,0,00000,00000
13,13,0,000000000000000b9def9e579e4f9e4cbde0ab2b4c0000000000000000000000000000000000000003c3c3c3c00000000000000000000000000000000000000003fc03ffffffffaf248d9e51248d9e51248d9e51248d9e51128d6b8847919c8347919c83128d6b88,128d6b88,47919c83,47919c83,128d6b88,248d9e51,248d9e51,248d9e51,248d9e51,f,0,1,0,1,1,1,f,f,f,f,f,f,f,f,0,0,f,f,0000,0000,0000,0000,0000,0000,0000,0000,00,00,00,00,f0,f0,f0,f0,0000,0000,0000,0000,0000,0000,0000,0000,00,00,00,00,2f782acad3,e793,e793,e795,e77b,2,0,0,00000,00000
14,14,0,000000000000000b9def9e579e4f9e4cbde0ab2b6c0000000000000000000000000000000000000003c3c3c3c00000000000000000000000000000000000000003fc03fffffffebf022a9b53022a9b53022a9b53022a9b537b70ee3731f6461531f6461539fcee17,39fcee17,31f64615,31f64615,7b70ee37,022a9b53,022a9b53,022a9b53,022a9b53,f,1,1,0,1,0,1,f,f,f,f,f,f,f,f,0,0,f,f,0000,0000,0000,0000,0000,0000,0000,0000,00,00,00,00,f0,f0,f0,f0,0000,0000,0000,0000,0000,0000,0000,0000,00,00,00,00,2f782acadb,e793,e793,e795,e77b,2,0,0,00000,00000
15,15,0,000000000000000b9def9e579e4f9e4cbde0ab2b8c0000000000000000000000000000000000000003c3c3c3c00000000000000000000000000000000000000003fc03fffffffebf5235ce875235ce875235ce875235ce87d3e6a1cfdb32c504db32c504d3e6a1cf,d3e6a1cf,db32c504,db32c504,d3e6a1cf,5235ce87,5235ce87,5235ce87,5235ce87,f,1,1,0,1,0,1,f,f,f,f,f,f,f,f,0,0,f,f,0000,0000,0000,0000,0000,0000,0000,0000,00,00,00,00,f0,f0,f0,f0,0000,0000,0000,0000,0000,0000,0000,0000,00,00,00,00,2f782acae3,e793,e793,e795,e77b,2,0,0,00000,00000
16,16,0,000000000000000b9def9e579e4f9e4cbde0ab2ba80000000000000000000000000000000000000003c3c3c3c00000000000000000000000000000000000000003fc03ffffffffaf386b8e65386b8e65386b8e65386b8e65201edc5a1df17c171df17c17201edc5a,201edc5a,1df17c17,1df17c17,201edc5a,386b8e65,386b8e65,386b8e65,386b8e65,f,0,1,0,1,1,1,f,f,f,f,f,f,f,f,0,0,f,f,0000,0000,0000,0000,0000,0000,0000,0000,00,00,00,00,f0,f0,f0,f0,0000,0000,0000,0000,0000,0000,0000,0000,00,00,00,00,2f782acaea,e793,e793,e795,e77b,2,0,0,00000,00000
17,17,0,000000000000000b9def9e579e4f9e4cbde0ab2bc80000000000000000000000000000000000000003c3c3c3c00000000000000000000000000000000000000003fc03ffffffffaf048b145a048b145a048b145a048b145af52e9d34ea3a58b6ea3a58b6f52e9d34,f52e9d34,ea3a58b6,ea3a58b6,f52e9d34,048b145a,048b145a,048b145a,048b145a,f,0,1,0,1,1,1,f,f,f,f,f,f,f,f,0,0,f,f,0000,0000,0000,0000,0000,0000,0000,0000,00,00,00,00,f0,f0,f0,f0,0000,0000,0000,0000,0000,0000,0000,0000,00,00,00,00,2f782acaf2,e793,e793,e795,e77b,2,0,0,00000,00000
18,18,0,000000000000000b9def9e579e4f9e4cbde0ab2be80000000000000000000000000000000000000003c3c3c3c00000000000000000000000000000000000000003fc03ffffffffafa1d655b0a1d655b0a1d655b0a1d655b0a33089d42454b3882454b388a33089d4,a33089d4,2454b388,2454b388,a33089d4,a1d655b0,a1d655b0,a1d655b0,a1d655b0,f,0,1,0,1,1,1,f,f,f,f,f,f,f,f,0,0,f,f,0000,0000,0000,0000,0000,0000,0000,0000,00,00,00,00,f0,f0,f0,f0,0000,0000,0000,0000,0000,0000,0000,0000,00,00,00,00,2f782acafa,e793,e793,e795,e77b,2,0,0,00000,00000
19,19,0,000000000000000b9def9e579e4f9e4cbde0ab2c080000000000000000000000000000000000000003c3c3c3c00000000000000000000000000000000000000003fc03fffffffebfe65799d6e65799d6e65799d6e65799d612307cdea34b466fa34b465f10987cfe,10987cfe,a34b465f,a34b466f,12307cde,e65799d6,e65799d6,e65799d6,e65799d6,f,1,1,0,1,0,1,f,f,f,f,f,f,f,f,0,0,f,f,0000,0000,0000,0000,0000,0000,0000,0000,00,00,00,00,f0,f0,f0,f0,0000,0000,0000,0000,0000,0000,0000,0000,00,00,00,00,2f782acb02,e793,e793,e795,e77b,2,0,0,00000,00000
20,20,0,000000000000000b9def9e579e4f9e4cbde0ab2c280000000000000000000000000000000000000003c3c3c3c00000000000000000000000000000000000000003fc03fffffffebfe4a8e2efe4a8e2efe4a8e2efe4a8e2ef527f722313e7b1cc13e7b1cc527f7223,527f7223,13e7b1cc,13e7b1cc,527f7223,e4a8e2ef,e4a8e2ef,e4a8e2ef,e4a8e2ef,f,1,1,0,1,0,1,f,f,f,f,f,f,f,f,0,0,f,f,0000,0000,0000,0000,0000,0000,0000,0000,00,00,00,00,f0,f0,f0,f0,0000,0000,0000,0000,0000,0000,0000,0000,00,00,00,00,2f782acb0a,e793,e793,e795,e77b,2,0,0,00000,00000
21,21,0,000000000000000b9def9e579e4f9e4cbde0ab2c440000000000000000000000000000000000000003c3c3c3c00000000000000000000000000000000000000003fc03ffffffffafbafa57bbbafa57bbbafa57bbbafa57bb204a3141ddde444bddde444b204a3141,204a3141,ddde444b,ddde444b,204a3141,bafa57bb,bafa57bb,bafa57bb,bafa57bb,f,0,1,0,1,1,1,f,f,f,f,f,f,f,f,0,0,f,f,0000,0000,0000,0000,0000,0000,0000,0000,00,00,00,00,f0,f0,f0,f0,0000,0000,0000,0000,0000,0000,0000,0000,00,00,00,00,2f782acb11,e793,e793,e795,e77b,2,0,0,00000,00000
22,22,0,000000000000000b9def9e579e4f9e4cbde0ab2c640000000000000000000000000000000000000003c3c3c3c00000000000000000000000000000000000000003fc03ffffffffaf1f6874f11f6874f11f6874f11f6874f16901f1851def18251def18256901f185,6901f185,1def1825,1def1825,6901f185,1f6874f1,1f6874f1,1f6874f1,1f6874f1,f,0,1,0,1,1,1,f,f,f,f,f,f,f,f,0,0,f,f,0000,0000,0000,0000,0000,0000,0000,0000,00,00,00,00,f0,f0,f0,f0,0000,0000,0000,0000,0000,0000,0000,0000,00,00,00,00,2f782acb19,e793,e793,e795,e77b,2,0,0,00000,00000
23,23,0,000000000000000b9def9e579e4f9e4cbde0ab2c840000000000000000000000000000000000000003c3c3c3c00000000000000000000000000000000000000003fc03ffffffffaf11697a3e11697a3e11697a3e11697a3ec779e62b1034928810349288c779e62b,c779e62b,10349288,10349288,c779e62b,11697a3e,11697a3e,11697a3e,11697a3e,f,0,1,0,1,1,1,f,f,f,f,f,f,f,f,0,0,f,f,0000,0000,0000,0000,0000,0000,0000,0000,00,00,00,00,f0,f0,f0,f0,0000,0000,0000,0000,0000,0000,0000,0000,00,00,00,00,2f782acb21,e793,e793,e795,e77b,2,0,0,00000,00000
24,24,0,000000000000000b9def9e579e4f9e4cbde0ab2ca40000000000000000000000000000000000000003c3c3c3c00000000000000000000000000000000000000003fc03fffffffebffab343c6fab343c6fab343c6fab343c6271454b12b0d34d62e0934f6279c1491,279c1491,2e0934f6,2b0d34d6,271454b1,fab343c6,fab343c6,fab343c6,fab343c6,f,1,1,0,1,0,1,f,f,f,f,f,f,f,f,0,0,f,f,0000,0000,0000,0000,0000,0000,0000,0000,00,00,00,00,f0,f0,f0,f0,0000,0000,0000,0000,0000,0000,0000,0000,00,00,00,00,2f782acb29,e793,e793,e795,e77b,2,0,0,00000,00000
25,25,0,000000000000000b9def9e579e4f9e4cbde0ab2cc40000000000000000000000000000000000000003c3c3c3c00000000000000000000000000000000000000003fc03fffffffebf5208269c5208269c5208269c5208269c09e07e172b91c7152b91c71509e07e17,09e07e17,2b91c715,2b91c715,09e07e17,5208269c,5208269c,5208269c,5208269c,f,1,1,0,1,0,1,f,f,f,f,f,f,f,f,0,0,f,f,0000,0000,0000,0000,0000,0000,0000,0000,00,00,00,00,f0,f0,f0,f0,0000,0000,0000,0000,0000,0000,0000,0000,00,00,00,00,2f782acb31,e793,e793,e795,e77b,2,0,0,00000,00000
26,26,0,000000000000000b9def9e579e4f9e4cbde0ab2ce00000000000000000000000000000000000000003c3c3c3c00000000000000000000000000000000000000003fc03ffffffffaf74769901747699017476990174769901c167d894535a6e3c535a6e3cc167d894,c167d894,535a6e3c,535a6e3c,c167d894,74769901,74769901,74769901,74769901,f,0,1,0,1,1,1,f,f,f,f,f,f,f,f,0,0,f,f,0000,0000,0000,0000,0000,0000,0000,0000,00,00,00,00,f0,f0,f0,f0,0000,0000,0000,0000,0000,0000,0000,0000,00,00,00,00,2f782acb38,e793,e793,e795,e77b,2,0,0,00000,00000
27,27,0,000000000000000b9def9e579e4f9e4cbde0ab2d000000000000000000000000000000000000000003c3c3c3c00000000000000000000000000000000000000003fc03ffffffffafa2085389a2085389a2085389a20853899064f61b0ecbcb930ecbcb939064f61b,9064f61b,0ecbcb93,0ecbcb93,9064f61b,a2085389,a2085389,a2085389,a2085389,f,0,1,0,1,1,1,f,f,f,f,f,f,f,f,0,0,f,f,0000,0000,0000,0000,0000,0000,0000,0000,00,00,00,00,f0,f0,f0,f0,0000,0000,0000,0000,0000,0000,0000,0000,00,00,00,00,2f782acb40,e793,e793,e795,e77b,2,0,0,00000,00000
28,28,0,000000000000000b9def9e579e4f9e4cbde0ab2d200000000000000000000000000000000000000003c3c3c3c00000000000000000000000000000000000000003fc03ffffffffafd47d1424d47d1424d47d1424d47d142462a4509af88792bbf88792bb62a4509a,62a4509a,f88792bb,f88792bb,62a4509a,d47d1424,d47d1424,d47d1424,d47d1424,f,0,1,0,1,1,1,f,f,f,f,f,f,f,f,0,0,f,f,0000,0000,0000,0000,0000,0000,0000,0000,00,00,00,00,f0,f0,f0,f0,0000,0000,0000,0000,0000,0000,0000,0000,00,00,00,00,2f782acb48,e793,e793,e795,e77b,2,0,0,00000,00000
29,29,0,000000000000000b9def9e579e4f9e4cbde0ab2d400000000000000000000000000000000000000003c3c3c3c00000000000000000000000000000000000000003fc03fffffffebfb8ad2644b8ad2644b8ad2644b8ad2644bd2ec914ea3bb3c4ea1337f4bf0acd14,bf0acd14,ea1337f4,ea3bb3c4,bd2ec914,b8ad2644,b8ad2644,b8ad2644,b8ad2644,f,1,1,0,1,0,1,f,f,f,f,f,f,f,f,0,0,f,f,0000,0000,0000,0000,0000,0000,0000,0000,00,00,00,00,f0,f0,f0,f0,0000,0000,0000,0000,0000,0000,0000,0000,00,00,00,00,2f782acb50,e793,e793,e795,e77b,2,0,0,00000,00000
30,30,0,000000000000000b9def9e579e4f9e4cbde0ab2d600000000000000000000000000000000000000003c3c3c3c00000000000000000000000000000000000000003fc03fffffffebffe64ec60fe64ec60fe64ec60fe64ec6057e21975f170d2d2f170d2d257e21975,57e21975,f170d2d2,f170d2d2,57e21975,fe64ec60,fe64ec60,fe64ec60,fe64ec60,f,1,1,0,1,0,1,f,f,f,f,f,f,f,f,0,0,f,f,0000,0000,0000,0000,0000,0000,0000,0000,00,00,00,00,f0,f0,f0,f0,0000,0000,0000,0000,0000,0000,0000,0000,00,00,00,00,2f782acb58,e793,e793,e795,e77b,2,0,0,00000,00000
31,31,0,000000000000000b9def9e579e4f9e4cbde0ab2d7c0000000000000000000000000000000000000003c3c3c3c00000000000000000000000000000000000000003fc03ffffffffaf692a5c1a692a5c1a692a5c1a692a5c1adcd8cf34fc5e1496fc5e1496dcd8cf34,dcd8cf34,fc5e1496,fc5e1496,dcd8cf34,692a5c1a,692a5c1a,692a5c1a,692a5c1a,f,0,1,0,1,1,1,f,f,f,f,f,f,f,f,0,0,f,f,0000,0000,0000,0000,0000,0000,0000,0000,00,00,00,00,f0,f0,f0,f0,0000,0000,0000,0000,0000,0000,0000,0000,00,00,00,00,2f782acb5f,e793,e793,e795,e77b,2,0,0,00000,00000
32,32,0,000000000000000b9def9e579e4f9e4cbde0ab2d9c0000000000000000000000000000000000000003c3c3c3c00000000000000000000000000000000000000003fc03ffffffffafb16ea190b16ea190b16ea190b16ea190957d33a6dc16b516dc16b516957d33a6,957d33a6,dc16b516,dc16b516,957d33a6,b16ea190,b16ea190,b16ea190,b16ea190,f,0,1,0,1,1,1,f,f,f,f,f,f,f,f,0,0,f,f,0000,0000,0000,0000,0000,0000,0000,0000,00,00,00,00,f0,f0,f0,f0,0000,0000,0000,0000,0000,0000,0000,0000,00,00,00,00,2f782acb67,e793,e793,e795,e77b,2,0,0,00000,00000
33,33,0,000000000000000b9def9e579e4f9e4cbde0ab2dbc0000000000000000000000000000000000000003c3c3c3c00000000000000000000000000000000000000003fc03ffffffffafde1dea54de1dea54de1dea54de1dea54357c37da9616276f9616276f357c37da,357c37da,9616276f,9616276f,357c37da,de1dea54,de1dea54,de1dea54,de1dea54,f,0,1,0,1,1,1,f,f,f,f,f,f,f,f,0,0,f,f,0000,0000,0000,0000,0000,0000,0000,0000,00,00,00,00,f0,f0,f0,f0,0000,0000,0000,0000,0000,0000,0000,0000,00,00,00,00,2f782acb6f,e793,e793,e795,e77b,2,0,0,00000,00000
34,34,0,000000000000000b9def9e579e4f9e4cbde0ab2ddc0000000000000000000000000000000000000003c3c3c3c00000000000000000000000000000000000000003fc03fffffffebf1231366512313665123136651231366506cce4879cfce7e69cdc67e6044ca4a7,044ca4a7,9cdc67e6,9cfce7e6,06cce487,12313665,12313665,12313665,12313665,f,1,1,0,1,0,1,f,f,f,f,f,f,f,f,0,0,f,f,0000,0000,0000,0000,0000,0000,0000,0000,00,00,00,00,f0,f0,f0,f0,0000,0000,0000,0000,0000,0000,0000,0000,00,00,00,00,2f782acb77,e793,e793,e795,e77b,2,0,0,00000,00000
35,35,0,000000000000000b9def9e579e4f9e4cbde0ab2dfc0000000000000000000000000000000000000003c3c3c3c00000000000000000000000000000000000000003fc03fffffffebf9329b9629329b9629329b9629329b9625e331405850544bd850544bd5e331405,5e331405,850544bd,850544bd,5e331405,9329b962,9329b962,9329b962,9329b962,f,1,1,0,1,0,1,f,f,f,f,f,f,f,f,0,0,f,f,0000,0000,0000,0000,0000,0000,0000,0000,00,00,00,00,f0,f0,f0,f0,0000,0000,0000,0000,0000,0000,0000,0000,00,00,00,00,2f782acb7f,e793,e793,e795,e77b,2,0,0,00000,00000
36,36,0,000000000000000b9def9e579e4f9e4cbde0ab2e180000000000000000000000000000000000000003c3c3c3c00000000000000000000000000000000000000003fc03ffffffffaf18356e9e18356e9e18356e9e18356e9ec7a488560057f3510057f351c7a48856,c7a48856,0057f351,0057f351,c7a48856,18356e9e,18356e9e,18356e9e,18356e9e,f,0,1,0,1,1,1,f,f,f,f,f,f,f,f,0,0,f,f,0000,0000,0000,0000,0000,0000,0000,0000,00,00,00,00,f0,f0,f0,f0,0000,0000,0000,0000,0000,0000,0000,0000,00,00,00,00,2f782acb86,e793,e793,e795,e77b,2,0,0,00000,00000
