Sample in Buffer,Sample in Window,TRIGGER,ila_data[865:0],receiver_0[31:0],receiver_1[31:0],receiver_2[31:0],receiver_3[31:0],transmitter_0[31:0],transmitter_1[31:0],transmitter_2[31:0],transmitter_3[31:0],prbs_match_int[3:0],hb0_gtwiz_userclk_rx_usrclk2_int,hb0_gtwiz_userclk_rx_active_int,hb_gtwiz_reset_all_int,hb0_gtwiz_reset_rx_done_int,hb0_gtwiz_userclk_tx_usrclk2_int,hb0_gtwiz_userclk_tx_active_int,gtwiz_userclk_tx_reset_int,gtwiz_userclk_tx_usrclk_int,gtwiz_userclk_tx_usrclk2_int,gtwiz_userclk_tx_active_int,gtwiz_userclk_rx_reset_int,gtwiz_userclk_rx_usrclk_int,gtwiz_userclk_rx_usrclk2_int,gtwiz_userclk_rx_active_int,drpaddr_int[35:0],drpclk_int[3:0],drpdi_int[3:0],drpen_int[3:0],drpwe_int[3:0],eyescanreset_int[3:0],rx8b10ben_int[3:0],rxcommadeten_int[3:0],rxlpmen_int[3:0],rxmcommaalignen_int[3:0],rxpcommaalignen_int[3:0],rxrate_int[11:0],tx8b10ben_int[3:0],txdiffctrl_int[15:0],txpostcursor_int[19:0],txprecursor_int[19:0],drpdo_int[63:0],drprdy_int[3:0],gtpowergood_int[3:0],rxbyteisaligned_int[3:0],rxbyterealign_int[3:0],rxcommadet_int[3:0],rxpmaresetdone_int[3:0],txpmaresetdone_int[3:0],ch0_rxctrl0_int[15:0],ch1_rxctrl0_int[15:0],ch2_rxctrl0_int[15:0],ch3_rxctrl0_int[15:0],ch0_rxctrl1_int[15:0],ch1_rxctrl1_int[15:0],ch2_rxctrl1_int[15:0],ch3_rxctrl1_int[15:0],ch0_rxctrl2_int[7:0],ch1_rxctrl2_int[7:0],ch2_rxctrl2_int[7:0],ch3_rxctrl2_int[7:0],ch0_rxctrl3_int[7:0],ch1_rxctrl3_int[7:0],ch2_rxctrl3_int[7:0],ch3_rxctrl3_int[7:0],ch0_txctrl0_int[15:0],ch1_txctrl0_int[15:0],ch2_txctrl0_int[15:0],ch3_txctrl0_int[15:0],ch0_txctrl1_int[15:0],ch1_txctrl1_int[15:0],ch2_txctrl1_int[15:0],ch3_txctrl1_int[15:0],ch0_txctrl2_int[7:0],ch1_txctrl2_int[7:0],ch2_txctrl2_int[7:0],ch3_txctrl2_int[7:0]
Radix - UNSIGNED,UNSIGNED,UNSIGNED,HEX,HEX,HEX,HEX,HEX,HEX,HEX,HEX,HEX,HEX,HEX,HEX,HEX,HEX,HEX,HEX,HEX,HEX,HEX,HEX,HEX,HEX,HEX,HEX,HEX,HEX,HEX,HEX,HEX,HEX,HEX,HEX,HEX,HEX,HEX,HEX,HEX,HEX,HEX,HEX,HEX,HEX,HEX,HEX,HEX,HEX,HEX,HEX,HEX,HEX,HEX,HEX,HEX,HEX,HEX,HEX,HEX,HEX,HEX,HEX,HEX,HEX,HEX,HEX,HEX,HEX,HEX,HEX,HEX,HEX,HEX,HEX,HEX,HEX,HEX,HEX
0,0,0,00000000000000000000000000000000000000003cfdff7dc000000000008000800040010000800000014000bfc003c0000000000000000000000000033333c003ffffc0000016000582eabb050d9503c50d9503c50d9503c50d9503c40508a601ea1087f20fdb8bae828821f,e828821f,20fdb8ba,1ea1087f,40508a60,50d9503c,50d9503c,50d9503c,50d9503c,0,1,1,0,1,1,1,0,1,0,1,0,1,0,1,05800160b,0,0,0,0,0,f,f,f,f,f,000,f,cccc,00000,00000,0000000000000000,0,f,0,0,0,f,f,0002,0005,0000,0002,0004,0001,0002,0002,00,00,00,00,f7,fd,f7,f3,0000,0000,0000,0000,0000,0000,0000,0000,00,00,00,00
1,1,0,00000000000000000000000000000000000000003cbd3c3d00000080000200014002800040000000000080013fc003c0000000000000000000000000033333c003ffffc0000016000582e22a050da503c50da503c50da503c50da503cdd0b6fc211f6990e1be7bc408cbd5083,8cbd5083,1be7bc40,11f6990e,dd0b6fc2,50da503c,50da503c,50da503c,50da503c,0,0,1,0,1,0,1,0,0,0,1,0,0,0,1,05800160b,0,0,0,0,0,f,f,f,f,f,000,f,cccc,00000,00000,0000000000000000,0,f,0,0,0,f,f,0004,0002,0000,0000,0001,000a,0005,0008,00,02,00,00,f4,f0,f4,f2,0000,0000,0000,0000,0000,0000,0000,0000,00,00,00,00
2,2,0,00000000000000000000000000000000000000003e3fffbcc0004000000340030000c0020002c00340008000bfc003c0000000000000000000000000033333c003ffffc0000016000582e22a050db503c50db503c50db503c50db503c95749c5c44c53003c10faadd61710c40,61710c40,c10faadd,44c53003,95749c5c,50db503c,50db503c,50db503c,50db503c,0,0,1,0,1,0,1,0,0,0,1,0,0,0,1,05800160b,0,0,0,0,0,f,f,f,f,f,000,f,cccc,00000,00000,0000000000000000,0,f,0,0,0,f,f,0002,0002,000d,000b,0008,0003,000c,000d,00,00,01,00,f3,fe,ff,f8,0000,0000,0000,0000,0000,0000,0000,0000,00,00,00,00
3,3,0,00000000000000000000000000000000000000003d7f7f7c8000000000010003c0024002c001400240024000bfc003c0000000000000000000000000033333c003ffffc0000016000582fbbb050dc503c50dc503c50dc503c50dc503cb8baa3eda53796245b916b9589cdb590,89cdb590,5b916b95,a5379624,b8baa3ed,50dc503c,50dc503c,50dc503c,50dc503c,0,1,1,0,1,1,1,0,1,1,1,0,1,1,1,05800160b,0,0,0,0,0,f,f,f,f,f,000,f,cccc,00000,00000,0000000000000000,0,f,0,0,0,f,f,0002,0009,0009,0005,000b,0009,000f,0004,00,00,00,00,f2,fd,fd,f5,0000,0000,0000,0000,0000,0000,0000,0000,00,00,00,00
4,4,0,00000000000000000000000000000000000000003fbebebe800000000001c000000200008000800000028000bfc003c0000000000000000000000000033333c003ffffc0000016000582fbbb050dd503c50dd503c50dd503c50dd503c6007d56e7fb3ee28baa3edd21f043b56,1f043b56,baa3edd2,7fb3ee28,6007d56e,50dd503c,50dd503c,50dd503c,50dd503c,0,1,1,0,1,1,1,0,1,1,1,0,1,1,1,05800160b,0,0,0,0,0,f,f,f,f,f,000,f,cccc,00000,00000,0000000000000000,0,f,0,0,0,f,f,0002,000a,0000,0002,0002,0008,0000,0007,00,00,00,00,fa,fa,fa,fe,0000,0000,0000,0000,0000,0000,0000,0000,00,00,00,00
5,5,0,00000000000000000000000000000000000000003dfd3cfc000000000001c002000080030000c000000080003fc003c0000000000000000000000000033333c003ffffc0000016000582eabb050de503c50de503c50de503c50de503cc24885ca0e5f01dd40508a6083f76437,83f76437,40508a60,0e5f01dd,c24885ca,50de503c,50de503c,50de503c,50de503c,0,1,1,0,1,1,1,0,1,0,1,0,1,0,1,05800160b,0,0,0,0,0,f,f,f,f,f,000,f,cccc,00000,00000,0000000000000000,0,f,0,0,0,f,f,0000,0002,0000,0003,000c,0002,0008,0007,00,00,00,00,f0,f3,f4,f7,0000,0000,0000,0000,0000,0000,0000,0000,00,00,00,00
6,6,0,00000000000000000000000000000000000000003dbf3cbf00020000000200018002000140020003000000013fc003c0000000000000000000000000033333c003ffffc0000016000582e22a050df503c50df503c50df503c50df503c5c10fe4603ea28e2dd0b6fc240fa5914,40fa5914,dd0b6fc2,03ea28e2,5c10fe46,50df503c,50df503c,50df503c,50df503c,0,0,1,0,1,0,1,0,0,0,1,0,0,0,1,05800160b,0,0,0,0,0,f,f,f,f,f,000,f,cccc,00000,00000,0000000000000000,0,f,0,0,0,f,f,0004,0000,000c,0008,0005,0008,0006,0008,00,00,08,00,fc,f2,fc,f6,0000,0000,0000,0000,0000,0000,0000,0000,00,00,00,00
7,7,0,00000000000000000000000000000000000000003e7fbe3d800000000000800280034002800200038002c0003fc003c0000000000000000000000000033333c003ffffc00000160b0582e22a050e0503c50e0503c50e0503c50e0503cedd29cbe24c2e5ed95749c5c9070f9b8,9070f9b8,95749c5c,24c2e5ed,edd29cbe,50e0503c,50e0503c,50e0503c,50e0503c,0,0,1,0,1,0,1,0,0,0,1,0,0,0,1,0582c160b,0,0,0,0,0,f,f,f,f,f,000,f,cccc,00000,00000,0000000000000000,0,f,0,0,0,f,f,0000,000b,000e,0008,000a,000d,000a,0002,00,00,00,00,f6,f8,fe,f9,0000,0000,0000,0000,0000,0000,0000,0000,00,00,00,00
8,8,0,00000000000000000000000000000000000000003fff7d7f400000000002c0020001000040024000000140027fc003c0000000000000000000000000033333c003ffffc00000160b0582fbbb050e1503c50e1503c50e1503c50e1503c8a6007d5087fb3eeb8baa3ed821f043b,821f043b,b8baa3ed,087fb3ee,8a6007d5,50e1503c,50e1503c,50e1503c,50e1503c,0,1,1,0,1,1,1,0,1,1,1,0,1,1,1,0582c160b,0,0,0,0,0,f,f,f,f,f,000,f,cccc,00000,00000,0000000000000000,0,f,0,0,0,f,f,0009,0005,0000,0009,0001,0004,0008,000b,00,00,00,00,fd,f5,fd,ff,0000,0000,0000,0000,0000,0000,0000,0000,00,00,00,00
9,9,0,00000000000000000000000000000000000000003f7cffbc40000000000300018001c00180030000000080003fc003c0000000000000000000000000033333c003ffffc00000160b0582fbbb050e2503c50e2503c50e2503c50e2503cca9a1ea1ddfd18816007d56e37274020,37274020,6007d56e,ddfd1881,ca9a1ea1,50e2503c,50e2503c,50e2503c,50e2503c,0,1,1,0,1,1,1,0,1,1,1,0,1,1,1,0582c160b,0,0,0,0,0,f,f,f,f,f,000,f,cccc,00000,00000,0000000000000000,0,f,0,0,0,f,f,0000,0002,0000,000c,0006,0007,0006,000c,00,00,00,00,f1,fe,f3,fd,0000,0000,0000,0000,0000,0000,0000,0000,00,00,00,00
10,10,0,00000000000000000000000000000000000000003d7cbdfc8000000000004001c001c002c00100008000c000bfc003c0000000000000000000000000033333c003ffffc00000160b0582eabb050e3503c50e3503c50e3503c50e3503c46dd11f6e27b6bc2c24885ca1480da1b,1480da1b,c24885ca,e27b6bc2,46dd11f6,50e3503c,50e3503c,50e3503c,50e3503c,0,1,1,0,1,1,1,0,1,0,1,0,1,0,1,0582c160b,0,0,0,0,0,f,f,f,f,f,000,f,cccc,00000,00000,0000000000000000,0,f,0,0,0,f,f,0002,0003,0002,0004,000b,0007,0007,0001,00,00,00,00,f2,f7,f2,f5,0000,0000,0000,0000,0000,0000,0000,0000,00,00,00,00
11,11,0,00000000000000000000000000000000000000003efdfdbcc00000000000c000400200008000c00040020000bfc003c0000000000000000000000000033333c003ffffc00000160b0582e22a050e4503c50e4503c50e4503c50e4503cbebc44c5ed4f50045c10fe46b89314c1,b89314c1,5c10fe46,ed4f5004,bebc44c5,50e4503c,50e4503c,50e4503c,50e4503c,0,0,1,0,1,0,1,0,0,0,1,0,0,0,1,0582c160b,0,0,0,0,0,f,f,f,f,f,000,f,cccc,00000,00000,0000000000000000,0,f,0,0,0,f,f,0002,0008,0001,0003,0002,0008,0001,0003,00,00,00,00,f3,f6,f7,fb,0000,0000,0000,0000,0000,0000,0000,0000,00,00,00,00
12,12,0,00000000000000000000000000000000000000003efebe7ec00000000003c0008000800240028000800200027fc003c0000000000000000000000000033333c003ffffc00000160b0582e22a050e5503c50e5503c50e5503c50e5503cd56ea537ee287bacedd29cbe3b56de5b,3b56de5b,edd29cbe,ee287bac,d56ea537,50e5503c,50e5503c,50e5503c,50e5503c,0,0,1,0,1,0,1,0,0,0,1,0,0,0,1,0582c160b,0,0,0,0,0,f,f,f,f,f,000,f,cccc,00000,00000,0000000000000000,0,f,0,0,0,f,f,0009,0008,0002,000a,0009,0002,0002,000f,00,00,00,00,fb,f9,fa,fb,0000,0000,0000,0000,0000,0000,0000,0000,00,00,00,00
13,13,0,00000000000000000000000000000000000000003fbc7ffc0000000000038000c002c000c0038000000240003fc003c0000000000000000000000000033333c003ffffc00000160b0582fbbb050e6503c50e6503c50e6503c50e6503c85ca9a1e01ddfd188a6007d564372740,64372740,8a6007d5,01ddfd18,85ca9a1e,50e6503c,50e6503c,50e6503c,50e6503c,0,1,1,0,1,1,1,0,1,1,1,0,1,1,1,0582c160b,0,0,0,0,0,f,f,f,f,f,000,f,cccc,00000,00000,0000000000000000,0,f,0,0,0,f,f,0000,0009,0000,000e,0003,000b,0003,000e,00,00,00,00,f0,ff,f1,fe,0000,0000,0000,0000,0000,0000,0000,0000,00,00,00,00
14,14,0,00000000000000000000000000000000000000003e7cbf7c0000000080028002000300028000000080030000bfc003c0000000000000000000000000033333c003ffffc00000160b0582fbbb050e7503c50e7503c50e7503c50e7503cf6990e5fc27ef286ca9a1ea11be7bc40,1be7bc40,ca9a1ea1,c27ef286,f6990e5f,50e7503c,50e7503c,50e7503c,50e7503c,0,1,1,0,1,1,1,0,1,1,1,0,1,1,1,0582c160b,0,0,0,0,0,f,f,f,f,f,000,f,cccc,00000,00000,0000000000000000,0,f,0,0,0,f,f,0002,000c,0002,0000,000a,000c,0008,000a,02,00,00,00,f0,fd,f2,f9,0000,0000,0000,0000,0000,0000,0000,0000,00,00,00,00
15,15,0,00000000000000000000000000000000000000003fff7d7f808000000002400240004000c002c00200010000bfc003c0000000000000000000000000033333c003ffffc00000160b0582eabb050e8503c50e8503c50e8503c50e8503cc53003ea043f497746dd11f6c10faadd,c10faadd,46dd11f6,043f4977,c53003ea,50e8503c,50e8503c,50e8503c,50e8503c,0,1,1,0,1,1,1,0,1,0,1,0,1,0,1,0582c160b,0,0,0,0,0,f,f,f,f,f,000,f,cccc,00000,00000,0000000000000000,0,f,0,0,0,f,f,0002,0004,0008,000b,0003,0001,0009,0009,00,00,00,02,fe,f5,fd,ff,0000,0000,0000,0000,0000,0000,0000,0000,00,00,00,00
16,16,0,00000000000000000000000000000000000000003efcbeff40000000000380000000c0024000c0000000c0027fc003c0000000000000000000000000033333c003ffffc00000160b0582e22a050e9503c50e9503c50e9503c50e9503c379624c2ac272f37bebc44c55b916b95,5b916b95,bebc44c5,ac272f37,379624c2,50e9503c,50e9503c,50e9503c,50e9503c,0,0,1,0,1,0,1,0,0,0,1,0,0,0,1,0582c160b,0,0,0,0,0,f,f,f,f,f,000,f,cccc,00000,00000,0000000000000000,0,f,0,0,0,f,f,0009,0003,0000,0003,0009,0003,0000,000e,00,00,00,00,fd,fb,f2,fb,0000,0000,0000,0000,0000,0000,0000,0000,00,00,00,00
17,17,0,00000000000000000000000000000000000000003dffbefd8000000000008002c003c0020000000080028000bfc003c0000000000000000000000000033333c003ffffc00000160b0582e22a050ea503c50ea503c50ea503c50ea503c1ea1087f1881f598d56ea5374020fdb8,4020fdb8,d56ea537,1881f598,1ea1087f,50ea503c,50ea503c,50ea503c,50ea503c,0,0,1,0,1,0,1,0,0,0,1,0,0,0,1,0582c160b,0,0,0,0,0,f,f,f,f,f,000,f,cccc,00000,00000,0000000000000000,0,f,0,0,0,f,f,0002,000a,0002,0000,0008,000f,000b,0002,00,00,00,00,f6,fb,fe,f7,0000,0000,0000,0000,0000,0000,0000,0000,00,00,00,00
18,18,0,00000000000000000000000000000000000000003d3e7fbe00000000400140030003800340000002400380027fc003c0000000000000000000000000033333c003ffffc00000160b0582fbbb050eb503c50eb503c50eb503c50eb503c11f6990e6bc27ef285ca9a1eda1be7bc,da1be7bc,85ca9a1e,6bc27ef2,11f6990e,50eb503c,50eb503c,50eb503c,50eb503c,0,1,1,0,1,1,1,0,1,1,1,0,1,1,1,0582c160b,0,0,0,0,0,f,f,f,f,f,000,f,cccc,00000,00000,0000000000000000,0,f,0,0,0,f,f,0009,000e,0009,0000,000d,000e,000c,0005,01,00,00,00,f8,fe,f9,f4,0000,0000,0000,0000,0000,0000,0000,0000,00,00,00,00
19,19,0,00000000000000000000000000000000000000003e3ebe7c80000000000340020002800200020000800000003fc003c0000000000000000000000000033333c003ffffc00000160b0582fbbb050ec503c50ec503c50ec503c50ec503cea28e27b778cbd50f6990e5fdd0b6fc2,dd0b6fc2,f6990e5f,778cbd50,ea28e27b,50ec503c,50ec503c,50ec503c,50ec503c,0,1,1,0,1,1,1,0,1,1,1,0,1,1,1,0582c160b,0,0,0,0,0,f,f,f,f,f,000,f,cccc,00000,00000,0000000000000000,0,f,0,0,0,f,f,0000,0000,0002,0008,0008,000a,0008,000d,00,00,00,00,f2,f9,fa,f8,0000,0000,0000,0000,0000,0000,0000,0000,00,00,00,00
20,20,0,00000000000000000000000000000000000000003f7c7ffe000000800001000100024003400300004002c002ffc003c0000000000000000000000000033333c003ffffc00000160b0582eabb050ed503c50ed503c50ed503c50ed503cc2e5ed4f3761710cc53003ea95749c5c,95749c5c,c53003ea,3761710c,c2e5ed4f,50ed503c,50ed503c,50ed503c,50ed503c,0,1,1,0,1,1,1,0,1,0,1,0,1,0,1,0582c160b,0,0,0,0,0,f,f,f,f,f,000,f,cccc,00000,00000,0000000000000000,0,f,0,0,0,f,f,000b,000b,0001,000c,000d,0009,0004,0004,00,02,00,00,f8,ff,f1,fd,0000,0000,0000,0000,0000,0000,0000,0000,00,00,00,00
21,21,0,00000000000000000000000000000000000000003ebc7efd400000000000000340038001000000004000c0017fc003c0000000000000000000000000033333c003ffffc00000160b0582e22a050ee503c50ee503c50ee503c50ee503c7fb3ee289889cdb5379624c2b8baa3ed,b8baa3ed,379624c2,9889cdb5,7fb3ee28,50ee503c,50ee503c,50ee503c,50ee503c,0,0,1,0,1,0,1,0,0,0,1,0,0,0,1,0582c160b,0,0,0,0,0,f,f,f,f,f,000,f,cccc,00000,00000,0000000000000000,0,f,0,0,0,f,f,0005,0003,0001,0000,0004,000e,000d,0000,00,00,00,00,f5,fb,f1,fa,0000,0000,0000,0000,0000,0000,0000,0000,00,00,00,00
22,22,0,00000000000000000000000000000000000000003d3e7dfc40000002000200004000800240000002000000027fc003c0000000000000000000000000033333c003ffffc00000160b0582e22a050ef503c50ef503c50ef503c50ef503c0e5f01ddf286e8281ea1087fbc40508a,bc40508a,1ea1087f,f286e828,0e5f01dd,50ef503c,50ef503c,50ef503c,50ef503c,0,0,1,0,1,0,1,0,0,0,1,0,0,0,1,0582c160b,0,0,0,0,0,f,f,f,f,f,000,f,cccc,00000,00000,0000000000000000,0,f,0,0,0,f,f,0009,0000,0008,0000,0009,0002,0001,0008,08,00,00,00,f1,f7,f9,f4,0000,0000,0000,0000,0000,0000,0000,0000,00,00,00,00
23,23,0,00000000000000000000000000000000000000003f3d7d3e42000000000180010001400300030000400000023fc003c0000000000000000000000000033333c003ffffc00000160b0582fbbb050f0503c50f0503c50f0503c50f0503c03ea28e249778cbd11f6990eaadd0b6f,aadd0b6f,11f6990e,49778cbd,03ea28e2,50f0503c,50f0503c,50f0503c,50f0503c,0,1,1,0,1,1,1,0,1,1,1,0,1,1,1,0582c160b,0,0,0,0,0,f,f,f,f,f,000,f,cccc,00000,00000,0000000000000000,0,f,0,0,0,f,f,0008,0000,0001,000c,000c,0005,0004,0006,00,00,00,08,f9,f4,f5,fc,0000,0000,0000,0000,0000,0000,0000,0000,00,00,00,00
24,24,0,00000000000000000000000000000000000000003fffbe3d80000000000080008003400200008002800200023fc003c0000000000000000000000000033333c003ffffc00000160b0582fbbb050f1503c50f1503c50f1503c50f1503c4f50043f0c40fa59ea28e27b5c10fe46,5c10fe46,ea28e27b,0c40fa59,4f50043f,50f1503c,50f1503c,50f1503c,50f1503c,0,1,1,0,1,1,1,0,1,1,1,0,1,1,1,0582c160b,0,0,0,0,0,f,f,f,f,f,000,f,cccc,00000,00000,0000000000000000,0,f,0,0,0,f,f,0008,0008,000a,0002,0008,000d,0002,0002,00,00,00,00,f6,f8,fe,ff,0000,0000,0000,0000,0000,0000,0000,0000,00,00,00,00
25,25,0,00000000000000000000000000000000000000003d3eff7e40000000000100034001000080010002000300023fc003c0000000000000000000000000033333c003ffffc00000160b0582eabb050f2503c50f2503c50f2503c50f2503c287bac27b59070f9c2e5ed4fedd29cbe,edd29cbe,c2e5ed4f,b59070f9,287bac27,50f2503c,50f2503c,50f2503c,50f2503c,0,1,1,0,1,1,1,0,1,0,1,0,1,0,1,0582c160b,0,0,0,0,0,f,f,f,f,f,000,f,cccc,00000,00000,0000000000000000,0,f,0,0,0,f,f,0008,000c,0008,0004,0002,0004,000d,0004,00,00,00,00,f9,fd,fb,f4,0000,0000,0000,0000,0000,0000,0000,0000,00,00,00,00
26,26,0,00000000000000000000000000000000000000003cffbebfc00000000001800200000002c0000001000000027fc003c0000000000000000000000000033333c003ffffc00000160b0582e22a050f3503c50f3503c50f3503c50f3503cddfd188128821f047fb3ee288a6007d5,8a6007d5,7fb3ee28,28821f04,ddfd1881,50f3503c,50f3503c,50f3503c,50f3503c,0,0,1,0,1,0,1,0,0,0,1,0,0,0,1,0582c160b,0,0,0,0,0,f,f,f,f,f,000,f,cccc,00000,00000,0000000000000000,0,f,0,0,0,f,f,0009,0000,0004,0000,000b,0000,0008,0006,00,00,00,00,ff,fa,fe,f3,0000,0000,0000,0000,0000,0000,0000,0000,00,00,00,00
27,27,0,00000000000000000000000000000000000000003cbe3d3ec00000000001c000c0020000c0008002000000007fc003c0000000000000000000000000033333c003ffffc00000160b0582e22a050f4503c50f4503c50f4503c50f4503ce27b6bc2bd5083f70e5f01dd6fc24885,6fc24885,0e5f01dd,bd5083f7,e27b6bc2,50f4503c,50f4503c,50f4503c,50f4503c,0,0,1,0,1,0,1,0,0,0,1,0,0,0,1,0582c160b,0,0,0,0,0,f,f,f,f,f,000,f,cccc,00000,00000,0000000000000000,0,f,0,0,0,f,f,0001,0000,0008,0002,0003,0008,0003,0007,00,00,00,00,fb,f4,f8,f2,0000,0000,0000,0000,0000,0000,0000,0000,00,00,00,00
28,28,0,00000000000000000000000000000000000000003dfdff3cc0000200000040004001800100004001400300033fc003c0000000000000000000000000033333c003ffffc00000160b0582fbbb050f5503c50f5503c50f5503c50f5503ced4f5004710c40fa03ea28e29c5c10fe,9c5c10fe,03ea28e2,710c40fa,ed4f5004,50f5503c,50f5503c,50f5503c,50f5503c,0,1,1,0,1,1,1,0,1,1,1,0,1,1,1,0582c160b,0,0,0,0,0,f,f,f,f,f,000,f,cccc,00000,00000,0000000000000000,0,f,0,0,0,f,f,000c,000c,0005,0001,0004,0006,0001,0001,00,08,00,00,f3,fc,f7,f7,0000,0000,0000,0000,0000,0000,0000,0000,00,00,00,00
29,29,0,00000000000000000000000000000000000000003d3e7ffec00000000000400240008000c000000040008000ffc003c0000000000000000000000000033333c003ffffc00000160b0582fbbb050f6503c50f6503c50f6503c50f6503c272f3761f9b893144f50043fbebc44c5,bebc44c5,4f50043f,f9b89314,272f3761,50f6503c,50f6503c,50f6503c,50f6503c,0,1,1,0,1,1,1,0,1,1,1,0,1,1,1,0582c160b,0,0,0,0,0,f,f,f,f,f,000,f,cccc,00000,00000,0000000000000000,0,f,0,0,0,f,f,0003,0002,0001,0000,0003,0002,0009,0001,00,00,00,00,fb,ff,f9,f4,0000,0000,0000,0000,0000,0000,0000,0000,00,00,00,00
30,30,0,00000000000000000000000000000000000000003f3d7d3ec00000000001c00100010003c001000100010002bfc003c0000000000000000000000000033333c003ffffc00000160b0582eabb050f7503c50f7503c50f7503c50f7503c81f59889043b56de287bac27d56ea537,d56ea537,287bac27,043b56de,81f59889,50f7503c,50f7503c,50f7503c,50f7503c,0,1,1,0,1,1,1,0,1,0,1,0,1,0,1,0582c160b,0,0,0,0,0,f,f,f,f,f,000,f,cccc,00000,00000,0000000000000000,0,f,0,0,0,f,f,000a,0004,0004,0004,000f,0004,0004,0007,00,00,00,00,fb,f4,f5,fc,0000,0000,0000,0000,0000,0000,0000,0000,00,00,00,00
31,31,0,00000000000000000000000000000000000000003cbc3cff8000000000020002400180038000800000000003bfc003c0000000000000000000000000033333c003ffffc00000160b0582e22a050f8503c50f8503c50f8503c50f8503cc27ef286f7643727ddfd188185ca9a1e,85ca9a1e,ddfd1881,f7643727,c27ef286,50f8503c,50f8503c,50f8503c,50f8503c,0,0,1,0,1,0,1,0,0,0,1,0,0,0,1,0582c160b,0,0,0,0,0,f,f,f,f,f,000,f,cccc,00000,00000,0000000000000000,0,f,0,0,0,f,f,000e,0000,0000,0002,000e,0006,0009,0008,00,00,00,00,fe,f3,f0,f2,0000,0000,0000,0000,0000,0000,0000,0000,00,00,00,00
32,32,0,00000000000000000000000000000000000000003f7e3cbe80000000000240028001c0000002000200008000bfc003c0000000000000000000000000033333c003ffffc00000160b0582e22a050f9503c50f9503c50f9503c50f9503c043f4977fa591480e27b6bc2fe46dd11,fe46dd11,e27b6bc2,fa591480,043f4977,50f9503c,50f9503c,50f9503c,50f9503c,0,0,1,0,1,0,1,0,0,0,1,0,0,0,1,0582c160b,0,0,0,0,0,f,f,f,f,f,000,f,cccc,00000,00000,0000000000000000,0,f,0,0,0,f,f,0002,0002,0008,0008,0000,0007,000a,0009,00,00,00,00,fa,f2,f8,fd,0000,0000,0000,0000,0000,0000,0000,0000,00,00,00,00
33,33,0,00000000000000000000000000000000000000003cbf3dfd40000000000000010000400240000000000040007fc003c0000000000000000000000000033333c003ffffc00000160b0582fbbb050fa503c50fa503c50fa503c50fa503cac272f3770f9b893ed4f50049cbebc44,9cbebc44,ed4f5004,70f9b893,ac272f37,50fa503c,50fa503c,50fa503c,50fa503c,0,1,1,0,1,1,1,0,1,1,1,0,1,1,1,0582c160b,0,0,0,0,0,f,f,f,f,f,000,f,cccc,00000,00000,0000000000000000,0,f,0,0,0,f,f,0001,0001,0000,0000,0009,0001,0004,0000,00,00,00,00,f5,f7,fc,f2,0000,0000,0000,0000,0000,0000,0000,0000,00,00,00,00
