Sample in Buffer,Sample in Window,TRIGGER,ila_data[265:0],receiver_0[31:0],receiver_1[31:0],receiver_2[31:0],receiver_3[31:0],transmitter_0[31:0],transmitter_1[31:0],transmitter_2[31:0],transmitter_3[31:0],prbs_match_int[3:0],hb0_gtwiz_userclk_rx_usrclk2_int,hb0_gtwiz_userclk_rx_active_int,hb_gtwiz_reset_all_int,hb0_gtwiz_reset_rx_done_int,hb0_gtwiz_userclk_tx_usrclk2_int,hb0_gtwiz_userclk_tx_active_int
Radix - UNSIGNED,UNSIGNED,UNSIGNED,HEX,HEX,HEX,HEX,HEX,HEX,HEX,HEX,HEX,HEX,HEX,HEX,HEX,HEX,HEX,HEX
0,0,0,3b06d91503c926e503cb6c8503c4937503cea36b0c365e4b0c315c9b0c39a1bb0c3,9a1bb0c3,15c9b0c3,65e4b0c3,ea36b0c3,4937503c,b6c8503c,926e503c,6d91503c,0,1,1,0,1,1,1
1,1,0,3b06d8f503c9270503cb6c7503c4938503cea27b0c365fcb0c315d8b0c39a03b0c3,9a03b0c3,15d8b0c3,65fcb0c3,ea27b0c3,4938503c,b6c7503c,9270503c,6d8f503c,0,1,1,0,1,1,1
2,2,0,3a06d8d503c9272503cb6c6503c4939503cea3ab0c365e2b0c315c5b0c39a1db0c3,9a1db0c3,15c5b0c3,65e2b0c3,ea3ab0c3,4939503c,b6c6503c,9272503c,6d8d503c,0,0,1,0,1,1,1
3,3,0,2a06d8b503c9274503cb6c5503c493a503cea3cb0c365e1b0c315c3b0c39a1eb0c3,9a1eb0c3,15c3b0c3,65e1b0c3,ea3cb0c3,493a503c,b6c5503c,9274503c,6d8b503c,0,0,1,0,1,0,1
4,4,0,2b06d89503c9276503cb6c4503c493b503cea21b0c365e0b0c315deb0c39a1fb0c3,9a1fb0c3,15deb0c3,65e0b0c3,ea21b0c3,493b503c,b6c4503c,9276503c,6d89503c,0,1,1,0,1,0,1
5,5,0,3b06d87503c9278503cb6c3503c493c503cea5fb0c3653fb0c315a0b0c39ac0b0c3,9ac0b0c3,15a0b0c3,653fb0c3,ea5fb0c3,493c503c,b6c3503c,9278503c,6d87503c,0,1,1,0,1,1,1
6,6,0,3b06d85503c927a503cb6c2503c493d503cea5db0c3653eb0c315a2b0c39ac1b0c3,9ac1b0c3,15a2b0c3,653eb0c3,ea5db0c3,493d503c,b6c2503c,927a503c,6d85503c,0,1,1,0,1,1,1
7,7,0,3a06d83503c927c503cb6c1503c493e503cea5bb0c3653db0c315a4b0c39ac2b0c3,9ac2b0c3,15a4b0c3,653db0c3,ea5bb0c3,493e503c,b6c1503c,927c503c,6d83503c,0,0,1,0,1,1,1
8,8,0,2a06d81503c927e503cb6c0503c493f503cea46b0c36523b0c315b9b0c39adcb0c3,9adcb0c3,15b9b0c3,6523b0c3,ea46b0c3,493f503c,b6c0503c,927e503c,6d81503c,0,0,1,0,1,0,1
9,9,0,2b06d7f503c9280503cb6bf503c4940503cea57b0c3653bb0c315a8b0c39ac4b0c3,9ac4b0c3,15a8b0c3,653bb0c3,ea57b0c3,4940503c,b6bf503c,9280503c,6d7f503c,0,1,1,0,1,0,1
10,10,0,3b06d7d503c9282503cb6be503c4941503cea4ab0c36525b0c315b5b0c39adab0c3,9adab0c3,15b5b0c3,6525b0c3,ea4ab0c3,4941503c,b6be503c,9282503c,6d7d503c,0,1,1,0,1,1,1
11,11,0,3b06d7b503c9284503cb6bd503c4942503cea4cb0c36526b0c315b3b0c39ad9b0c3,9ad9b0c3,15b3b0c3,6526b0c3,ea4cb0c3,4942503c,b6bd503c,9284503c,6d7b503c,0,1,1,0,1,1,1
12,12,0,3a06d79503c9286503cb6bc503c4943503cea4eb0c36538b0c315b1b0c39ac7b0c3,9ac7b0c3,15b1b0c3,6538b0c3,ea4eb0c3,4943503c,b6bc503c,9286503c,6d79503c,0,0,1,0,1,1,1
13,13,0,2a06d77503c9288503cb6bb503c4944503cea4fb0c36537b0c315b0b0c39ac8b0c3,9ac8b0c3,15b0b0c3,6537b0c3,ea4fb0c3,4944503c,b6bb503c,9288503c,6d77503c,0,0,1,0,1,0,1
14,14,0,2b06d75503c928a503cb6ba503c4945503cea52b0c36529b0c315adb0c39ad6b0c3,9ad6b0c3,15adb0c3,6529b0c3,ea52b0c3,4945503c,b6ba503c,928a503c,6d75503c,0,1,1,0,1,0,1
15,15,0,3b06d73503c928c503cb6b9503c4946503cea54b0c3652ab0c315abb0c39ad5b0c3,9ad5b0c3,15abb0c3,652ab0c3,ea54b0c3,4946503c,b6b9503c,928c503c,6d73503c,0,1,1,0,1,1,1
16,16,0,3a06d71503c928e503cb6b8503c4947503cea56b0c3652bb0c315a9b0c39ad4b0c3,9ad4b0c3,15a9b0c3,652bb0c3,ea56b0c3,4947503c,b6b8503c,928e503c,6d71503c,0,0,1,0,1,1,1
17,17,0,3a06d6f503c9290503cb6b7503c4948503cea47b0c3652cb0c315b8b0c39ad3b0c3,9ad3b0c3,15b8b0c3,652cb0c3,ea47b0c3,4948503c,b6b7503c,9290503c,6d6f503c,0,0,1,0,1,1,1
18,18,0,2a06d6d503c9292503cb6b6503c4949503cea5ab0c3652db0c315a5b0c39ad2b0c3,9ad2b0c3,15a5b0c3,652db0c3,ea5ab0c3,4949503c,b6b6503c,9292503c,6d6d503c,0,0,1,0,1,0,1
19,19,0,2b06d6b503c9294503cb6b5503c494a503cea5cb0c3652eb0c315a3b0c39ad1b0c3,9ad1b0c3,15a3b0c3,652eb0c3,ea5cb0c3,494a503c,b6b5503c,9294503c,6d6b503c,0,1,1,0,1,0,1
20,20,0,3b06d69503c9296503cb6b4503c494b503cea41b0c36530b0c315beb0c39acfb0c3,9acfb0c3,15beb0c3,6530b0c3,ea41b0c3,494b503c,b6b4503c,9296503c,6d69503c,0,1,1,0,1,1,1
21,21,0,3b06d67503c9298503cb6b3503c494c503cea9fb0c3652fb0c31560b0c39ad0b0c3,9ad0b0c3,1560b0c3,652fb0c3,ea9fb0c3,494c503c,b6b3503c,9298503c,6d67503c,0,1,1,0,1,1,1
22,22,0,3a06d65503c929a503cb6b2503c494d503cea9db0c36531b0c31562b0c39aceb0c3,9aceb0c3,1562b0c3,6531b0c3,ea9db0c3,494d503c,b6b2503c,929a503c,6d65503c,0,0,1,0,1,1,1
23,23,0,2a06d63503c929c503cb6b1503c494e503cea9bb0c36532b0c31564b0c39acdb0c3,9acdb0c3,1564b0c3,6532b0c3,ea9bb0c3,494e503c,b6b1503c,929c503c,6d63503c,0,0,1,0,1,0,1
24,24,0,2b06d61503c929e503cb6b0503c494f503cea86b0c36533b0c31579b0c39accb0c3,9accb0c3,1579b0c3,6533b0c3,ea86b0c3,494f503c,b6b0503c,929e503c,6d61503c,0,1,1,0,1,0,1
25,25,0,3b06d5f503c92a0503cb6af503c4950503cea97b0c36534b0c31568b0c39acbb0c3,9acbb0c3,1568b0c3,6534b0c3,ea97b0c3,4950503c,b6af503c,92a0503c,6d5f503c,0,1,1,0,1,1,1
26,26,0,3b06d5d503c92a2503cb6ae503c4951503cea8ab0c36535b0c31575b0c39acab0c3,9acab0c3,1575b0c3,6535b0c3,ea8ab0c3,4951503c,b6ae503c,92a2503c,6d5d503c,0,1,1,0,1,1,1
27,27,0,3a06d5b503c92a4503cb6ad503c4952503cea8cb0c36536b0c31573b0c39ac9b0c3,9ac9b0c3,1573b0c3,6536b0c3,ea8cb0c3,4952503c,b6ad503c,92a4503c,6d5b503c,0,0,1,0,1,1,1
28,28,0,2a06d59503c92a6503cb6ac503c4953503cea8eb0c36528b0c31571b0c39ad7b0c3,9ad7b0c3,1571b0c3,6528b0c3,ea8eb0c3,4953503c,b6ac503c,92a6503c,6d59503c,0,0,1,0,1,0,1
29,29,0,2b06d57503c92a8503cb6ab503c4954503cea8fb0c36527b0c31570b0c39ad8b0c3,9ad8b0c3,1570b0c3,6527b0c3,ea8fb0c3,4954503c,b6ab503c,92a8503c,6d57503c,0,1,1,0,1,0,1
30,30,0,3b06d55503c92aa503cb6aa503c4955503cea92b0c36539b0c3156db0c39ac6b0c3,9ac6b0c3,156db0c3,6539b0c3,ea92b0c3,4955503c,b6aa503c,92aa503c,6d55503c,0,1,1,0,1,1,1
31,31,0,3b06d53503c92ac503cb6a9503c4956503cea94b0c3653ab0c3156bb0c39ac5b0c3,9ac5b0c3,156bb0c3,653ab0c3,ea94b0c3,4956503c,b6a9503c,92ac503c,6d53503c,0,1,1,0,1,1,1
32,32,0,3a06d51503c92ae503cb6a8503c4957503cea96b0c36524b0c31569b0c39adbb0c3,9adbb0c3,1569b0c3,6524b0c3,ea96b0c3,4957503c,b6a8503c,92ae503c,6d51503c,0,0,1,0,1,1,1
33,33,0,2a06d4f503c92b0503cb6a7503c4958503cea87b0c3653cb0c31578b0c39ac3b0c3,9ac3b0c3,1578b0c3,653cb0c3,ea87b0c3,4958503c,b6a7503c,92b0503c,6d4f503c,0,0,1,0,1,0,1
34,34,0,2b06d4d503c92b2503cb6a6503c4959503cea9ab0c36522b0c31565b0c39addb0c3,9addb0c3,1565b0c3,6522b0c3,ea9ab0c3,4959503c,b6a6503c,92b2503c,6d4d503c,0,1,1,0,1,0,1
35,35,0,3b06d4b503c92b4503cb6a5503c495a503cea9cb0c36521b0c31563b0c39adeb0c3,9adeb0c3,1563b0c3,6521b0c3,ea9cb0c3,495a503c,b6a5503c,92b4503c,6d4b503c,0,1,1,0,1,1,1
36,36,0,3b06d49503c92b6503cb6a4503c495b503cea81b0c36520b0c3157eb0c39adfb0c3,9adfb0c3,157eb0c3,6520b0c3,ea81b0c3,495b503c,b6a4503c,92b6503c,6d49503c,0,1,1,0,1,1,1
37,37,0,3a06d47503c92b8503cb6a3503c495c503cea7fb0c3655fb0c31580b0c39aa0b0c3,9aa0b0c3,1580b0c3,655fb0c3,ea7fb0c3,495c503c,b6a3503c,92b8503c,6d47503c,0,0,1,0,1,1,1
38,38,0,2a06d45503c92ba503cb6a2503c495d503cea7db0c3655eb0c31582b0c39aa1b0c3,9aa1b0c3,1582b0c3,655eb0c3,ea7db0c3,495d503c,b6a2503c,92ba503c,6d45503c,0,0,1,0,1,0,1
39,39,0,2b06d43503c92bc503cb6a1503c495e503cea7bb0c3655db0c31584b0c39aa2b0c3,9aa2b0c3,1584b0c3,655db0c3,ea7bb0c3,495e503c,b6a1503c,92bc503c,6d43503c,0,1,1,0,1,0,1
40,40,0,3b06d41503c92be503cb6a0503c495f503cea66b0c36543b0c31599b0c39abcb0c3,9abcb0c3,1599b0c3,6543b0c3,ea66b0c3,495f503c,b6a0503c,92be503c,6d41503c,0,1,1,0,1,1,1
41,41,0,3b06d3f503c92c0503cb69f503c4960503cea77b0c3655bb0c31588b0c39aa4b0c3,9aa4b0c3,1588b0c3,655bb0c3,ea77b0c3,4960503c,b69f503c,92c0503c,6d3f503c,0,1,1,0,1,1,1
42,42,0,3a06d3d503c92c2503cb69e503c4961503cea6ab0c36545b0c31595b0c39abab0c3,9abab0c3,1595b0c3,6545b0c3,ea6ab0c3,4961503c,b69e503c,92c2503c,6d3d503c,0,0,1,0,1,1,1
43,43,0,2a06d3b503c92c4503cb69d503c4962503cea6cb0c36546b0c31593b0c39ab9b0c3,9ab9b0c3,1593b0c3,6546b0c3,ea6cb0c3,4962503c,b69d503c,92c4503c,6d3b503c,0,0,1,0,1,0,1
44,44,0,2b06d39503c92c6503cb69c503c4963503cea6eb0c36558b0c31591b0c39aa7b0c3,9aa7b0c3,1591b0c3,6558b0c3,ea6eb0c3,4963503c,b69c503c,92c6503c,6d39503c,0,1,1,0,1,0,1
45,45,0,3b06d37503c92c8503cb69b503c4964503cea6fb0c36557b0c31590b0c39aa8b0c3,9aa8b0c3,1590b0c3,6557b0c3,ea6fb0c3,4964503c,b69b503c,92c8503c,6d37503c,0,1,1,0,1,1,1
46,46,0,3b06d35503c92ca503cb69a503c4965503cea72b0c36549b0c3158db0c39ab6b0c3,9ab6b0c3,158db0c3,6549b0c3,ea72b0c3,4965503c,b69a503c,92ca503c,6d35503c,0,1,1,0,1,1,1
47,47,0,3a06d33503c92cc503cb699503c4966503cea74b0c3654ab0c3158bb0c39ab5b0c3,9ab5b0c3,158bb0c3,654ab0c3,ea74b0c3,4966503c,b699503c,92cc503c,6d33503c,0,0,1,0,1,1,1
48,48,0,2a06d31503c92ce503cb698503c4967503cea76b0c3654bb0c31589b0c39ab4b0c3,9ab4b0c3,1589b0c3,654bb0c3,ea76b0c3,4967503c,b698503c,92ce503c,6d31503c,0,0,1,0,1,0,1
49,49,0,2b06d2f503c92d0503cb697503c4968503cea67b0c3654cb0c31598b0c39ab3b0c3,9ab3b0c3,1598b0c3,654cb0c3,ea67b0c3,4968503c,b697503c,92d0503c,6d2f503c,0,1,1,0,1,0,1
50,50,0,3b06d2d503c92d2503cb696503c4969503cea7ab0c3654db0c31585b0c39ab2b0c3,9ab2b0c3,1585b0c3,654db0c3,ea7ab0c3,4969503c,b696503c,92d2503c,6d2d503c,0,1,1,0,1,1,1
51,51,0,3a06d2b503c92d4503cb695503c496a503cea7cb0c3654eb0c31583b0c39ab1b0c3,9ab1b0c3,1583b0c3,654eb0c3,ea7cb0c3,496a503c,b695503c,92d4503c,6d2b503c,0,0,1,0,1,1,1
52,52,0,3a06d29503c92d6503cb694503c496b503cea61b0c36550b0c3159eb0c39aafb0c3,9aafb0c3,159eb0c3,6550b0c3,ea61b0c3,496b503c,b694503c,92d6503c,6d29503c,0,0,1,0,1,1,1
53,53,0,2a06d27503c92d8503cb693503c496c503ceabfb0c3654fb0c31540b0c39ab0b0c3,9ab0b0c3,1540b0c3,654fb0c3,eabfb0c3,496c503c,b693503c,92d8503c,6d27503c,0,0,1,0,1,0,1
54,54,0,2b06d25503c92da503cb692503c496d503ceabdb0c36551b0c31542b0c39aaeb0c3,9aaeb0c3,1542b0c3,6551b0c3,eabdb0c3,496d503c,b692503c,92da503c,6d25503c,0,1,1,0,1,0,1
55,55,0,3b06d23503c92dc503cb691503c496e503ceabbb0c36552b0c31544b0c39aadb0c3,9aadb0c3,1544b0c3,6552b0c3,eabbb0c3,496e503c,b691503c,92dc503c,6d23503c,0,1,1,0,1,1,1
56,56,0,3b06d21503c92de503cb690503c496f503ceaa6b0c36553b0c31559b0c39aacb0c3,9aacb0c3,1559b0c3,6553b0c3,eaa6b0c3,496f503c,b690503c,92de503c,6d21503c,0,1,1,0,1,1,1
57,57,0,3a06d1f503c92e0503cb68f503c4970503ceab7b0c36554b0c31548b0c39aabb0c3,9aabb0c3,1548b0c3,6554b0c3,eab7b0c3,4970503c,b68f503c,92e0503c,6d1f503c,0,0,1,0,1,1,1
58,58,0,2a06d1d503c92e2503cb68e503c4971503ceaaab0c36555b0c31555b0c39aaab0c3,9aaab0c3,1555b0c3,6555b0c3,eaaab0c3,4971503c,b68e503c,92e2503c,6d1d503c,0,0,1,0,1,0,1
59,59,0,2b06d1b503c92e4503cb68d503c4972503ceaacb0c36556b0c31553b0c39aa9b0c3,9aa9b0c3,1553b0c3,6556b0c3,eaacb0c3,4972503c,b68d503c,92e4503c,6d1b503c,0,1,1,0,1,0,1
60,60,0,3b06d19503c92e6503cb68c503c4973503ceaaeb0c36548b0c31551b0c39ab7b0c3,9ab7b0c3,1551b0c3,6548b0c3,eaaeb0c3,4973503c,b68c503c,92e6503c,6d19503c,0,1,1,0,1,1,1
61,61,0,3b06d17503c92e8503cb68b503c4974503ceaafb0c36547b0c31550b0c39ab8b0c3,9ab8b0c3,1550b0c3,6547b0c3,eaafb0c3,4974503c,b68b503c,92e8503c,6d17503c,0,1,1,0,1,1,1
62,62,0,3a06d15503c92ea503cb68a503c4975503ceab2b0c36559b0c3154db0c39aa6b0c3,9aa6b0c3,154db0c3,6559b0c3,eab2b0c3,4975503c,b68a503c,92ea503c,6d15503c,0,0,1,0,1,1,1
63,63,0,2a06d13503c92ec503cb689503c4976503ceab4b0c3655ab0c3154bb0c39aa5b0c3,9aa5b0c3,154bb0c3,655ab0c3,eab4b0c3,4976503c,b689503c,92ec503c,6d13503c,0,0,1,0,1,0,1
64,64,0,2b06d11503c92ee503cb688503c4977503ceab6b0c36544b0c31549b0c39abbb0c3,9abbb0c3,1549b0c3,6544b0c3,eab6b0c3,4977503c,b688503c,92ee503c,6d11503c,0,1,1,0,1,0,1
65,65,0,3b06d0f503c92f0503cb687503c4978503ceaa7b0c3655cb0c31558b0c39aa3b0c3,9aa3b0c3,1558b0c3,655cb0c3,eaa7b0c3,4978503c,b687503c,92f0503c,6d0f503c,0,1,1,0,1,1,1
66,66,0,3b06d0d503c92f2503cb686503c4979503ceabab0c36542b0c31545b0c39abdb0c3,9abdb0c3,1545b0c3,6542b0c3,eabab0c3,4979503c,b686503c,92f2503c,6d0d503c,0,1,1,0,1,1,1
67,67,0,3a06d0b503c92f4503cb685503c497a503ceabcb0c36541b0c31543b0c39abeb0c3,9abeb0c3,1543b0c3,6541b0c3,eabcb0c3,497a503c,b685503c,92f4503c,6d0b503c,0,0,1,0,1,1,1
68,68,0,2a06d09503c92f6503cb684503c497b503ceaa1b0c36540b0c3155eb0c39abfb0c3,9abfb0c3,155eb0c3,6540b0c3,eaa1b0c3,497b503c,b684503c,92f6503c,6d09503c,0,0,1,0,1,0,1
69,69,0,2b06d07503c92f8503cb683503c497c503ceadfb0c3659fb0c31520b0c39a60b0c3,9a60b0c3,1520b0c3,659fb0c3,eadfb0c3,497c503c,b683503c,92f8503c,6d07503c,0,1,1,0,1,0,1
70,70,0,3b06d05503c92fa503cb682503c497d503ceaddb0c3659eb0c31522b0c39a61b0c3,9a61b0c3,1522b0c3,659eb0c3,eaddb0c3,497d503c,b682503c,92fa503c,6d05503c,0,1,1,0,1,1,1
71,71,0,3b06d03503c92fc503cb681503c497e503ceadbb0c3659db0c31524b0c39a62b0c3,9a62b0c3,1524b0c3,659db0c3,eadbb0c3,497e503c,b681503c,92fc503c,6d03503c,0,1,1,0,1,1,1
72,72,0,3a06d01503c92fe503cb680503c497f503ceac6b0c36583b0c31539b0c39a7cb0c3,9a7cb0c3,1539b0c3,6583b0c3,eac6b0c3,497f503c,b680503c,92fe503c,6d01503c,0,0,1,0,1,1,1
73,73,0,2a06cff503c9300503cb67f503c4980503cead7b0c3659bb0c31528b0c39a64b0c3,9a64b0c3,1528b0c3,659bb0c3,ead7b0c3,4980503c,b67f503c,9300503c,6cff503c,0,0,1,0,1,0,1
74,74,0,2b06cfd503c9302503cb67e503c4981503ceacab0c36585b0c31535b0c39a7ab0c3,9a7ab0c3,1535b0c3,6585b0c3,eacab0c3,4981503c,b67e503c,9302503c,6cfd503c,0,1,1,0,1,0,1
75,75,0,3b06cfb503c9304503cb67d503c4982503ceaccb0c36586b0c31533b0c39a79b0c3,9a79b0c3,1533b0c3,6586b0c3,eaccb0c3,4982503c,b67d503c,9304503c,6cfb503c,0,1,1,0,1,1,1
76,76,0,3b06cf9503c9306503cb67c503c4983503ceaceb0c36598b0c31531b0c39a67b0c3,9a67b0c3,1531b0c3,6598b0c3,eaceb0c3,4983503c,b67c503c,9306503c,6cf9503c,0,1,1,0,1,1,1
77,77,0,3a06cf7503c9308503cb67b503c4984503ceacfb0c36597b0c31530b0c39a68b0c3,9a68b0c3,1530b0c3,6597b0c3,eacfb0c3,4984503c,b67b503c,9308503c,6cf7503c,0,0,1,0,1,1,1
78,78,0,2a06cf5503c930a503cb67a503c4985503cead2b0c36589b0c3152db0c39a76b0c3,9a76b0c3,152db0c3,6589b0c3,ead2b0c3,4985503c,b67a503c,930a503c,6cf5503c,0,0,1,0,1,0,1
79,79,0,2b06cf3503c930c503cb679503c4986503cead4b0c3658ab0c3152bb0c39a75b0c3,9a75b0c3,152bb0c3,658ab0c3,ead4b0c3,4986503c,b679503c,930c503c,6cf3503c,0,1,1,0,1,0,1
80,80,0,3b06cf1503c930e503cb678503c4987503cead6b0c3658bb0c31529b0c39a74b0c3,9a74b0c3,1529b0c3,658bb0c3,ead6b0c3,4987503c,b678503c,930e503c,6cf1503c,0,1,1,0,1,1,1
81,81,0,3a06cef503c9310503cb677503c4988503ceac7b0c3658cb0c31538b0c39a73b0c3,9a73b0c3,1538b0c3,658cb0c3,eac7b0c3,4988503c,b677503c,9310503c,6cef503c,0,0,1,0,1,1,1
82,82,0,3a06ced503c9312503cb676503c4989503ceadab0c3658db0c31525b0c39a72b0c3,9a72b0c3,1525b0c3,658db0c3,eadab0c3,4989503c,b676503c,9312503c,6ced503c,0,0,1,0,1,1,1
83,83,0,2a06ceb503c9314503cb675503c498a503ceadcb0c3658eb0c31523b0c39a71b0c3,9a71b0c3,1523b0c3,658eb0c3,eadcb0c3,498a503c,b675503c,9314503c,6ceb503c,0,0,1,0,1,0,1
84,84,0,2b06ce9503c9316503cb674503c498b503ceac1b0c36590b0c3153eb0c39a6fb0c3,9a6fb0c3,153eb0c3,6590b0c3,eac1b0c3,498b503c,b674503c,9316503c,6ce9503c,0,1,1,0,1,0,1
85,85,0,3b06ce7503c9318503cb673503c498c503cea1fb0c3658fb0c315e0b0c39a70b0c3,9a70b0c3,15e0b0c3,658fb0c3,ea1fb0c3,498c503c,b673503c,9318503c,6ce7503c,0,1,1,0,1,1,1
86,86,0,3b06ce5503c931a503cb672503c498d503cea1db0c36591b0c315e2b0c39a6eb0c3,9a6eb0c3,15e2b0c3,6591b0c3,ea1db0c3,498d503c,b672503c,931a503c,6ce5503c,0,1,1,0,1,1,1
87,87,0,3a06ce3503c931c503cb671503c498e503cea1bb0c36592b0c315e4b0c39a6db0c3,9a6db0c3,15e4b0c3,6592b0c3,ea1bb0c3,498e503c,b671503c,931c503c,6ce3503c,0,0,1,0,1,1,1
88,88,0,2a06ce1503c931e503cb670503c498f503cea06b0c36593b0c315f9b0c39a6cb0c3,9a6cb0c3,15f9b0c3,6593b0c3,ea06b0c3,498f503c,b670503c,931e503c,6ce1503c,0,0,1,0,1,0,1
89,89,0,2b06cdf503c9320503cb66f503c4990503cea17b0c36594b0c315e8b0c39a6bb0c3,9a6bb0c3,15e8b0c3,6594b0c3,ea17b0c3,4990503c,b66f503c,9320503c,6cdf503c,0,1,1,0,1,0,1
90,90,0,3b06cdd503c9322503cb66e503c4991503cea0ab0c36595b0c315f5b0c39a6ab0c3,9a6ab0c3,15f5b0c3,6595b0c3,ea0ab0c3,4991503c,b66e503c,9322503c,6cdd503c,0,1,1,0,1,1,1
91,91,0,3b06cdb503c9324503cb66d503c4992503cea0cb0c36596b0c315f3b0c39a69b0c3,9a69b0c3,15f3b0c3,6596b0c3,ea0cb0c3,4992503c,b66d503c,9324503c,6cdb503c,0,1,1,0,1,1,1
92,92,0,3a06cd9503c9326503cb66c503c4993503cea0eb0c36588b0c315f1b0c39a77b0c3,9a77b0c3,15f1b0c3,6588b0c3,ea0eb0c3,4993503c,b66c503c,9326503c,6cd9503c,0,0,1,0,1,1,1
93,93,0,2a06cd7503c9328503cb66b503c4994503cea0fb0c36587b0c315f0b0c39a78b0c3,9a78b0c3,15f0b0c3,6587b0c3,ea0fb0c3,4994503c,b66b503c,9328503c,6cd7503c,0,0,1,0,1,0,1
94,94,0,2b06cd5503c932a503cb66a503c4995503cea12b0c36599b0c315edb0c39a66b0c3,9a66b0c3,15edb0c3,6599b0c3,ea12b0c3,4995503c,b66a503c,932a503c,6cd5503c,0,1,1,0,1,0,1
95,95,0,3b06cd3503c932c503cb669503c4996503cea14b0c3659ab0c315ebb0c39a65b0c3,9a65b0c3,15ebb0c3,659ab0c3,ea14b0c3,4996503c,b669503c,932c503c,6cd3503c,0,1,1,0,1,1,1
96,96,0,3a06cd1503c932e503cb668503c4997503cea16b0c36584b0c315e9b0c39a7bb0c3,9a7bb0c3,15e9b0c3,6584b0c3,ea16b0c3,4997503c,b668503c,932e503c,6cd1503c,0,0,1,0,1,1,1
97,97,0,3a06ccf503c9330503cb667503c4998503cea07b0c3659cb0c315f8b0c39a63b0c3,9a63b0c3,15f8b0c3,659cb0c3,ea07b0c3,4998503c,b667503c,9330503c,6ccf503c,0,0,1,0,1,1,1
98,98,0,2a06ccd503c9332503cb666503c4999503cea1ab0c36582b0c315e5b0c39a7db0c3,9a7db0c3,15e5b0c3,6582b0c3,ea1ab0c3,4999503c,b666503c,9332503c,6ccd503c,0,0,1,0,1,0,1
99,99,0,2b06ccb503c9334503cb665503c499a503cea1cb0c36581b0c315e3b0c39a7eb0c3,9a7eb0c3,15e3b0c3,6581b0c3,ea1cb0c3,499a503c,b665503c,9334503c,6ccb503c,0,1,1,0,1,0,1
100,100,0,3b06cc9503c9336503cb664503c499b503cea01b0c36580b0c315feb0c39a7fb0c3,9a7fb0c3,15feb0c3,6580b0c3,ea01b0c3,499b503c,b664503c,9336503c,6cc9503c,0,1,1,0,1,1,1
101,101,0,3a06cc7503c9338503cb663503c499c503cebffb0c3657fb0c31400b0c39a80b0c3,9a80b0c3,1400b0c3,657fb0c3,ebffb0c3,499c503c,b663503c,9338503c,6cc7503c,0,0,1,0,1,1,1
102,102,0,3a06cc5503c933a503cb662503c499d503cebfdb0c3657eb0c31402b0c39a81b0c3,9a81b0c3,1402b0c3,657eb0c3,ebfdb0c3,499d503c,b662503c,933a503c,6cc5503c,0,0,1,0,1,1,1
103,103,0,2a06cc3503c933c503cb661503c499e503cebfbb0c3657db0c31404b0c39a82b0c3,9a82b0c3,1404b0c3,657db0c3,ebfbb0c3,499e503c,b661503c,933c503c,6cc3503c,0,0,1,0,1,0,1
104,104,0,2b06cc1503c933e503cb660503c499f503cebe6b0c36563b0c31419b0c39a9cb0c3,9a9cb0c3,1419b0c3,6563b0c3,ebe6b0c3,499f503c,b660503c,933e503c,6cc1503c,0,1,1,0,1,0,1
105,105,0,3b06cbf503c9340503cb65f503c49a0503cebf7b0c3657bb0c31408b0c39a84b0c3,9a84b0c3,1408b0c3,657bb0c3,ebf7b0c3,49a0503c,b65f503c,9340503c,6cbf503c,0,1,1,0,1,1,1
106,106,0,3b06cbd503c9342503cb65e503c49a1503cebeab0c36565b0c31415b0c39a9ab0c3,9a9ab0c3,1415b0c3,6565b0c3,ebeab0c3,49a1503c,b65e503c,9342503c,6cbd503c,0,1,1,0,1,1,1
107,107,0,3a06cbb503c9344503cb65d503c49a2503cebecb0c36566b0c31413b0c39a99b0c3,9a99b0c3,1413b0c3,6566b0c3,ebecb0c3,49a2503c,b65d503c,9344503c,6cbb503c,0,0,1,0,1,1,1
108,108,0,2a06cb9503c9346503cb65c503c49a3503cebeeb0c36578b0c31411b0c39a87b0c3,9a87b0c3,1411b0c3,6578b0c3,ebeeb0c3,49a3503c,b65c503c,9346503c,6cb9503c,0,0,1,0,1,0,1
109,109,0,2b06cb7503c9348503cb65b503c49a4503cebefb0c36577b0c31410b0c39a88b0c3,9a88b0c3,1410b0c3,6577b0c3,ebefb0c3,49a4503c,b65b503c,9348503c,6cb7503c,0,1,1,0,1,0,1
110,110,0,3b06cb5503c934a503cb65a503c49a5503cebf2b0c36569b0c3140db0c39a96b0c3,9a96b0c3,140db0c3,6569b0c3,ebf2b0c3,49a5503c,b65a503c,934a503c,6cb5503c,0,1,1,0,1,1,1
111,111,0,3a06cb3503c934c503cb659503c49a6503cebf4b0c3656ab0c3140bb0c39a95b0c3,9a95b0c3,140bb0c3,656ab0c3,ebf4b0c3,49a6503c,b659503c,934c503c,6cb3503c,0,0,1,0,1,1,1
112,112,0,3a06cb1503c934e503cb658503c49a7503cebf6b0c3656bb0c31409b0c39a94b0c3,9a94b0c3,1409b0c3,656bb0c3,ebf6b0c3,49a7503c,b658503c,934e503c,6cb1503c,0,0,1,0,1,1,1
113,113,0,2a06caf503c9350503cb657503c49a8503cebe7b0c3656cb0c31418b0c39a93b0c3,9a93b0c3,1418b0c3,656cb0c3,ebe7b0c3,49a8503c,b657503c,9350503c,6caf503c,0,0,1,0,1,0,1
114,114,0,2b06cad503c9352503cb656503c49a9503cebfab0c3656db0c31405b0c39a92b0c3,9a92b0c3,1405b0c3,656db0c3,ebfab0c3,49a9503c,b656503c,9352503c,6cad503c,0,1,1,0,1,0,1
115,115,0,3b06cab503c9354503cb655503c49aa503cebfcb0c3656eb0c31403b0c39a91b0c3,9a91b0c3,1403b0c3,656eb0c3,ebfcb0c3,49aa503c,b655503c,9354503c,6cab503c,0,1,1,0,1,1,1
116,116,0,3a06ca9503c9356503cb654503c49ab503cebe1b0c36570b0c3141eb0c39a8fb0c3,9a8fb0c3,141eb0c3,6570b0c3,ebe1b0c3,49ab503c,b654503c,9356503c,6ca9503c,0,0,1,0,1,1,1
117,117,0,3a06ca7503c9358503cb653503c49ac503ceb3fb0c3656fb0c314c0b0c39a90b0c3,9a90b0c3,14c0b0c3,656fb0c3,eb3fb0c3,49ac503c,b653503c,9358503c,6ca7503c,0,0,1,0,1,1,1
118,118,0,2a06ca5503c935a503cb652503c49ad503ceb3db0c36571b0c314c2b0c39a8eb0c3,9a8eb0c3,14c2b0c3,6571b0c3,eb3db0c3,49ad503c,b652503c,935a503c,6ca5503c,0,0,1,0,1,0,1
119,119,0,2b06ca3503c935c503cb651503c49ae503ceb3bb0c36572b0c314c4b0c39a8db0c3,9a8db0c3,14c4b0c3,6572b0c3,eb3bb0c3,49ae503c,b651503c,935c503c,6ca3503c,0,1,1,0,1,0,1
