Sample in Buffer,Sample in Window,TRIGGER,ila_data[777:0],receiver_0[31:0],receiver_1[31:0],receiver_2[31:0],receiver_3[31:0],transmitter_0[31:0],transmitter_1[31:0],transmitter_2[31:0],transmitter_3[31:0],prbs_match_int[3:0],hb0_gtwiz_userclk_rx_usrclk2_int,hb0_gtwiz_userclk_rx_active_int,hb_gtwiz_reset_all_int,hb0_gtwiz_reset_rx_done_int,hb0_gtwiz_userclk_tx_usrclk2_int,hb0_gtwiz_userclk_tx_active_int,gtpowergood_int[3:0],rx8b10ben_int[3:0],rxlpmen_int[3:0],rxcommadeten_int[3:0],rxmcommaalignen_int[3:0],rxpcommaalignen_int[3:0],rxbyteisaligned_int[3:0],rxbyterealign_int[3:0],rxcommadet_int[3:0],rxpmaresetdone_int[3:0],tx8b10ben_int[3:0],txpmaresetdone_int[3:0],ch0_rxctrl0_int[15:0],ch1_rxctrl0_int[15:0],ch2_rxctrl0_int[15:0],ch3_rxctrl0_int[15:0],ch0_rxctrl1_int[15:0],ch1_rxctrl1_int[15:0],ch2_rxctrl1_int[15:0],ch3_rxctrl1_int[15:0],ch0_rxctrl2_int[7:0],ch1_rxctrl2_int[7:0],ch2_rxctrl2_int[7:0],ch3_rxctrl2_int[7:0],ch0_rxctrl3_int[7:0],ch1_rxctrl3_int[7:0],ch2_rxctrl3_int[7:0],ch3_rxctrl3_int[7:0],ch0_txctrl0_int[15:0],ch1_txctrl0_int[15:0],ch2_txctrl0_int[15:0],ch3_txctrl0_int[15:0],ch0_txctrl1_int[15:0],ch1_txctrl1_int[15:0],ch2_txctrl1_int[15:0],ch3_txctrl1_int[15:0],ch0_txctrl2_int[7:0],ch1_txctrl2_int[7:0],ch2_txctrl2_int[7:0],ch3_txctrl2_int[7:0],hb0_rxdata_nml_ctr[39:0],ch0_rxdata_err_ctr[15:0],ch1_rxdata_err_ctr[15:0],ch2_rxdata_err_ctr[15:0],ch3_rxdata_err_ctr[15:0]
Radix - UNSIGNED,UNSIGNED,UNSIGNED,HEX,HEX,HEX,HEX,HEX,HEX,HEX,HEX,HEX,HEX,HEX,HEX,HEX,HEX,HEX,HEX,HEX,HEX,HEX,HEX,HEX,HEX,HEX,HEX,HEX,HEX,HEX,HEX,HEX,HEX,HEX,HEX,HEX,HEX,HEX,HEX,HEX,HEX,HEX,HEX,HEX,HEX,HEX,HEX,HEX,HEX,HEX,HEX,HEX,HEX,HEX,HEX,HEX,HEX,HEX,HEX,HEX,HEX,HEX,HEX,HEX
0,0,0,21cc9161f60348d4409c44b09380000000000000000000000000000000000000003c3fbc3c00000000000000038000400000000003800000003ffc03fffc3fc03b9fc29b422fc29b422fc29b422fc29b4227255624822a5181d76e05ea2b1f018ff,b1f018ff,76e05ea2,22a5181d,72556248,fc29b422,fc29b422,fc29b422,fc29b422,9,1,1,0,1,1,1,f,f,0,f,f,f,f,0,0,f,f,f,0000,0000,000e,0000,0000,0001,000e,0000,00,00,00,00,f0,f0,fe,f0,0000,0000,0000,0000,0000,0000,0000,0000,00,00,00,00,027112c24e,2351,d80d,4587,8732
1,1,0,21cc9163b60508d4409c44b09580000000000000000000000000000000000000003c3c3dbc00000000000000020000400000000000000300003ffc03fffc3fc02a91d2a68e71d2a68e71d2a68e71d2a68e7b17db26266b99fa87c3b2e632c56fde8,2c56fde8,7c3b2e63,66b99fa8,b17db262,1d2a68e7,1d2a68e7,1d2a68e7,1d2a68e7,9,0,1,0,1,0,1,f,f,0,f,f,f,f,0,0,f,f,f,0000,000c,0000,0000,0000,0001,0008,0000,00,00,00,00,f0,f6,f0,f0,0000,0000,0000,0000,0000,0000,0000,0000,00,00,00,00,027112c256,2351,d814,458e,8732
2,2,0,21cc9165b60708d4409c44b09780000000000000000000000000000000000000003c3c3f3c00000000000000000003800000000000000100003ffc03fffc3fc02a92d5ab8952d5ab8952d5ab8952d5ab8953b187fa57842769ad0b5ebd611c247d7,11c247d7,d0b5ebd6,7842769a,3b187fa5,2d5ab895,2d5ab895,2d5ab895,2d5ab895,9,0,1,0,1,0,1,f,f,0,f,f,f,f,0,0,f,f,f,0000,0004,0000,0000,0000,000e,0000,0000,00,00,00,00,f0,fc,f0,f0,0000,0000,0000,0000,0000,0000,0000,0000,00,00,00,00,027112c25e,2351,d81c,4596,8732
3,3,0,21cc9167b60908d4409c44b09980000000000000000000000000000000000000003c3c3c3c00000000000000000000400000000000000000003ffc03fffc3fc03a9e855ad7be855ad7be855ad7be855ad7b3906a0577a4c1780f4506b6c70ecc5d1,70ecc5d1,f4506b6c,7a4c1780,3906a057,e855ad7b,e855ad7b,e855ad7b,e855ad7b,9,0,1,0,1,1,1,f,f,0,f,f,f,f,0,0,f,f,f,0000,0000,0000,0000,0000,0001,0000,0000,00,00,00,00,f0,f0,f0,f0,0000,0000,0000,0000,0000,0000,0000,0000,00,00,00,00,027112c266,2351,d824,459e,8732
4,4,0,21cc9169b60b08d4409c44b09b80000000000000000000000000000000000000003c3d3e3c00000000000000000000800000000000000000003ffc03fffc3fc03b92f47f1c72f47f9c72f47f9c73f47d9c7190a3caf830afd5df3715704d5086648,d5086648,f3715704,830afd5d,190a3caf,3f47d9c7,2f47f9c7,2f47f9c7,2f47f1c7,9,1,1,0,1,1,1,f,f,0,f,f,f,f,0,0,f,f,f,0000,0000,0000,0000,0000,0002,0000,0000,00,00,00,00,f0,f8,f4,f0,0000,0000,0000,0000,0000,0000,0000,0000,00,00,00,00,027112c26e,2351,d82c,45a6,8732
5,5,0,21cc916bb60d48d4409c44b09d40000000000000000000000000000000000000003c3c3fbc00000000000000020001400000000000000180003ffc03fffc3fc03b907d4cbca07d4cbca07d4cbca07d4cbca2f445be57afac544a2aac8955aa997b3,5aa997b3,a2aac895,7afac544,2f445be5,07d4cbca,07d4cbca,07d4cbca,07d4cbca,9,1,1,0,1,1,1,f,f,0,f,f,f,f,0,0,f,f,f,0000,0006,0000,0000,0000,0005,0008,0000,00,00,00,00,f0,fe,f0,f0,0000,0000,0000,0000,0000,0000,0000,0000,00,00,00,00,027112c275,2351,d835,45ae,8732
6,6,0,21cc916d760ec8d4409c44b09f40000000000000000000000000000000000000003c3c3e3c00000000000000000002800000000000000000003ffc03fffc3fc02a9c590fd92c590fd92c590fd92c590fd9216792c1776a935a73c3f8a7b25a4fb35,25a4fb35,3c3f8a7b,76a935a7,16792c17,c590fd92,c590fd92,c590fd92,c590fd92,9,0,1,0,1,0,1,f,f,0,f,f,f,f,0,0,f,f,f,0000,0000,0000,0000,0000,000a,0000,0000,00,00,00,00,f0,f8,f0,f0,0000,0000,0000,0000,0000,0000,0000,0000,00,00,00,00,027112c27d,2351,d83b,45b5,8732
7,7,0,21cc916f7610c8d4409c44b0a140000000000000000000000000000000000000003c3c3c3c00000000000000000000000000000000000000003ffc03fffc3fc02a9f154e1edf154e1edf154e1edf154e1edef4d7de668df25645d708781a6ad96d2,a6ad96d2,5d708781,68df2564,ef4d7de6,f154e1ed,f154e1ed,f154e1ed,f154e1ed,9,0,1,0,1,0,1,f,f,0,f,f,f,f,0,0,f,f,f,0000,0000,0000,0000,0000,0000,0000,0000,00,00,00,00,f0,f0,f0,f0,0000,0000,0000,0000,0000,0000,0000,0000,00,00,00,00,027112c285,2351,d843,45bd,8732
8,8,0,21cc91717612c8d4409c44b0a340000000000000000000000000000000000000003c3cbc3c00000000000000018002000000000001800000003ffc03fffc3fc03a9904e6a09904e6a09904e6a09904e6a098bbd245010fb24c58146b9cc929abf92,929abf92,8146b9cc,10fb24c5,8bbd2450,904e6a09,904e6a09,904e6a09,904e6a09,9,0,1,0,1,1,1,f,f,0,f,f,f,f,0,0,f,f,f,0000,0000,0006,0000,0000,0008,0006,0000,00,00,00,00,f0,f0,f2,f0,0000,0000,0000,0000,0000,0000,0000,0000,00,00,00,00,027112c28d,2351,d84b,45c5,8732
9,9,0,21cc91737614c8d4409c44b0a540000000000000000000000000000000000000003c3c7c3c00000000000000000000800000000000000000003ffc03fffc3fc03b92eb295c52ef395c52eb395c522b39dcebce69f9c7b7700e37d65e4c1ffee6dcb,ffee6dcb,7d65e4c1,7b7700e3,bce69f9c,22b39dce,2eb395c5,2ef395c5,2eb295c5,9,1,1,0,1,1,1,f,f,0,f,f,f,f,0,0,f,f,f,0000,0000,0000,0000,0000,0002,0000,0000,00,00,00,00,f0,f0,f1,f0,0000,0000,0000,0000,0000,0000,0000,0000,00,00,00,00,027112c295,2351,d853,45cd,8732
10,10,0,21cc9175361688d4409c44b0a700000000000000000000000000000000000000003c3e3c3c00000000000000020000000000000002800000003ffc03fffc3fc03b91b2a30a71b2a30a71b2a30a71b2a30a74935b621869bf7ac065e957f8ff67f8d,8ff67f8d,065e957f,869bf7ac,4935b621,1b2a30a7,1b2a30a7,1b2a30a7,1b2a30a7,9,1,1,0,1,1,1,f,f,0,f,f,f,f,0,0,f,f,f,0000,0000,000a,0000,0000,0000,0008,0000,00,00,00,00,f0,f0,f8,f0,0000,0000,0000,0000,0000,0000,0000,0000,00,00,00,00,027112c29c,2351,d85a,45d4,8732
11,11,0,21cc9177361888d4409c44b0a900000000000000000000000000000000000000003c3c3c3c00000000000000020001800000000000000080003ffc03fffc3fc02a9ca3c9169ca3c9169ca3c9169ca3c9169fd40b5c4692dfb1fc9021cb71e8bae41,1e8bae41,c9021cb7,692dfb1f,fd40b5c4,ca3c9169,ca3c9169,ca3c9169,ca3c9169,9,0,1,0,1,0,1,f,f,0,f,f,f,f,0,0,f,f,f,0000,0002,0000,0000,0000,0006,0008,0000,00,00,00,00,f0,f0,f0,f0,0000,0000,0000,0000,0000,0000,0000,0000,00,00,00,00,027112c2a4,2351,d862,45dc,8732
12,12,0,21cc9179361a88d4409c44b0ab00000000000000000000000000000000000000003c3d7cfc000000000000000100024000000000004002c0003ffc03fffc3fc02a96477bd336477bd336477bd336477bd33a089110b65c23537dc7d285d05b3e66a,05b3e66a,dc7d285d,65c23537,a089110b,6477bd33,6477bd33,6477bd33,6477bd33,9,0,1,0,1,0,1,f,f,0,f,f,f,f,0,0,f,f,f,0000,000b,0001,0000,0000,0009,0004,0000,00,00,00,00,f0,f3,f5,f0,0000,0000,0000,0000,0000,0000,0000,0000,00,00,00,00,027112c2ac,2351,d86a,45e4,8732
13,13,0,21cc917b361c88d4409c44b0ad00000000000000000000000000000000000000003c3c7e3c00000000000000004000400000000000400000003ffc03fffc3fc03a95118d2f75118d2f75118d2f75118d2f790ec9084af637b8c636a460f6e877eb5,6e877eb5,636a460f,af637b8c,90ec9084,5118d2f7,5118d2f7,5118d2f7,5118d2f7,9,0,1,0,1,1,1,f,f,0,f,f,f,f,0,0,f,f,f,0000,0000,0001,0000,0000,0001,0001,0000,00,00,00,00,f0,f8,f1,f0,0000,0000,0000,0000,0000,0000,0000,0000,00,00,00,00,027112c2b4,2351,d872,45ec,8732
14,14,0,21cc917d361e88d4409c44b0af00000000000000000000000000000000000000003c3f3f7c00000000000000020002800000000000000140003ffc03fffc3fc03b912cdfc8e92ccfc8e92ccfc8ebeccfc8663c5cfbfa6cb4638911889c7bee86dda,bee86dda,911889c7,a6cb4638,63c5cfbf,beccfc86,92ccfc8e,92ccfc8e,12cdfc8e,9,1,1,0,1,1,1,f,f,0,f,f,f,f,0,0,f,f,f,0000,0005,0000,0000,0000,000a,0008,0000,00,00,00,00,f0,fd,fc,f0,0000,0000,0000,0000,0000,0000,0000,0000,00,00,00,00,027112c2bc,2351,d87a,45f4,8732
15,15,0,21cc917f7620c8d4409c44b0b0c0000000000000000000000000000000000000003c3c3c7c00000000000000010003000000000000800000003ffc03fffc3fc03b9cf6a4c80cf6a4c80cf6a4c80cf6a4c8001fcd5faaa0ffdfa76e4aabbaf1e585d,af1e585d,76e4aabb,aa0ffdfa,01fcd5fa,cf6a4c80,cf6a4c80,cf6a4c80,cf6a4c80,9,1,1,0,1,1,1,f,f,0,f,f,f,f,0,0,f,f,f,0000,0000,0002,0000,0000,000c,0004,0000,00,00,00,00,f0,f1,f0,f0,0000,0000,0000,0000,0000,0000,0000,0000,00,00,00,00,027112c2c3,2351,d883,45fd,8732
16,16,0,21cc9180f62248d4409c44b0b2c0000000000000000000000000000000000000003c3c3d3c00000000000000004000000000000000000000003ffc03fffc3fc02a9ec8ce8c4ec8ce8c4ec8ce8c4ec8ce8c40de05b7753da56761f3ac14749d1d7f3,49d1d7f3,1f3ac147,53da5676,0de05b77,ec8ce8c4,ec8ce8c4,ec8ce8c4,ec8ce8c4,9,0,1,0,1,0,1,f,f,0,f,f,f,f,0,0,f,f,f,0000,0000,0000,0000,0000,0000,0001,0000,00,00,00,00,f0,f4,f0,f0,0000,0000,0000,0000,0000,0000,0000,0000,00,00,00,00,027112c2cb,2351,d889,4603,8732
17,17,0,21cc9182f62448d4409c44b0b4c0000000000000000000000000000000000000003c3c3f3c00000000000000000002000000000000000000003ffc03fffc3fc02a9f9623606f9623606f9623606f96236064523c857698a59f04f566498493c2751,493c2751,4f566498,698a59f0,4523c857,f9623606,f9623606,f9623606,f9623606,9,0,1,0,1,0,1,f,f,0,f,f,f,f,0,0,f,f,f,0000,0000,0000,0000,0000,0008,0000,0000,00,00,00,00,f0,fc,f0,f0,0000,0000,0000,0000,0000,0000,0000,0000,00,00,00,00,027112c2d3,2351,d891,460b,8732
18,18,0,21cc9184f62648d4409c44b0b6c0000000000000000000000000000000000000003c3e3c3c00000000000000000003000000000000000140003ffc03fffc3fc03a92fde5a552fde5a552fde5a552fde5a55e786fb6676e99aa7e09c87fb2244edfa,2244edfa,e09c87fb,76e99aa7,e786fb66,2fde5a55,2fde5a55,2fde5a55,2fde5a55,9,0,1,0,1,1,1,f,f,0,f,f,f,f,0,0,f,f,f,0000,0005,0000,0000,0000,000c,0000,0000,00,00,00,00,f0,f0,f8,f0,0000,0000,0000,0000,0000,0000,0000,0000,00,00,00,00,027112c2db,2351,d899,4613,8732
19,19,0,21cc9186f62848d4409c44b0b8c0000000000000000000000000000000000000003c3dfdfc000000000000000100014000000000010000c0003ffc03fffc3fc03b9c5292ed4453d2ed4453d3ed4653d16d566545df76029e9d0e73e6af2be5c5cfe,be5c5cfe,e73e6af2,6029e9d0,66545df7,653d16d5,453d3ed4,453d2ed4,c5292ed4,9,1,1,0,1,1,1,f,f,0,f,f,f,f,0,0,f,f,f,0000,0003,0004,0000,0000,0005,0004,0000,00,00,00,00,f0,f7,f7,f0,0000,0000,0000,0000,0000,0000,0000,0000,00,00,00,00,027112c2e3,2351,d8a1,461b,8732
20,20,0,21cc9188f62a48d4409c44b0ba80000000000000000000000000000000000000003c3c3c3c00000000000000000000400000000000000000003ffc03fffc3fc03b94f47c8c54f47c8c54f47c8c54f47c8c526ddff5ce6bf77e0f04a3878aefcdfa4,aefcdfa4,f04a3878,e6bf77e0,26ddff5c,4f47c8c5,4f47c8c5,4f47c8c5,4f47c8c5,9,1,1,0,1,1,1,f,f,0,f,f,f,f,0,0,f,f,f,0000,0000,0000,0000,0000,0001,0000,0000,00,00,00,00,f0,f0,f0,f0,0000,0000,0000,0000,0000,0000,0000,0000,00,00,00,00,027112c2ea,2351,d8a9,4623,8732
21,21,0,21cc918ab62c08d4409c44b0bc80000000000000000000000000000000000000003c3c3dbc00000000000000010002000000000001000000003ffc03fffc3fc02a9a218df26a218df26a218df26a218df26f525fda43c1cc91a84bd3a987a3f5ef7,7a3f5ef7,84bd3a98,3c1cc91a,f525fda4,a218df26,a218df26,a218df26,a218df26,9,0,1,0,1,0,1,f,f,0,f,f,f,f,0,0,f,f,f,0000,0000,0004,0000,0000,0008,0004,0000,00,00,00,00,f0,f6,f0,f0,0000,0000,0000,0000,0000,0000,0000,0000,00,00,00,00,027112c2f2,2351,d8b0,462a,8732
22,22,0,21cc918cb62e08d4409c44b0be80000000000000000000000000000000000000003c3c3c3c00000000000000000000000000000000000000003ffc03fffc3fc02a9258ffabe258ffabe258ffabe258ffabe723584f50f23962c1b5fa6bf61c665ca,61c665ca,1b5fa6bf,0f23962c,723584f5,258ffabe,258ffabe,258ffabe,258ffabe,9,0,1,0,1,0,1,f,f,0,f,f,f,f,0,0,f,f,f,0000,0000,0000,0000,0000,0000,0000,0000,00,00,00,00,f0,f0,f0,f0,0000,0000,0000,0000,0000,0000,0000,0000,00,00,00,00,027112c2fa,2351,d8b8,4632,8732
23,23,0,21cc918eb63008d4409c44b0c080000000000000000000000000000000000000003c3c3e3c00000000000000004000400000000000000000003ffc03fffc3fc03a92bba8d0e2bba8d0e2bba8d0e2bba8d0e544bafb105ed1bfbde983621109e92dc,109e92dc,de983621,05ed1bfb,544bafb1,2bba8d0e,2bba8d0e,2bba8d0e,2bba8d0e,9,0,1,0,1,1,1,f,f,0,f,f,f,f,0,0,f,f,f,0000,0000,0000,0000,0000,0001,0001,0000,00,00,00,00,f0,f8,f0,f0,0000,0000,0000,0000,0000,0000,0000,0000,00,00,00,00,027112c302,2351,d8c0,463a,8732
24,24,0,21cc9190b63208d4409c44b0c280000000000000000000000000000000000000003c3c3c3c00000000000000020002000000000000000000003ffc03fffc3fc03b99b497cd21b0d7cd21b4d7cd23f4d54da121c24e876e992a989753d9f31373e88,31373e88,89753d9f,76e992a9,121c24e8,3f4d54da,1b4d7cd2,1b0d7cd2,9b497cd2,9,1,1,0,1,1,1,f,f,0,f,f,f,f,0,0,f,f,f,0000,0000,0000,0000,0000,0008,0008,0000,00,00,00,00,f0,f0,f0,f0,0000,0000,0000,0000,0000,0000,0000,0000,00,00,00,00,027112c30a,2351,d8c8,4642,8732
25,25,0,21cc9192f63648d4409c44b0c440000000000000000000000000000000000000003c3c3c3c00000000000000000000400000000000000080003ffc03fffc3fc03b91a688a5c1a688a5c1a688a5c1a688a5c40d0154745cf2bd7a024f7115b9af408,5b9af408,a024f711,45cf2bd7,40d01547,1a688a5c,1a688a5c,1a688a5c,1a688a5c,9,1,1,0,1,1,1,f,f,0,f,f,f,f,0,0,f,f,f,0000,0002,0000,0000,0000,0001,0000,0000,00,00,00,00,f0,f0,f0,f0,0000,0000,0000,0000,0000,0000,0000,0000,00,00,00,00,027112c311,2351,d8d9,464b,8732
26,26,0,21cc91947635c8d4409c44b0c640000000000000000000000000000000000000003c3c7e3c0000000000000001c001400000000000400200003ffc03fffc3fc02a93888a5013888a5013888a5013888a501ac25dbe280efe0aa50416238a32f4fb0,a32f4fb0,50416238,80efe0aa,ac25dbe2,3888a501,3888a501,3888a501,3888a501,9,0,1,0,1,0,1,f,f,0,f,f,f,f,0,0,f,f,f,0000,0008,0001,0000,0000,0005,0007,0000,00,00,00,00,f0,f8,f1,f0,0000,0000,0000,0000,0000,0000,0000,0000,00,00,00,00,027112c319,2351,d8d7,4651,8732
27,27,0,21cc91967637c8d4409c44b0c840000000000000000000000000000000000000003c3dbcbc00000000000000010000800000000001000000003ffc03fffc3fc02a940f4507540f4507540f4507540f45075ec7c95943daa722c03253dfb47067c6c,47067c6c,03253dfb,3daa722c,ec7c9594,40f45075,40f45075,40f45075,40f45075,9,0,1,0,1,0,1,f,f,0,f,f,f,f,0,0,f,f,f,0000,0000,0004,0000,0000,0002,0004,0000,00,00,00,00,f0,f2,f6,f0,0000,0000,0000,0000,0000,0000,0000,0000,00,00,00,00,027112c321,2351,d8df,4659,8732
28,28,0,21cc91987639c8d4409c44b0ca40000000000000000000000000000000000000003c3c3c7c0000000000000000c000400000000000000000003ffc03fffc3fc03a9c635996dc635996dc635996dc635996dd415ff06b69a7f1f21bdf01258b45f8c,58b45f8c,21bdf012,b69a7f1f,d415ff06,c635996d,c635996d,c635996d,c635996d,9,0,1,0,1,1,1,f,f,0,f,f,f,f,0,0,f,f,f,0000,0000,0000,0000,0000,0001,0003,0000,00,00,00,00,f0,f1,f0,f0,0000,0000,0000,0000,0000,0000,0000,0000,00,00,00,00,027112c329,2351,d8e7,4661,8732
29,29,0,21cc919a763bc8d4409c44b0cc40000000000000000000000000000000000000003c3cbc3c00000000000000020003000000000000000000003ffc03fffc3fc03b954baa8b3d4bfa8b3d4bfa0b3c0bfa0b92dbfb2a573193c159a5b30d9389dff48,389dff48,9a5b30d9,73193c15,2dbfb2a5,c0bfa0b9,d4bfa0b3,d4bfa8b3,54baa8b3,9,1,1,0,1,1,1,f,f,0,f,f,f,f,0,0,f,f,f,0000,0000,0000,0000,0000,000c,0008,0000,00,00,00,00,f0,f0,f2,f0,0000,0000,0000,0000,0000,0000,0000,0000,00,00,00,00,027112c331,2351,d8ef,4669,8732
30,30,0,21cc919c763dc8d4409c44b0ce00000000000000000000000000000000000000003c3c3c3c00000000000000000000800000000000000000003ffc03fffc3fc03b986145fed86145fed86145fed86145fed584d2741d2272af54c70f6e1e65dbe2b,e65dbe2b,4c70f6e1,d2272af5,584d2741,86145fed,86145fed,86145fed,86145fed,9,1,1,0,1,1,1,f,f,0,f,f,f,f,0,0,f,f,f,0000,0000,0000,0000,0000,0002,0000,0000,00,00,00,00,f0,f0,f0,f0,0000,0000,0000,0000,0000,0000,0000,0000,00,00,00,00,027112c338,2351,d8f7,4671,8732
31,31,0,21cc919e363f88d4409c44b0d000000000000000000000000000000000000000003c3c3c3c00000000000000004000000000000001000040003ffc03fffc3fc02a94ced7e574ced7e574ced7e574ced7e5732fa0cf326f7b57a93756e5cf5ad5949,f5ad5949,93756e5c,26f7b57a,32fa0cf3,4ced7e57,4ced7e57,4ced7e57,4ced7e57,9,0,1,0,1,0,1,f,f,0,f,f,f,f,0,0,f,f,f,0000,0001,0004,0000,0000,0000,0001,0000,00,00,00,00,f0,f0,f0,f0,0000,0000,0000,0000,0000,0000,0000,0000,00,00,00,00,027112c340,2351,d8fe,4678,8732
32,32,0,21cc91a0364188d4409c44b0d200000000000000000000000000000000000000003c3c3c3c00000000000000010000800000000000000000003ffc03fffc3fc02a983f485b083f485b083f485b083f485b043605cbacb7643d610fd64c8ca79d469,ca79d469,10fd64c8,cb7643d6,43605cba,83f485b0,83f485b0,83f485b0,83f485b0,9,0,1,0,1,0,1,f,f,0,f,f,f,f,0,0,f,f,f,0000,0000,0000,0000,0000,0002,0004,0000,00,00,00,00,f0,f0,f0,f0,0000,0000,0000,0000,0000,0000,0000,0000,00,00,00,00,027112c348,2351,d906,4680,8732
33,33,0,21cc91a2364388d4409c44b0d400000000000000000000000000000000000000003c3c3c3c00000000000000000002000000000000000000003ffc03fffc3fc03a9f546fe06f546fe06f546fe06f546fe065cc54bcadf251f7d696c13f4b4510ea6,b4510ea6,696c13f4,df251f7d,5cc54bca,f546fe06,f546fe06,f546fe06,f546fe06,9,0,1,0,1,1,1,f,f,0,f,f,f,f,0,0,f,f,f,0000,0000,0000,0000,0000,0008,0000,0000,00,00,00,00,f0,f0,f0,f0,0000,0000,0000,0000,0000,0000,0000,0000,00,00,00,00,027112c350,2351,d90e,4688,8732
34,34,0,21cc91a4364588d4409c44b0d600000000000000000000000000000000000000003c3d3cbc00000000000000020000000000000002000000003ffc03fffc3fc03b90d076e158d426e158d027e15a902561de9fe1577b555f87db6631deb77f0a492,77f0a492,b6631deb,b555f87d,e9fe1577,a902561d,8d027e15,8d426e15,0d076e15,9,1,1,0,1,1,1,f,f,0,f,f,f,f,0,0,f,f,f,0000,0000,0008,0000,0000,0000,0008,0000,00,00,00,00,f0,f2,f4,f0,0000,0000,0000,0000,0000,0000,0000,0000,00,00,00,00,027112c358,2351,d916,4690,8732
35,35,0,21cc91a67647c8d4409c44b0d7c0000000000000000000000000000000000000003c3c3c3c00000000000000008000400000000000000000003ffc03fffc3fc03b94bf1dc0c4bf1dc0c4bf1dc0c4bf1dc0c0064f7f828a90610d1e337053fcbcb7c,3fcbcb7c,d1e33705,28a90610,0064f7f8,4bf1dc0c,4bf1dc0c,4bf1dc0c,4bf1dc0c,9,1,1,0,1,1,1,f,f,0,f,f,f,f,0,0,f,f,f,0000,0000,0000,0000,0000,0001,0002,0000,00,00,00,00,f0,f0,f0,f0,0000,0000,0000,0000,0000,0000,0000,0000,00,00,00,00,027112c35f,2351,d91f,4699,8732
36,36,0,21cc91a7f64948d4409c44b0d9c0000000000000000000000000000000000000003c3c3c3c00000000000000000003000000000000000000003ffc03fffc3fc02a9080c021a080c021a080c021a080c021abc3450740564493b669f442e8a2692c2,8a2692c2,669f442e,0564493b,bc345074,080c021a,080c021a,080c021a,080c021a,9,0,1,0,1,0,1,f,f,0,f,f,f,f,0,0,f,f,f,0000,0000,0000,0000,0000,000c,0000,0000,00,00,00,00,f0,f0,f0,f0,0000,0000,0000,0000,0000,0000,0000,0000,00,00,00,00,027112c367,2351,d925,469f,8732
37,37,0,21cc91a9f64b48d4409c44b0dbc0000000000000000000000000000000000000003c3c3c7c00000000000000000001400000000000000040003ffc03fffc3fc02a9678ecd2e678ecd2e678ecd2e678ecd2eb765596d87e6192d2c718a9cdf3b06df,df3b06df,2c718a9c,87e6192d,b765596d,678ecd2e,678ecd2e,678ecd2e,678ecd2e,9,0,1,0,1,0,1,f,f,0,f,f,f,f,0,0,f,f,f,0000,0001,0000,0000,0000,0005,0000,0000,00,00,00,00,f0,f1,f0,f0,0000,0000,0000,0000,0000,0000,0000,0000,00,00,00,00,027112c36f,2351,d92d,46a7,8732
38,38,0,21cc91abf64d48d4409c44b0ddc0000000000000000000000000000000000000003c3cbf3c00000000000000020000000000000002000000003ffc03fffc3fc03a92fd804882fd804882fd804882fd80488ff739c791cf6557deb6ae0bdcfb10804,cfb10804,eb6ae0bd,1cf6557d,ff739c79,2fd80488,2fd80488,2fd80488,2fd80488,9,0,1,0,1,1,1,f,f,0,f,f,f,f,0,0,f,f,f,0000,0000,0008,0000,0000,0000,0008,0000,00,00,00,00,f0,fc,f2,f0,0000,0000,0000,0000,0000,0000,0000,0000,00,00,00,00,027112c377,2351,d935,46af,8732
