Sample in Buffer,Sample in Window,TRIGGER,ila_data[513:0],userdata_rx_0[31:0],receiver_0[31:0],userdata_rx_1[31:0],receiver_1[31:0],userdata_rx_2[31:0],receiver_2[31:0],userdata_rx_3[31:0],receiver_3[31:0],userdata_tx_0[31:0],transmitter_0[31:0],userdata_tx_1[31:0],transmitter_1[31:0],userdata_tx_2[31:0],transmitter_2[31:0],userdata_tx_3[31:0],transmitter_3[31:0],prbs_match_int[3:0],hb0_gtwiz_userclk_rx_usrclk2_int,ch0_rxctrl0_int[15:0],hb0_gtwiz_userclk_rx_active_int,hb_gtwiz_reset_all_int,hb0_gtwiz_reset_rx_done_int,hb0_gtwiz_userclk_tx_usrclk2_int,hb0_gtwiz_userclk_tx_active_int,gtwiz_userclk_tx_reset_int,gtwiz_userclk_tx_usrclk_int,gtwiz_userclk_tx_usrclk2_int,gtwiz_userclk_tx_active_int,gtwiz_userclk_rx_reset_int,gtwiz_userclk_rx_usrclk_int,gtwiz_userclk_rx_usrclk2_int,gtwiz_userclk_rx_active_int,drpaddr_int[35:0],ch1_rxctrl0_int[15:0],ch2_rxctrl0_int[15:0],ch3_rxctrl0_int[15:0],drpclk_int[3:0],drpdi_int[3:0],drpen_int[3:0],drpwe_int[3:0],ch0_rxctrl1_int[15:0],eyescanreset_int[3:0],rx8b10ben_int[3:0],rxcommadeten_int[3:0],rxlpmen_int[3:0],ch1_rxctrl1_int[15:0],rxmcommaalignen_int[3:0],rxpcommaalignen_int[3:0],rxrate_int[11:0],ch2_rxctrl1_int[15:0],tx8b10ben_int[3:0],txdiffctrl_int[15:0],ch3_rxctrl1_int[15:0],txpostcursor_int[19:0],ch0_rxctrl2_int[7:0],ch1_rxctrl2_int[7:0],txprecursor_int[19:0],ch2_rxctrl2_int[7:0],ch3_rxctrl2_int[7:0],ch0_rxctrl3_int[7:0],drpdo_int[63:0],ch1_rxctrl3_int[7:0],ch2_rxctrl3_int[7:0],ch3_rxctrl3_int[7:0],ch0_txctrl0_int[15:0],ch1_txctrl0_int[15:0],ch2_txctrl0_int[15:0],drprdy_int[3:0],gtpowergood_int[3:0],rxbyteisaligned_int[3:0],rxbyterealign_int[3:0],rxcommadet_int[3:0],rxpmaresetdone_int[3:0],txpmaresetdone_int[3:0]
Radix - UNSIGNED,UNSIGNED,UNSIGNED,HEX,HEX,HEX,HEX,HEX,HEX,HEX,HEX,HEX,HEX,HEX,HEX,HEX,HEX,HEX,HEX,HEX,HEX,HEX,HEX,HEX,HEX,HEX,HEX,HEX,HEX,HEX,HEX,HEX,HEX,HEX,HEX,HEX,HEX,HEX,HEX,HEX,HEX,HEX,HEX,HEX,HEX,HEX,HEX,HEX,HEX,HEX,HEX,HEX,HEX,HEX,HEX,HEX,HEX,HEX,HEX,HEX,HEX,HEX,HEX,HEX,HEX,HEX,HEX,HEX,HEX,HEX,HEX,HEX,HEX,HEX,HEX,HEX,HEX,HEX
0,0,0,3fc03fc0000000000000000000000000033333c003ffffc00030160b0582fbbb0b41d503c4be2503cda0e503c25f1503c149fb0c39a2fb0c3eb60b0c365d0b0c3,65d0b0c3,65d0b0c3,eb60b0c3,eb60b0c3,9a2fb0c3,9a2fb0c3,149fb0c3,149fb0c3,25f1503c,25f1503c,da0e503c,da0e503c,4be2503c,4be2503c,b41d503c,b41d503c,0,1,fbbb,1,0,1,1,1,0,1,1,1,0,1,1,1,0582c160b,0582,160b,0030,c,0,0,0,ffc0,0,f,f,f,03ff,f,f,000,33c0,f,cccc,0333,00000,00,00,00000,00,00,00,0000000000000000,00,00,00,0000,0000,3fc0,0,f,f,0,0,f,f
1,1,0,3fc03fc0000000000000000000000000033333c003ffffc00030160b0582fa2b0b41b503c4be4503cda0d503c25f2503c149db0c39a31b0c3eb62b0c365ceb0c3,65ceb0c3,65ceb0c3,eb62b0c3,eb62b0c3,9a31b0c3,9a31b0c3,149db0c3,149db0c3,25f2503c,25f2503c,da0d503c,da0d503c,4be4503c,4be4503c,b41b503c,b41b503c,0,1,fa2b,1,0,1,0,1,0,0,0,1,0,1,1,1,0582c160b,0582,160b,0030,c,0,0,0,ffc0,0,f,f,f,03ff,f,f,000,33c0,f,cccc,0333,00000,00,00,00000,00,00,00,0000000000000000,00,00,00,0000,0000,3fc0,0,f,f,0,0,f,f
2,2,0,3fc03fc0000000000000000000000000033333c003ffffc00030160b0582e22a0b419503c4be6503cda0c503c25f3503c149bb0c39a32b0c3eb64b0c365cdb0c3,65cdb0c3,65cdb0c3,eb64b0c3,eb64b0c3,9a32b0c3,9a32b0c3,149bb0c3,149bb0c3,25f3503c,25f3503c,da0c503c,da0c503c,4be6503c,4be6503c,b419503c,b419503c,0,0,e22a,1,0,1,0,1,0,0,0,1,0,0,0,1,0582c160b,0582,160b,0030,c,0,0,0,ffc0,0,f,f,f,03ff,f,f,000,33c0,f,cccc,0333,00000,00,00,00000,00,00,00,0000000000000000,00,00,00,0000,0000,3fc0,0,f,f,0,0,f,f
3,3,0,3fc03fc0000000000000000000000000033333c003ffffc00030160b0582e2aa0b417503c4be8503cda0b503c25f4503c1486b0c39a33b0c3eb79b0c365ccb0c3,65ccb0c3,65ccb0c3,eb79b0c3,eb79b0c3,9a33b0c3,9a33b0c3,1486b0c3,1486b0c3,25f4503c,25f4503c,da0b503c,da0b503c,4be8503c,4be8503c,b417503c,b417503c,0,0,e2aa,1,0,1,0,1,0,1,0,1,0,0,0,1,0582c160b,0582,160b,0030,c,0,0,0,ffc0,0,f,f,f,03ff,f,f,000,33c0,f,cccc,0333,00000,00,00,00000,00,00,00,0000000000000000,00,00,00,0000,0000,3fc0,0,f,f,0,0,f,f
4,4,0,3fc03fc0000000000000000000000000033333c003ffffc00030160b0582fbba0b415503c4bea503cda0a503c25f5503c1497b0c39a34b0c3eb68b0c365cbb0c3,65cbb0c3,65cbb0c3,eb68b0c3,eb68b0c3,9a34b0c3,9a34b0c3,1497b0c3,1497b0c3,25f5503c,25f5503c,da0a503c,da0a503c,4bea503c,4bea503c,b415503c,b415503c,0,0,fbba,1,0,1,1,1,0,1,1,1,0,1,1,1,0582c160b,0582,160b,0030,c,0,0,0,ffc0,0,f,f,f,03ff,f,f,000,33c0,f,cccc,0333,00000,00,00,00000,00,00,00,0000000000000000,00,00,00,0000,0000,3fc0,0,f,f,0,0,f,f
5,5,0,3fc03fc0000000000000000000000000033333c003ffffc00030160b0582fbbb0b413503c4bec503cda09503c25f6503c148ab0c39a35b0c3eb75b0c365cab0c3,65cab0c3,65cab0c3,eb75b0c3,eb75b0c3,9a35b0c3,9a35b0c3,148ab0c3,148ab0c3,25f6503c,25f6503c,da09503c,da09503c,4bec503c,4bec503c,b413503c,b413503c,0,1,fbbb,1,0,1,1,1,0,1,1,1,0,1,1,1,0582c160b,0582,160b,0030,c,0,0,0,ffc0,0,f,f,f,03ff,f,f,000,33c0,f,cccc,0333,00000,00,00,00000,00,00,00,0000000000000000,00,00,00,0000,0000,3fc0,0,f,f,0,0,f,f
6,6,0,3fc03fc0000000000000000000000000033333c003ffffc00030160b0582fa2b0b411503c4bee503cda08503c25f7503c148cb0c39a36b0c3eb73b0c365c9b0c3,65c9b0c3,65c9b0c3,eb73b0c3,eb73b0c3,9a36b0c3,9a36b0c3,148cb0c3,148cb0c3,25f7503c,25f7503c,da08503c,da08503c,4bee503c,4bee503c,b411503c,b411503c,0,1,fa2b,1,0,1,0,1,0,0,0,1,0,1,1,1,0582c160b,0582,160b,0030,c,0,0,0,ffc0,0,f,f,f,03ff,f,f,000,33c0,f,cccc,0333,00000,00,00,00000,00,00,00,0000000000000000,00,00,00,0000,0000,3fc0,0,f,f,0,0,f,f
7,7,0,3fc03fc0000000000000000000000000033333c003ffffc00030160b0582e22a0b40f503c4bf0503cda07503c25f8503c148eb0c39a28b0c3eb71b0c365d7b0c3,65d7b0c3,65d7b0c3,eb71b0c3,eb71b0c3,9a28b0c3,9a28b0c3,148eb0c3,148eb0c3,25f8503c,25f8503c,da07503c,da07503c,4bf0503c,4bf0503c,b40f503c,b40f503c,0,0,e22a,1,0,1,0,1,0,0,0,1,0,0,0,1,0582c160b,0582,160b,0030,c,0,0,0,ffc0,0,f,f,f,03ff,f,f,000,33c0,f,cccc,0333,00000,00,00,00000,00,00,00,0000000000000000,00,00,00,0000,0000,3fc0,0,f,f,0,0,f,f
8,8,0,3fc03fc0000000000000000000000000033333c003ffffc00030160b0582e2aa0b40d503c4bf2503cda06503c25f9503c148fb0c39a27b0c3eb70b0c365d8b0c3,65d8b0c3,65d8b0c3,eb70b0c3,eb70b0c3,9a27b0c3,9a27b0c3,148fb0c3,148fb0c3,25f9503c,25f9503c,da06503c,da06503c,4bf2503c,4bf2503c,b40d503c,b40d503c,0,0,e2aa,1,0,1,0,1,0,1,0,1,0,0,0,1,0582c160b,0582,160b,0030,c,0,0,0,ffc0,0,f,f,f,03ff,f,f,000,33c0,f,cccc,0333,00000,00,00,00000,00,00,00,0000000000000000,00,00,00,0000,0000,3fc0,0,f,f,0,0,f,f
9,9,0,3fc03fc0000000000000000000000000033333c003ffffc00030160b0582fbba0b40b503c4bf4503cda05503c25fa503c1492b0c39a39b0c3eb6db0c365c6b0c3,65c6b0c3,65c6b0c3,eb6db0c3,eb6db0c3,9a39b0c3,9a39b0c3,1492b0c3,1492b0c3,25fa503c,25fa503c,da05503c,da05503c,4bf4503c,4bf4503c,b40b503c,b40b503c,0,0,fbba,1,0,1,1,1,0,1,1,1,0,1,1,1,0582c160b,0582,160b,0030,c,0,0,0,ffc0,0,f,f,f,03ff,f,f,000,33c0,f,cccc,0333,00000,00,00,00000,00,00,00,0000000000000000,00,00,00,0000,0000,3fc0,0,f,f,0,0,f,f
10,10,0,3fc03fc0000000000000000000000000033333c003ffffc00030160b0582fbbb0b409503c4bf6503cda04503c25fb503c1494b0c39a3ab0c3eb6bb0c365c5b0c3,65c5b0c3,65c5b0c3,eb6bb0c3,eb6bb0c3,9a3ab0c3,9a3ab0c3,1494b0c3,1494b0c3,25fb503c,25fb503c,da04503c,da04503c,4bf6503c,4bf6503c,b409503c,b409503c,0,1,fbbb,1,0,1,1,1,0,1,1,1,0,1,1,1,0582c160b,0582,160b,0030,c,0,0,0,ffc0,0,f,f,f,03ff,f,f,000,33c0,f,cccc,0333,00000,00,00,00000,00,00,00,0000000000000000,00,00,00,0000,0000,3fc0,0,f,f,0,0,f,f
11,11,0,3fc03fc0000000000000000000000000033333c003ffffc00030160b0582fa2b0b407503c4bf8503cda03503c25fc503c1496b0c39a24b0c3eb69b0c365dbb0c3,65dbb0c3,65dbb0c3,eb69b0c3,eb69b0c3,9a24b0c3,9a24b0c3,1496b0c3,1496b0c3,25fc503c,25fc503c,da03503c,da03503c,4bf8503c,4bf8503c,b407503c,b407503c,0,1,fa2b,1,0,1,0,1,0,0,0,1,0,1,1,1,0582c160b,0582,160b,0030,c,0,0,0,ffc0,0,f,f,f,03ff,f,f,000,33c0,f,cccc,0333,00000,00,00,00000,00,00,00,0000000000000000,00,00,00,0000,0000,3fc0,0,f,f,0,0,f,f
12,12,0,3fc03fc0000000000000000000000000033333c003ffffc00030160b0582e22a0b405503c4bfa503cda02503c25fd503c1487b0c39a3cb0c3eb78b0c365c3b0c3,65c3b0c3,65c3b0c3,eb78b0c3,eb78b0c3,9a3cb0c3,9a3cb0c3,1487b0c3,1487b0c3,25fd503c,25fd503c,da02503c,da02503c,4bfa503c,4bfa503c,b405503c,b405503c,0,0,e22a,1,0,1,0,1,0,0,0,1,0,0,0,1,0582c160b,0582,160b,0030,c,0,0,0,ffc0,0,f,f,f,03ff,f,f,000,33c0,f,cccc,0333,00000,00,00,00000,00,00,00,0000000000000000,00,00,00,0000,0000,3fc0,0,f,f,0,0,f,f
13,13,0,3fc03fc0000000000000000000000000033333c003ffffc00030160b0582e3aa0b403503c4bfc503cda01503c25fe503c149ab0c39a22b0c3eb65b0c365ddb0c3,65ddb0c3,65ddb0c3,eb65b0c3,eb65b0c3,9a22b0c3,9a22b0c3,149ab0c3,149ab0c3,25fe503c,25fe503c,da01503c,da01503c,4bfc503c,4bfc503c,b403503c,b403503c,0,0,e3aa,1,0,1,0,1,0,1,1,1,0,0,0,1,0582c160b,0582,160b,0030,c,0,0,0,ffc0,0,f,f,f,03ff,f,f,000,33c0,f,cccc,0333,00000,00,00,00000,00,00,00,0000000000000000,00,00,00,0000,0000,3fc0,0,f,f,0,0,f,f
14,14,0,3fc03fc0000000000000000000000000033333c003ffffc00030160b0582fbba0b401503c4bfe503cda00503c25ff503c149cb0c39a21b0c3eb63b0c365deb0c3,65deb0c3,65deb0c3,eb63b0c3,eb63b0c3,9a21b0c3,9a21b0c3,149cb0c3,149cb0c3,25ff503c,25ff503c,da00503c,da00503c,4bfe503c,4bfe503c,b401503c,b401503c,0,0,fbba,1,0,1,1,1,0,1,1,1,0,1,1,1,0582c160b,0582,160b,0030,c,0,0,0,ffc0,0,f,f,f,03ff,f,f,000,33c0,f,cccc,0333,00000,00,00,00000,00,00,00,0000000000000000,00,00,00,0000,0000,3fc0,0,f,f,0,0,f,f
15,15,0,3fc03fc0000000000000000000000000033333c003ffffc00030160b0582fbbb0b3ff503c4c00503cd9ff503c2600503c1481b0c39a20b0c3eb7eb0c365dfb0c3,65dfb0c3,65dfb0c3,eb7eb0c3,eb7eb0c3,9a20b0c3,9a20b0c3,1481b0c3,1481b0c3,2600503c,2600503c,d9ff503c,d9ff503c,4c00503c,4c00503c,b3ff503c,b3ff503c,0,1,fbbb,1,0,1,1,1,0,1,1,1,0,1,1,1,0582c160b,0582,160b,0030,c,0,0,0,ffc0,0,f,f,f,03ff,f,f,000,33c0,f,cccc,0333,00000,00,00,00000,00,00,00,0000000000000000,00,00,00,0000,0000,3fc0,0,f,f,0,0,f,f
16,16,0,3fc03fc0000000000000000000000000033333c003ffffc00030160b0582fa2b0b3fd503c4c02503cd9fe503c2601503c147fb0c39a5fb0c3eb80b0c365a0b0c3,65a0b0c3,65a0b0c3,eb80b0c3,eb80b0c3,9a5fb0c3,9a5fb0c3,147fb0c3,147fb0c3,2601503c,2601503c,d9fe503c,d9fe503c,4c02503c,4c02503c,b3fd503c,b3fd503c,0,1,fa2b,1,0,1,0,1,0,0,0,1,0,1,1,1,0582c160b,0582,160b,0030,c,0,0,0,ffc0,0,f,f,f,03ff,f,f,000,33c0,f,cccc,0333,00000,00,00,00000,00,00,00,0000000000000000,00,00,00,0000,0000,3fc0,0,f,f,0,0,f,f
17,17,0,3fc03fc0000000000000000000000000033333c003ffffc00030160b0582e22a0b3fb503c4c04503cd9fd503c2602503c147db0c39a5eb0c3eb82b0c365a1b0c3,65a1b0c3,65a1b0c3,eb82b0c3,eb82b0c3,9a5eb0c3,9a5eb0c3,147db0c3,147db0c3,2602503c,2602503c,d9fd503c,d9fd503c,4c04503c,4c04503c,b3fb503c,b3fb503c,0,0,e22a,1,0,1,0,1,0,0,0,1,0,0,0,1,0582c160b,0582,160b,0030,c,0,0,0,ffc0,0,f,f,f,03ff,f,f,000,33c0,f,cccc,0333,00000,00,00,00000,00,00,00,0000000000000000,00,00,00,0000,0000,3fc0,0,f,f,0,0,f,f
18,18,0,3fc03fc0000000000000000000000000033333c003ffffc00030160b0582e3aa0b3f9503c4c06503cd9fc503c2603503c147bb0c39a5db0c3eb84b0c365a2b0c3,65a2b0c3,65a2b0c3,eb84b0c3,eb84b0c3,9a5db0c3,9a5db0c3,147bb0c3,147bb0c3,2603503c,2603503c,d9fc503c,d9fc503c,4c06503c,4c06503c,b3f9503c,b3f9503c,0,0,e3aa,1,0,1,0,1,0,1,1,1,0,0,0,1,0582c160b,0582,160b,0030,c,0,0,0,ffc0,0,f,f,f,03ff,f,f,000,33c0,f,cccc,0333,00000,00,00,00000,00,00,00,0000000000000000,00,00,00,0000,0000,3fc0,0,f,f,0,0,f,f
19,19,0,3fc03fc0000000000000000000000000033333c003ffffc00030160b0582fbba0b3f7503c4c08503cd9fb503c2604503c1466b0c39a43b0c3eb99b0c365bcb0c3,65bcb0c3,65bcb0c3,eb99b0c3,eb99b0c3,9a43b0c3,9a43b0c3,1466b0c3,1466b0c3,2604503c,2604503c,d9fb503c,d9fb503c,4c08503c,4c08503c,b3f7503c,b3f7503c,0,0,fbba,1,0,1,1,1,0,1,1,1,0,1,1,1,0582c160b,0582,160b,0030,c,0,0,0,ffc0,0,f,f,f,03ff,f,f,000,33c0,f,cccc,0333,00000,00,00,00000,00,00,00,0000000000000000,00,00,00,0000,0000,3fc0,0,f,f,0,0,f,f
20,20,0,3fc03fc0000000000000000000000000033333c003ffffc00030160b0582fbbb0b3f5503c4c0a503cd9fa503c2605503c1477b0c39a5bb0c3eb88b0c365a4b0c3,65a4b0c3,65a4b0c3,eb88b0c3,eb88b0c3,9a5bb0c3,9a5bb0c3,1477b0c3,1477b0c3,2605503c,2605503c,d9fa503c,d9fa503c,4c0a503c,4c0a503c,b3f5503c,b3f5503c,0,1,fbbb,1,0,1,1,1,0,1,1,1,0,1,1,1,0582c160b,0582,160b,0030,c,0,0,0,ffc0,0,f,f,f,03ff,f,f,000,33c0,f,cccc,0333,00000,00,00,00000,00,00,00,0000000000000000,00,00,00,0000,0000,3fc0,0,f,f,0,0,f,f
21,21,0,3fc03fc0000000000000000000000000033333c003ffffc00030160b0582fa2b0b3f3503c4c0c503cd9f9503c2606503c146ab0c39a45b0c3eb95b0c365bab0c3,65bab0c3,65bab0c3,eb95b0c3,eb95b0c3,9a45b0c3,9a45b0c3,146ab0c3,146ab0c3,2606503c,2606503c,d9f9503c,d9f9503c,4c0c503c,4c0c503c,b3f3503c,b3f3503c,0,1,fa2b,1,0,1,0,1,0,0,0,1,0,1,1,1,0582c160b,0582,160b,0030,c,0,0,0,ffc0,0,f,f,f,03ff,f,f,000,33c0,f,cccc,0333,00000,00,00,00000,00,00,00,0000000000000000,00,00,00,0000,0000,3fc0,0,f,f,0,0,f,f
22,22,0,3fc03fc0000000000000000000000000033333c003ffffc00030160b0582e22a0b3f1503c4c0e503cd9f8503c2607503c146cb0c39a46b0c3eb93b0c365b9b0c3,65b9b0c3,65b9b0c3,eb93b0c3,eb93b0c3,9a46b0c3,9a46b0c3,146cb0c3,146cb0c3,2607503c,2607503c,d9f8503c,d9f8503c,4c0e503c,4c0e503c,b3f1503c,b3f1503c,0,0,e22a,1,0,1,0,1,0,0,0,1,0,0,0,1,0582c160b,0582,160b,0030,c,0,0,0,ffc0,0,f,f,f,03ff,f,f,000,33c0,f,cccc,0333,00000,00,00,00000,00,00,00,0000000000000000,00,00,00,0000,0000,3fc0,0,f,f,0,0,f,f
23,23,0,3fc03fc0000000000000000000000000033333c003ffffc00030160b0582e3aa0b3ef503c4c10503cd9f7503c2608503c146eb0c39a58b0c3eb91b0c365a7b0c3,65a7b0c3,65a7b0c3,eb91b0c3,eb91b0c3,9a58b0c3,9a58b0c3,146eb0c3,146eb0c3,2608503c,2608503c,d9f7503c,d9f7503c,4c10503c,4c10503c,b3ef503c,b3ef503c,0,0,e3aa,1,0,1,0,1,0,1,1,1,0,0,0,1,0582c160b,0582,160b,0030,c,0,0,0,ffc0,0,f,f,f,03ff,f,f,000,33c0,f,cccc,0333,00000,00,00,00000,00,00,00,0000000000000000,00,00,00,0000,0000,3fc0,0,f,f,0,0,f,f
24,24,0,3fc03fc0000000000000000000000000033333c003ffffc00030160b0582fbba0b3ed503c4c12503cd9f6503c2609503c146fb0c39a57b0c3eb90b0c365a8b0c3,65a8b0c3,65a8b0c3,eb90b0c3,eb90b0c3,9a57b0c3,9a57b0c3,146fb0c3,146fb0c3,2609503c,2609503c,d9f6503c,d9f6503c,4c12503c,4c12503c,b3ed503c,b3ed503c,0,0,fbba,1,0,1,1,1,0,1,1,1,0,1,1,1,0582c160b,0582,160b,0030,c,0,0,0,ffc0,0,f,f,f,03ff,f,f,000,33c0,f,cccc,0333,00000,00,00,00000,00,00,00,0000000000000000,00,00,00,0000,0000,3fc0,0,f,f,0,0,f,f
25,25,0,3fc03fc0000000000000000000000000033333c003ffffc00030160b0582fbbb0b3eb503c4c14503cd9f5503c260a503c1472b0c39a49b0c3eb8db0c365b6b0c3,65b6b0c3,65b6b0c3,eb8db0c3,eb8db0c3,9a49b0c3,9a49b0c3,1472b0c3,1472b0c3,260a503c,260a503c,d9f5503c,d9f5503c,4c14503c,4c14503c,b3eb503c,b3eb503c,0,1,fbbb,1,0,1,1,1,0,1,1,1,0,1,1,1,0582c160b,0582,160b,0030,c,0,0,0,ffc0,0,f,f,f,03ff,f,f,000,33c0,f,cccc,0333,00000,00,00,00000,00,00,00,0000000000000000,00,00,00,0000,0000,3fc0,0,f,f,0,0,f,f
26,26,0,3fc03fc0000000000000000000000000033333c003ffffc00030160b0582fa2b0b3e9503c4c16503cd9f4503c260b503c1474b0c39a4ab0c3eb8bb0c365b5b0c3,65b5b0c3,65b5b0c3,eb8bb0c3,eb8bb0c3,9a4ab0c3,9a4ab0c3,1474b0c3,1474b0c3,260b503c,260b503c,d9f4503c,d9f4503c,4c16503c,4c16503c,b3e9503c,b3e9503c,0,1,fa2b,1,0,1,0,1,0,0,0,1,0,1,1,1,0582c160b,0582,160b,0030,c,0,0,0,ffc0,0,f,f,f,03ff,f,f,000,33c0,f,cccc,0333,00000,00,00,00000,00,00,00,0000000000000000,00,00,00,0000,0000,3fc0,0,f,f,0,0,f,f
27,27,0,3fc03fc0000000000000000000000000033333c003ffffc00030160b0582e22a0b3e7503c4c18503cd9f3503c260c503c1476b0c39a4bb0c3eb89b0c365b4b0c3,65b4b0c3,65b4b0c3,eb89b0c3,eb89b0c3,9a4bb0c3,9a4bb0c3,1476b0c3,1476b0c3,260c503c,260c503c,d9f3503c,d9f3503c,4c18503c,4c18503c,b3e7503c,b3e7503c,0,0,e22a,1,0,1,0,1,0,0,0,1,0,0,0,1,0582c160b,0582,160b,0030,c,0,0,0,ffc0,0,f,f,f,03ff,f,f,000,33c0,f,cccc,0333,00000,00,00,00000,00,00,00,0000000000000000,00,00,00,0000,0000,3fc0,0,f,f,0,0,f,f
28,28,0,3fc03fc0000000000000000000000000033333c003ffffc00030160b0582e3aa0b3e5503c4c1a503cd9f2503c260d503c1467b0c39a4cb0c3eb98b0c365b3b0c3,65b3b0c3,65b3b0c3,eb98b0c3,eb98b0c3,9a4cb0c3,9a4cb0c3,1467b0c3,1467b0c3,260d503c,260d503c,d9f2503c,d9f2503c,4c1a503c,4c1a503c,b3e5503c,b3e5503c,0,0,e3aa,1,0,1,0,1,0,1,1,1,0,0,0,1,0582c160b,0582,160b,0030,c,0,0,0,ffc0,0,f,f,f,03ff,f,f,000,33c0,f,cccc,0333,00000,00,00,00000,00,00,00,0000000000000000,00,00,00,0000,0000,3fc0,0,f,f,0,0,f,f
29,29,0,3fc03fc0000000000000000000000000033333c003ffffc00030160b0582fbba0b3e3503c4c1c503cd9f1503c260e503c147ab0c39a4db0c3eb85b0c365b2b0c3,65b2b0c3,65b2b0c3,eb85b0c3,eb85b0c3,9a4db0c3,9a4db0c3,147ab0c3,147ab0c3,260e503c,260e503c,d9f1503c,d9f1503c,4c1c503c,4c1c503c,b3e3503c,b3e3503c,0,0,fbba,1,0,1,1,1,0,1,1,1,0,1,1,1,0582c160b,0582,160b,0030,c,0,0,0,ffc0,0,f,f,f,03ff,f,f,000,33c0,f,cccc,0333,00000,00,00,00000,00,00,00,0000000000000000,00,00,00,0000,0000,3fc0,0,f,f,0,0,f,f
30,30,0,3fc03fc0000000000000000000000000033333c003ffffc00030160b0582fbbb0b3e1503c4c1e503cd9f0503c260f503c147cb0c39a4eb0c3eb83b0c365b1b0c3,65b1b0c3,65b1b0c3,eb83b0c3,eb83b0c3,9a4eb0c3,9a4eb0c3,147cb0c3,147cb0c3,260f503c,260f503c,d9f0503c,d9f0503c,4c1e503c,4c1e503c,b3e1503c,b3e1503c,0,1,fbbb,1,0,1,1,1,0,1,1,1,0,1,1,1,0582c160b,0582,160b,0030,c,0,0,0,ffc0,0,f,f,f,03ff,f,f,000,33c0,f,cccc,0333,00000,00,00,00000,00,00,00,0000000000000000,00,00,00,0000,0000,3fc0,0,f,f,0,0,f,f
31,31,0,3fc03fc0000000000000000000000000033333c003ffffc00030160b0582fa2b0b3df503c4c20503cd9ef503c2610503c1461b0c39a50b0c3eb9eb0c365afb0c3,65afb0c3,65afb0c3,eb9eb0c3,eb9eb0c3,9a50b0c3,9a50b0c3,1461b0c3,1461b0c3,2610503c,2610503c,d9ef503c,d9ef503c,4c20503c,4c20503c,b3df503c,b3df503c,0,1,fa2b,1,0,1,0,1,0,0,0,1,0,1,1,1,0582c160b,0582,160b,0030,c,0,0,0,ffc0,0,f,f,f,03ff,f,f,000,33c0,f,cccc,0333,00000,00,00,00000,00,00,00,0000000000000000,00,00,00,0000,0000,3fc0,0,f,f,0,0,f,f
32,32,0,3fc03fc0000000000000000000000000033333c003ffffc00030160b0582e22a0b3dd503c4c22503cd9ee503c2611503c14bfb0c39a4fb0c3eb40b0c365b0b0c3,65b0b0c3,65b0b0c3,eb40b0c3,eb40b0c3,9a4fb0c3,9a4fb0c3,14bfb0c3,14bfb0c3,2611503c,2611503c,d9ee503c,d9ee503c,4c22503c,4c22503c,b3dd503c,b3dd503c,0,0,e22a,1,0,1,0,1,0,0,0,1,0,0,0,1,0582c160b,0582,160b,0030,c,0,0,0,ffc0,0,f,f,f,03ff,f,f,000,33c0,f,cccc,0333,00000,00,00,00000,00,00,00,0000000000000000,00,00,00,0000,0000,3fc0,0,f,f,0,0,f,f
33,33,0,3fc03fc0000000000000000000000000033333c003ffffc00030160b0582e3aa0b3db503c4c24503cd9ed503c2612503c14bdb0c39a51b0c3eb42b0c365aeb0c3,65aeb0c3,65aeb0c3,eb42b0c3,eb42b0c3,9a51b0c3,9a51b0c3,14bdb0c3,14bdb0c3,2612503c,2612503c,d9ed503c,d9ed503c,4c24503c,4c24503c,b3db503c,b3db503c,0,0,e3aa,1,0,1,0,1,0,1,1,1,0,0,0,1,0582c160b,0582,160b,0030,c,0,0,0,ffc0,0,f,f,f,03ff,f,f,000,33c0,f,cccc,0333,00000,00,00,00000,00,00,00,0000000000000000,00,00,00,0000,0000,3fc0,0,f,f,0,0,f,f
34,34,0,3fc03fc0000000000000000000000000033333c003ffffc00030160b0582fbba0b3d9503c4c26503cd9ec503c2613503c14bbb0c39a52b0c3eb44b0c365adb0c3,65adb0c3,65adb0c3,eb44b0c3,eb44b0c3,9a52b0c3,9a52b0c3,14bbb0c3,14bbb0c3,2613503c,2613503c,d9ec503c,d9ec503c,4c26503c,4c26503c,b3d9503c,b3d9503c,0,0,fbba,1,0,1,1,1,0,1,1,1,0,1,1,1,0582c160b,0582,160b,0030,c,0,0,0,ffc0,0,f,f,f,03ff,f,f,000,33c0,f,cccc,0333,00000,00,00,00000,00,00,00,0000000000000000,00,00,00,0000,0000,3fc0,0,f,f,0,0,f,f
35,35,0,3fc03fc0000000000000000000000000033333c003ffffc00030160b0582fbbb0b3d7503c4c28503cd9eb503c2614503c14a6b0c39a53b0c3eb59b0c365acb0c3,65acb0c3,65acb0c3,eb59b0c3,eb59b0c3,9a53b0c3,9a53b0c3,14a6b0c3,14a6b0c3,2614503c,2614503c,d9eb503c,d9eb503c,4c28503c,4c28503c,b3d7503c,b3d7503c,0,1,fbbb,1,0,1,1,1,0,1,1,1,0,1,1,1,0582c160b,0582,160b,0030,c,0,0,0,ffc0,0,f,f,f,03ff,f,f,000,33c0,f,cccc,0333,00000,00,00,00000,00,00,00,0000000000000000,00,00,00,0000,0000,3fc0,0,f,f,0,0,f,f
36,36,0,3fc03fc0000000000000000000000000033333c003ffffc00030160b0582fa2b0b3d5503c4c2a503cd9ea503c2615503c14b7b0c39a54b0c3eb48b0c365abb0c3,65abb0c3,65abb0c3,eb48b0c3,eb48b0c3,9a54b0c3,9a54b0c3,14b7b0c3,14b7b0c3,2615503c,2615503c,d9ea503c,d9ea503c,4c2a503c,4c2a503c,b3d5503c,b3d5503c,0,1,fa2b,1,0,1,0,1,0,0,0,1,0,1,1,1,0582c160b,0582,160b,0030,c,0,0,0,ffc0,0,f,f,f,03ff,f,f,000,33c0,f,cccc,0333,00000,00,00,00000,00,00,00,0000000000000000,00,00,00,0000,0000,3fc0,0,f,f,0,0,f,f
