Sample in Buffer,Sample in Window,TRIGGER,ila_data[821:0],receiver_0[31:0],receiver_1[31:0],receiver_2[31:0],receiver_3[31:0],transmitter_0[31:0],transmitter_1[31:0],transmitter_2[31:0],transmitter_3[31:0],prbs_match_int[3:0],hb0_gtwiz_userclk_rx_usrclk2_int,hb0_gtwiz_userclk_rx_active_int,hb_gtwiz_reset_all_int,hb0_gtwiz_reset_rx_done_int,hb0_gtwiz_userclk_tx_usrclk2_int,hb0_gtwiz_userclk_tx_active_int,rx8b10ben_int[3:0],rxcommadeten_int[3:0],rxlpmen_int[3:0],rxmcommaalignen_int[3:0],rxpcommaalignen_int[3:0],tx8b10ben_int[3:0],gtpowergood_int[3:0],rxbyteisaligned_int[3:0],rxbyterealign_int[3:0],rxcommadet_int[3:0],rxpmaresetdone_int[3:0],txpmaresetdone_int[3:0],ch0_rxctrl0_int[15:0],ch1_rxctrl0_int[15:0],ch2_rxctrl0_int[15:0],ch3_rxctrl0_int[15:0],ch0_rxctrl1_int[15:0],ch1_rxctrl1_int[15:0],ch2_rxctrl1_int[15:0],ch3_rxctrl1_int[15:0],ch0_rxctrl2_int[7:0],ch1_rxctrl2_int[7:0],ch2_rxctrl2_int[7:0],ch3_rxctrl2_int[7:0],ch0_rxctrl3_int[7:0],ch1_rxctrl3_int[7:0],ch2_rxctrl3_int[7:0],ch3_rxctrl3_int[7:0],ch0_txctrl0_int[15:0],ch1_txctrl0_int[15:0],ch2_txctrl0_int[15:0],ch3_txctrl0_int[15:0],ch0_txctrl1_int[15:0],ch1_txctrl1_int[15:0],ch2_txctrl1_int[15:0],ch3_txctrl1_int[15:0],ch0_txctrl2_int[7:0],ch1_txctrl2_int[7:0],ch2_txctrl2_int[7:0],ch3_txctrl2_int[7:0],hb0_rxdata_nml_ctr[39:0],ch0_rxdata_err_ctr[15:0],ch1_rxdata_err_ctr[15:0],ch2_rxdata_err_ctr[15:0],ch3_rxdata_err_ctr[15:0],rxchanisaligned_int[3:0],rxchanrealign_int[3:0],rxchanbondseq_int[3:0],rxchbondi_int[19:0],rxchbondo_int[19:0]
Radix - UNSIGNED,UNSIGNED,UNSIGNED,HEX,HEX,HEX,HEX,HEX,HEX,HEX,HEX,HEX,HEX,HEX,HEX,HEX,HEX,HEX,HEX,HEX,HEX,HEX,HEX,HEX,HEX,HEX,HEX,HEX,HEX,HEX,HEX,HEX,HEX,HEX,HEX,HEX,HEX,HEX,HEX,HEX,HEX,HEX,HEX,HEX,HEX,HEX,HEX,HEX,HEX,HEX,HEX,HEX,HEX,HEX,HEX,HEX,HEX,HEX,HEX,HEX,HEX,HEX,HEX,HEX,HEX,HEX,HEX,HEX,HEX
0,0,0,000000000000092fcd2fcd2fcd2fcc0472dd505c0000000000000000000000000000000000000003c3c3c3c00000000000000000000000000000000000000003fc03ffffffffbf8e17cae68e17cae68e17cae68e17cae6b5b2470bb5b2470ba5b2570bb5b2d70b,b5b2d70b,a5b2570b,b5b2470b,b5b2470b,8e17cae6,8e17cae6,8e17cae6,8e17cae6,f,1,1,0,1,1,1,f,f,f,f,f,f,f,f,0,0,f,f,0000,0000,0000,0000,0000,0000,0000,0000,00,00,00,00,f0,f0,f0,f0,0000,0000,0000,0000,0000,0000,0000,0000,00,00,00,00,011cb75417,4bf3,4bf3,4bf3,4bf3,2,0,0,00000,00000
1,1,0,000000000000092fcd2fcd2fcd2fcc0472dd50780000000000000000000000000000000000000003c3c3c3c00000000000000000000000000000000000000003fc03ffffffffbf2385f28b2391f0882394b2b12385f2b9ed6c91c2ed6c91c2ed6c91c2ed6c91c2,ed6c91c2,ed6c91c2,ed6c91c2,ed6c91c2,2385f2b9,2394b2b1,2391f088,2385f28b,f,1,1,0,1,1,1,f,f,f,f,f,f,f,f,0,0,f,f,0000,0000,0000,0000,0000,0000,0000,0000,00,00,00,00,f0,f0,f0,f0,0000,0000,0000,0000,0000,0000,0000,0000,00,00,00,00,011cb7541e,4bf3,4bf3,4bf3,4bf3,2,0,0,00000,00000
2,2,0,000000000000092fcd2fcd2fcd2fcc0472dd50980000000000000000000000000000000000000003c3c3c3c00000000000000000000000000000000000000003fc03ffffffffaf689e2860689e2860689e2860689e28607b5b24707b5b24707b5b24707b5b2470,7b5b2470,7b5b2470,7b5b2470,7b5b2470,689e2860,689e2860,689e2860,689e2860,f,0,1,0,1,1,1,f,f,f,f,f,f,f,f,0,0,f,f,0000,0000,0000,0000,0000,0000,0000,0000,00,00,00,00,f0,f0,f0,f0,0000,0000,0000,0000,0000,0000,0000,0000,00,00,00,00,011cb75426,4bf3,4bf3,4bf3,4bf3,2,0,0,00000,00000
3,3,0,000000000000092fcd2fcd2fcd2fcc0472dd50b80000000000000000000000000000000000000003c3c3c3c00000000000000000000000000000000000000003fc03fffffffeaf9a278a189a278a189a278a189a278a18ded6c91cded6c91cded6c91cded6c91c,ded6c91c,ded6c91c,ded6c91c,ded6c91c,9a278a18,9a278a18,9a278a18,9a278a18,f,0,1,0,1,0,1,f,f,f,f,f,f,f,f,0,0,f,f,0000,0000,0000,0000,0000,0000,0000,0000,00,00,00,00,f0,f0,f0,f0,0000,0000,0000,0000,0000,0000,0000,0000,00,00,00,00,011cb7542e,4bf3,4bf3,4bf3,4bf3,2,0,0,00000,00000
4,4,0,000000000000092fcd2fcd2fcd2fcc0472dd50d80000000000000000000000000000000000000003c3c3c3c00000000000000000000000000000000000000003fc03fffffffeafe689e286e689e286e689e286e689e28637b5b24737b5b24737b5b24737b5b247,37b5b247,37b5b247,37b5b247,37b5b247,e689e286,e689e286,e689e286,e689e286,f,0,1,0,1,0,1,f,f,f,f,f,f,f,f,0,0,f,f,0000,0000,0000,0000,0000,0000,0000,0000,00,00,00,00,f0,f0,f0,f0,0000,0000,0000,0000,0000,0000,0000,0000,00,00,00,00,011cb75436,4bf3,4bf3,4bf3,4bf3,2,0,0,00000,00000
5,5,0,000000000000092fcd2fcd2fcd2fcc0472dd50f80000000000000000000000000000000000000003c3c3c3c00000000000000000000000000000000000000003fc03ffffffffbfb9a278a1b9a278a1b9a278a1b9a278a1c2f95cd1c2f95cd1c2f95cd1c2f95cd1,c2f95cd1,c2f95cd1,c2f95cd1,c2f95cd1,b9a278a1,b9a278a1,b9a278a1,b9a278a1,f,1,1,0,1,1,1,f,f,f,f,f,f,f,f,0,0,f,f,0000,0000,0000,0000,0000,0000,0000,0000,00,00,00,00,f0,f0,f0,f0,0000,0000,0000,0000,0000,0000,0000,0000,00,00,00,00,011cb7543e,4bf3,4bf3,4bf3,4bf3,2,0,0,00000,00000
6,6,0,000000000000092fcd2fcd2fcd2fcc0472dd511c0000000000000000000000000000000000000003c3c3c3c00000000000000000000000000000000000000003fc03ffffffffbfee689e1aae689c59ae69fe60ae689e2870be573470be573470be573470be5734,70be5734,70be5734,70be5734,70be5734,ae689e28,ae69fe60,ae689c59,ee689e1a,f,1,1,0,1,1,1,f,f,f,f,f,f,f,f,0,0,f,f,0000,0000,0000,0000,0000,0000,0000,0000,00,00,00,00,f0,f0,f0,f0,0000,0000,0000,0000,0000,0000,0000,0000,00,00,00,00,011cb75447,4bf3,4bf3,4bf3,4bf3,2,0,0,00000,00000
7,7,0,000000000000092fcd2fcd2fcd2fcc0472dd51340000000000000000000000000000000000000003c3c3c3c00000000000000000000000000000000000000003fc03ffffffffaf18207f5418207f5418207f5418207f541c2f95cd1c2f95cd1c2f95cd1c2f95cd,1c2f95cd,1c2f95cd,1c2f95cd,1c2f95cd,18207f54,18207f54,18207f54,18207f54,f,0,1,0,1,1,1,f,f,f,f,f,f,f,f,0,0,f,f,0000,0000,0000,0000,0000,0000,0000,0000,00,00,00,00,f0,f0,f0,f0,0000,0000,0000,0000,0000,0000,0000,0000,00,00,00,00,011cb7544d,4bf3,4bf3,4bf3,4bf3,2,0,0,00000,00000
8,8,0,000000000000092fcd2fcd2fcd2fcc0472dd51540000000000000000000000000000000000000003c3c3c3c00000000000000000000000000000000000000003fc03fffffffeaf86081fd586081fd586081fd586081fd5470be573470be573470be573470be573,470be573,470be573,470be573,470be573,86081fd5,86081fd5,86081fd5,86081fd5,f,0,1,0,1,0,1,f,f,f,f,f,f,f,f,0,0,f,f,0000,0000,0000,0000,0000,0000,0000,0000,00,00,00,00,f0,f0,f0,f0,0000,0000,0000,0000,0000,0000,0000,0000,00,00,00,00,011cb75455,4bf3,4bf3,4bf3,4bf3,2,0,0,00000,00000
9,9,0,000000000000092fcd2fcd2fcd2fcc0472dd51740000000000000000000000000000000000000003c3c3c3c00000000000000000000000000000000000000003fc03fffffffeafa18207f5a18207f5a18207f5a18207f591c2f95c91c2f95c91c2f95c91c2f95c,91c2f95c,91c2f95c,91c2f95c,91c2f95c,a18207f5,a18207f5,a18207f5,a18207f5,f,0,1,0,1,0,1,f,f,f,f,f,f,f,f,0,0,f,f,0000,0000,0000,0000,0000,0000,0000,0000,00,00,00,00,f0,f0,f0,f0,0000,0000,0000,0000,0000,0000,0000,0000,00,00,00,00,011cb7545d,4bf3,4bf3,4bf3,4bf3,2,0,0,00000,00000
10,10,0,000000000000092fcd2fcd2fcd2fcc0472dd51940000000000000000000000000000000000000003c3c3c3c00000000000000000000000000000000000000003fc03ffffffffbf286081fd286081fd286081fd286081fd344f1430344f1430344f1430344f9430,344f9430,344f1430,344f1430,344f1430,286081fd,286081fd,286081fd,286081fd,f,1,1,0,1,1,1,f,f,f,f,f,f,f,f,0,0,f,f,0000,0000,0000,0000,0000,0000,0000,0000,00,00,00,00,f0,f0,f0,f0,0000,0000,0000,0000,0000,0000,0000,0000,00,00,00,00,011cb75465,4bf3,4bf3,4bf3,4bf3,2,0,0,00000,00000
11,11,0,000000000000092fcd2fcd2fcd2fcc0472dd51b00000000000000000000000000000000000000003c3c3c3c00000000000000000000000000000000000000003fc03ffffffffbf8a18206f8a0c206f8a0868778a18207fcd13c50ccd13c50ccd13c50ccd13c50c,cd13c50c,cd13c50c,cd13c50c,cd13c50c,8a18207f,8a086877,8a0c206f,8a18206f,f,1,1,0,1,1,1,f,f,f,f,f,f,f,f,0,0,f,f,0000,0000,0000,0000,0000,0000,0000,0000,00,00,00,00,f0,f0,f0,f0,0000,0000,0000,0000,0000,0000,0000,0000,00,00,00,00,011cb7546c,4bf3,4bf3,4bf3,4bf3,2,0,0,00000,00000
12,12,0,000000000000092fcd2fcd2fcd2fcc0472dd51d00000000000000000000000000000000000000003c3c3c3c00000000000000000000000000000000000000003fc03ffffffffafd533ba58d533ba58d533ba58d533ba587344f1437344f1437344f1437344f143,7344f143,7344f143,7344f143,7344f143,d533ba58,d533ba58,d533ba58,d533ba58,f,0,1,0,1,1,1,f,f,f,f,f,f,f,f,0,0,f,f,0000,0000,0000,0000,0000,0000,0000,0000,00,00,00,00,f0,f0,f0,f0,0000,0000,0000,0000,0000,0000,0000,0000,00,00,00,00,011cb75474,4bf3,4bf3,4bf3,4bf3,2,0,0,00000,00000
13,13,0,000000000000092fcd2fcd2fcd2fcc0472dd51f00000000000000000000000000000000000000003c3c3c3c00000000000000000000000000000000000000003fc03fffffffeaff54cee96f54cee96f54cee96f54cee965cd13c505cd13c505cd13c505cd13c50,5cd13c50,5cd13c50,5cd13c50,5cd13c50,f54cee96,f54cee96,f54cee96,f54cee96,f,0,1,0,1,0,1,f,f,f,f,f,f,f,f,0,0,f,f,0000,0000,0000,0000,0000,0000,0000,0000,00,00,00,00,f0,f0,f0,f0,0000,0000,0000,0000,0000,0000,0000,0000,00,00,00,00,011cb7547c,4bf3,4bf3,4bf3,4bf3,2,0,0,00000,00000
14,14,0,000000000000092fcd2fcd2fcd2fcc0472dd52100000000000000000000000000000000000000003c3c3c3c00000000000000000000000000000000000000003fc03fffffffeaffd533ba5fd533ba5fd533ba5fd533ba557344f1457344f1457344f1457344f14,57344f14,57344f14,57344f14,57344f14,fd533ba5,fd533ba5,fd533ba5,fd533ba5,f,0,1,0,1,0,1,f,f,f,f,f,f,f,f,0,0,f,f,0000,0000,0000,0000,0000,0000,0000,0000,00,00,00,00,f0,f0,f0,f0,0000,0000,0000,0000,0000,0000,0000,0000,00,00,00,00,011cb75484,4bf3,4bf3,4bf3,4bf3,2,0,0,00000,00000
15,15,0,000000000000092fcd2fcd2fcd2fcc0472dd52300000000000000000000000000000000000000003c3c3c3c00000000000000000000000000000000000000003fc03ffffffffbf7f54cee97f54cee97f54cee97f54cee90c103fa81c103fa81c103fa80c103faa,0c103faa,1c103fa8,1c103fa8,0c103fa8,7f54cee9,7f54cee9,7f54cee9,7f54cee9,f,1,1,0,1,1,1,f,f,f,f,f,f,f,f,0,0,f,f,0000,0000,0000,0000,0000,0000,0000,0000,00,00,00,00,f0,f0,f0,f0,0000,0000,0000,0000,0000,0000,0000,0000,00,00,00,00,011cb7548c,4bf3,4bf3,4bf3,4bf3,2,0,0,00000,00000
16,16,0,000000000000092fcd2fcd2fcd2fcc0472dd52540000000000000000000000000000000000000003c3c3c3c00000000000000000000000000000000000000003fc03ffffffffbf5fd533881fd733cb1fd457fa1fd533ba43040fea43040fea43040fea43040fea,43040fea,43040fea,43040fea,43040fea,1fd533ba,1fd457fa,1fd733cb,5fd53388,f,1,1,0,1,1,1,f,f,f,f,f,f,f,f,0,0,f,f,0000,0000,0000,0000,0000,0000,0000,0000,00,00,00,00,f0,f0,f0,f0,0000,0000,0000,0000,0000,0000,0000,0000,00,00,00,00,011cb75495,4bf3,4bf3,4bf3,4bf3,2,0,0,00000,00000
17,17,0,000000000000092fcd2fcd2fcd2fcc0472dd526c0000000000000000000000000000000000000003c3c3c3c00000000000000000000000000000000000000003fc03ffffffffaf9637b5b29637b5b29637b5b29637b5b250c103fa50c103fa50c103fa50c103fa,50c103fa,50c103fa,50c103fa,50c103fa,9637b5b2,9637b5b2,9637b5b2,9637b5b2,f,0,1,0,1,1,1,f,f,f,f,f,f,f,f,0,0,f,f,0000,0000,0000,0000,0000,0000,0000,0000,00,00,00,00,f0,f0,f0,f0,0000,0000,0000,0000,0000,0000,0000,0000,00,00,00,00,011cb7549b,4bf3,4bf3,4bf3,4bf3,2,0,0,00000,00000
18,18,0,000000000000092fcd2fcd2fcd2fcc0472dd528c0000000000000000000000000000000000000003c3c3c3c00000000000000000000000000000000000000003fc03fffffffeafa58ded6ca58ded6ca58ded6ca58ded6c143040fe143040fe143040fe143040fe,143040fe,143040fe,143040fe,143040fe,a58ded6c,a58ded6c,a58ded6c,a58ded6c,f,0,1,0,1,0,1,f,f,f,f,f,f,f,f,0,0,f,f,0000,0000,0000,0000,0000,0000,0000,0000,00,00,00,00,f0,f0,f0,f0,0000,0000,0000,0000,0000,0000,0000,0000,00,00,00,00,011cb754a3,4bf3,4bf3,4bf3,4bf3,2,0,0,00000,00000
19,19,0,000000000000092fcd2fcd2fcd2fcc0472dd52ac0000000000000000000000000000000000000003c3c3c3c00000000000000000000000000000000000000003fc03fffffffebfe9637b5be9637b5be9637b5be9637b5bc50c103fc50c103fc50c103fc50c103f,c50c103f,c50c103f,c50c103f,c50c103f,e9637b5b,e9637b5b,e9637b5b,e9637b5b,f,1,1,0,1,0,1,f,f,f,f,f,f,f,f,0,0,f,f,0000,0000,0000,0000,0000,0000,0000,0000,00,00,00,00,f0,f0,f0,f0,0000,0000,0000,0000,0000,0000,0000,0000,00,00,00,00,011cb754ab,4bf3,4bf3,4bf3,4bf3,2,0,0,00000,00000
20,20,0,000000000000092fcd2fcd2fcd2fcc0472dd52cc0000000000000000000000000000000000000003c3c3c3c00000000000000000000000000000000000000003fc03ffffffffbfba58ded6ba58ded6ba58ded6ba58ded6ea99dd2cea99dd2cfa99dd2cea99dd2c,ea99dd2c,fa99dd2c,ea99dd2c,ea99dd2c,ba58ded6,ba58ded6,ba58ded6,ba58ded6,f,1,1,0,1,1,1,f,f,f,f,f,f,f,f,0,0,f,f,0000,0000,0000,0000,0000,0000,0000,0000,00,00,00,00,f0,f0,f0,f0,0000,0000,0000,0000,0000,0000,0000,0000,00,00,00,00,011cb754b3,4bf3,4bf3,4bf3,4bf3,2,0,0,00000,00000
21,21,0,000000000000092fcd2fcd2fcd2fcc0472dd52e80000000000000000000000000000000000000003c3c3c3c00000000000000000000000000000000000000003fc03ffffffffbfae9637a5ee8637e5ee871bf5ee9637b5faa6774bfaa6774bfaa6774bfaa6774b,faa6774b,faa6774b,faa6774b,faa6774b,ee9637b5,ee871bf5,ee8637e5,ae9637a5,f,1,1,0,1,1,1,f,f,f,f,f,f,f,f,0,0,f,f,0000,0000,0000,0000,0000,0000,0000,0000,00,00,00,00,f0,f0,f0,f0,0000,0000,0000,0000,0000,0000,0000,0000,00,00,00,00,011cb754ba,4bf3,4bf3,4bf3,4bf3,2,0,0,00000,00000
22,22,0,000000000000092fcd2fcd2fcd2fcc0472dd53080000000000000000000000000000000000000003c3c3c3c00000000000000000000000000000000000000003fc03ffffffffaf6c91c2f96c91c2f96c91c2f96c91c2f9fea99dd2fea99dd2fea99dd2fea99dd2,fea99dd2,fea99dd2,fea99dd2,fea99dd2,6c91c2f9,6c91c2f9,6c91c2f9,6c91c2f9,f,0,1,0,1,1,1,f,f,f,f,f,f,f,f,0,0,f,f,0000,0000,0000,0000,0000,0000,0000,0000,00,00,00,00,f0,f0,f0,f0,0000,0000,0000,0000,0000,0000,0000,0000,00,00,00,00,011cb754c2,4bf3,4bf3,4bf3,4bf3,2,0,0,00000,00000
23,23,0,000000000000092fcd2fcd2fcd2fcc0472dd53280000000000000000000000000000000000000003c3c3c3c00000000000000000000000000000000000000003fc03fffffffeaf5b2470be5b2470be5b2470be5b2470be3faa67743faa67743faa67743faa6774,3faa6774,3faa6774,3faa6774,3faa6774,5b2470be,5b2470be,5b2470be,5b2470be,f,0,1,0,1,0,1,f,f,f,f,f,f,f,f,0,0,f,f,0000,0000,0000,0000,0000,0000,0000,0000,00,00,00,00,f0,f0,f0,f0,0000,0000,0000,0000,0000,0000,0000,0000,00,00,00,00,011cb754ca,4bf3,4bf3,4bf3,4bf3,2,0,0,00000,00000
24,24,0,000000000000092fcd2fcd2fcd2fcc0472dd53480000000000000000000000000000000000000003c3c3c3c00000000000000000000000000000000000000003fc03fffffffeafd6c91c2fd6c91c2fd6c91c2fd6c91c2f0fea99dd0fea99dd0fea99dd0fea99dd,0fea99dd,0fea99dd,0fea99dd,0fea99dd,d6c91c2f,d6c91c2f,d6c91c2f,d6c91c2f,f,0,1,0,1,0,1,f,f,f,f,f,f,f,f,0,0,f,f,0000,0000,0000,0000,0000,0000,0000,0000,00,00,00,00,f0,f0,f0,f0,0000,0000,0000,0000,0000,0000,0000,0000,00,00,00,00,011cb754d2,4bf3,4bf3,4bf3,4bf3,2,0,0,00000,00000
25,25,0,000000000000092fcd2fcd2fcd2fcc0472dd53680000000000000000000000000000000000000003c3c3c3c00000000000000000000000000000000000000003fc03ffffffffbfb5b2470bb5b2470bb5b2470bb5b2470b4b1bdad94b1bdad94b1bdad94b1bdad9,4b1bdad9,4b1bdad9,4b1bdad9,4b1bdad9,b5b2470b,b5b2470b,b5b2470b,b5b2470b,f,1,1,0,1,1,1,f,f,f,f,f,f,f,f,0,0,f,f,0000,0000,0000,0000,0000,0000,0000,0000,00,00,00,00,f0,f0,f0,f0,0000,0000,0000,0000,0000,0000,0000,0000,00,00,00,00,011cb754da,4bf3,4bf3,4bf3,4bf3,2,0,0,00000,00000
26,26,0,000000000000092fcd2fcd2fcd2fcc0472dd538c0000000000000000000000000000000000000003c3c3c3c00000000000000000000000000000000000000003fc03ffffffffbfed6c91f0ed7c9132ed7cd18aed6c91c2d2c6f6b6d2c6f6b6d2c6f6b6d2c6f6b6,d2c6f6b6,d2c6f6b6,d2c6f6b6,d2c6f6b6,ed6c91c2,ed7cd18a,ed7c9132,ed6c91f0,f,1,1,0,1,1,1,f,f,f,f,f,f,f,f,0,0,f,f,0000,0000,0000,0000,0000,0000,0000,0000,00,00,00,00,f0,f0,f0,f0,0000,0000,0000,0000,0000,0000,0000,0000,00,00,00,00,011cb754e3,4bf3,4bf3,4bf3,4bf3,2,0,0,00000,00000
27,27,0,000000000000092fcd2fcd2fcd2fcc0472dd53a40000000000000000000000000000000000000003c3c3c3c00000000000000000000000000000000000000003fc03ffffffffafbe57344fbe57344fbe57344fbe57344f74b1bdad74b1bdad74b1bdad74b1bdad,74b1bdad,74b1bdad,74b1bdad,74b1bdad,be57344f,be57344f,be57344f,be57344f,f,0,1,0,1,1,1,f,f,f,f,f,f,f,f,0,0,f,f,0000,0000,0000,0000,0000,0000,0000,0000,00,00,00,00,f0,f0,f0,f0,0000,0000,0000,0000,0000,0000,0000,0000,00,00,00,00,011cb754e9,4bf3,4bf3,4bf3,4bf3,2,0,0,00000,00000
28,28,0,000000000000092fcd2fcd2fcd2fcc0472dd53c40000000000000000000000000000000000000003c3c3c3c00000000000000000000000000000000000000003fc03fffffffeaf2f95cd132f95cd132f95cd132f95cd13dd2c6f6bdd2c6f6bdd2c6f6bdd2c6f6b,dd2c6f6b,dd2c6f6b,dd2c6f6b,dd2c6f6b,2f95cd13,2f95cd13,2f95cd13,2f95cd13,f,0,1,0,1,0,1,f,f,f,f,f,f,f,f,0,0,f,f,0000,0000,0000,0000,0000,0000,0000,0000,00,00,00,00,f0,f0,f0,f0,0000,0000,0000,0000,0000,0000,0000,0000,00,00,00,00,011cb754f1,4bf3,4bf3,4bf3,4bf3,2,0,0,00000,00000
29,29,0,000000000000092fcd2fcd2fcd2fcc0472dd53e40000000000000000000000000000000000000003c3c3c3c00000000000000000000000000000000000000003fc03fffffffeaf0be573440be573440be573440be57344774b1bda774b1bda774b1bda774b1bda,774b1bda,774b1bda,774b1bda,774b1bda,0be57344,0be57344,0be57344,0be57344,f,0,1,0,1,0,1,f,f,f,f,f,f,f,f,0,0,f,f,0000,0000,0000,0000,0000,0000,0000,0000,00,00,00,00,f0,f0,f0,f0,0000,0000,0000,0000,0000,0000,0000,0000,00,00,00,00,011cb754f9,4bf3,4bf3,4bf3,4bf3,2,0,0,00000,00000
30,30,0,000000000000092fcd2fcd2fcd2fcc0472dd54040000000000000000000000000000000000000003c3c3c3c00000000000000000000000000000000000000003fc03ffffffffbfc2f95cd1c2f95cd1c2f95cd1c2f95cd1b648e17cb648e17cb648e17cb648e17c,b648e17c,b648e17c,b648e17c,b648e17c,c2f95cd1,c2f95cd1,c2f95cd1,c2f95cd1,f,1,1,0,1,1,1,f,f,f,f,f,f,f,f,0,0,f,f,0000,0000,0000,0000,0000,0000,0000,0000,00,00,00,00,f0,f0,f0,f0,0000,0000,0000,0000,0000,0000,0000,0000,00,00,00,00,011cb75501,4bf3,4bf3,4bf3,4bf3,2,0,0,00000,00000
31,31,0,000000000000092fcd2fcd2fcd2fcc0472dd54200000000000000000000000000000000000000003c3c3c3c00000000000000000000000000000000000000003fc03ffffffffbf70be770471bc554470bc337470be5734ad92385fad92385fad92385fad92385f,ad92385f,ad92385f,ad92385f,ad92385f,70be5734,70bc3374,71bc5544,70be7704,f,1,1,0,1,1,1,f,f,f,f,f,f,f,f,0,0,f,f,0000,0000,0000,0000,0000,0000,0000,0000,00,00,00,00,f0,f0,f0,f0,0000,0000,0000,0000,0000,0000,0000,0000,00,00,00,00,011cb75508,4bf3,4bf3,4bf3,4bf3,2,0,0,00000,00000
32,32,0,000000000000092fcd2fcd2fcd2fcc0472dd54400000000000000000000000000000000000000003c3c3c3c00000000000000000000000000000000000000003fc03ffffffffaf13c50c1013c50c1013c50c1013c50c106b648e176b648e176b648e176b648e17,6b648e17,6b648e17,6b648e17,6b648e17,13c50c10,13c50c10,13c50c10,13c50c10,f,0,1,0,1,1,1,f,f,f,f,f,f,f,f,0,0,f,f,0000,0000,0000,0000,0000,0000,0000,0000,00,00,00,00,f0,f0,f0,f0,0000,0000,0000,0000,0000,0000,0000,0000,00,00,00,00,011cb75510,4bf3,4bf3,4bf3,4bf3,2,0,0,00000,00000
33,33,0,000000000000092fcd2fcd2fcd2fcc0472dd54600000000000000000000000000000000000000003c3c3c3c00000000000000000000000000000000000000003fc03fffffffeaf44f1430444f1430444f1430444f14304dad92385dad92385dad92385dad92385,dad92385,dad92385,dad92385,dad92385,44f14304,44f14304,44f14304,44f14304,f,0,1,0,1,0,1,f,f,f,f,f,f,f,f,0,0,f,f,0000,0000,0000,0000,0000,0000,0000,0000,00,00,00,00,f0,f0,f0,f0,0000,0000,0000,0000,0000,0000,0000,0000,00,00,00,00,011cb75518,4bf3,4bf3,4bf3,4bf3,2,0,0,00000,00000
34,34,0,000000000000092fcd2fcd2fcd2fcc0472dd54800000000000000000000000000000000000000003c3c3c3c00000000000000000000000000000000000000003fc03fffffffebfd13c50c1d13c50c1d13c50c1d13c50c1f6b648e1f6b648e1f6b648e1f6b648e1,f6b648e1,f6b648e1,f6b648e1,f6b648e1,d13c50c1,d13c50c1,d13c50c1,d13c50c1,f,1,1,0,1,0,1,f,f,f,f,f,f,f,f,0,0,f,f,0000,0000,0000,0000,0000,0000,0000,0000,00,00,00,00,f0,f0,f0,f0,0000,0000,0000,0000,0000,0000,0000,0000,00,00,00,00,011cb75520,4bf3,4bf3,4bf3,4bf3,2,0,0,00000,00000
35,35,0,000000000000092fcd2fcd2fcd2fcc0472dd54a00000000000000000000000000000000000000003c3c3c3c00000000000000000000000000000000000000003fc03ffffffffbf344f1430344f1430344f1430344f14305f2b9a275f2b9a275f2b9a275f2b9a27,5f2b9a27,5f2b9a27,5f2b9a27,5f2b9a27,344f1430,344f1430,344f1430,344f1430,f,1,1,0,1,1,1,f,f,f,f,f,f,f,f,0,0,f,f,0000,0000,0000,0000,0000,0000,0000,0000,00,00,00,00,f0,f0,f0,f0,0000,0000,0000,0000,0000,0000,0000,0000,00,00,00,00,011cb75528,4bf3,4bf3,4bf3,4bf3,2,0,0,00000,00000
36,36,0,000000000000092fcd2fcd2fcd2fcc0472dd548c0000000000000000000000000000000000000003c3c3c3c00000000000000000000000000000000000000003fc03ffffffffbf8d13e52ecd17c76dcd13a944cd13c50c17cae68917cae68917cae68917cae689,17cae689,17cae689,17cae689,17cae689,cd13c50c,cd13a944,cd17c76d,8d13e52e,f,1,1,0,1,1,1,f,f,f,f,f,f,f,f,0,0,f,f,0000,0000,0000,0000,0000,0000,0000,0000,00,00,00,00,f0,f0,f0,f0,0000,0000,0000,0000,0000,0000,0000,0000,00,00,00,00,011cb75523,4bf3,4bf3,4bf3,4bf3,2,0,0,00000,00000
