Sample in Buffer,Sample in Window,TRIGGER,receiver_0[31:0],ila_data[313:0],receiver_1[31:0],receiver_2[31:0],receiver_3[31:0],transmitter_0[31:0],transmitter_1[31:0],transmitter_2[31:0],transmitter_3[31:0],prbs_match_int[3:0],gtwiz_userclk_rx_usrclk2_int,gtwiz_userclk_rx_active_int,gtwiz_reset_all_int,gtwiz_reset_rx_done_int,gtwiz_userclk_tx_usrclk2_int,gtwiz_userclk_tx_active_int,gtpowergood_int[3:0],rx8b10ben_int[3:0],rxlpmen_int[3:0],rxcommadeten_int[3:0],rxmcommaalignen_int[3:0],rxpcommaalignen_int[3:0],rxbyteisaligned_int[3:0],rxbyterealign_int[3:0],rxcommadet_int[3:0],rxpmaresetdone_int[3:0],tx8b10ben_int[3:0],txpmaresetdone_int[3:0]
Radix - UNSIGNED,UNSIGNED,UNSIGNED,HEX,HEX,HEX,HEX,HEX,HEX,HEX,HEX,HEX,HEX,HEX,HEX,HEX,HEX,HEX,HEX,HEX,HEX,HEX,HEX,HEX,HEX,HEX,HEX,HEX,HEX,HEX,HEX
0,0,0,47be503c,3ffc01fffffffa047c1503c47c1503c47c1503c47c1503cfdc09ab2c257a10847be503c47be503c,47be503c,c257a108,fdc09ab2,47c1503c,47c1503c,47c1503c,47c1503c,0,0,1,0,1,1,1,f,f,f,f,f,f,7,0,0,f,f,f
1,1,0,47bf503c,3ffc01ffffffea047c2503c47c2503c47c2503c47c2503cfd8a9ab24257a10247bf503c47bf503c,47bf503c,4257a102,fd8a9ab2,47c2503c,47c2503c,47c2503c,47c2503c,0,0,1,0,1,0,1,f,f,f,f,f,f,7,0,0,f,f,f
2,2,0,47c0503c,3ffc01ffffffeb047c3503c47c3503c47c3503c47c3503cfdfa9ab24257a11e47c0503c47c0503c,47c0503c,4257a11e,fdfa9ab2,47c3503c,47c3503c,47c3503c,47c3503c,0,1,1,0,1,0,1,f,f,f,f,f,f,7,0,0,f,f,f
3,3,0,47c1503c,3ffc01fffffffb047c4503c47c4503c47c4503c47c4503cfd209ab2c257a11b47c1503c47c1503c,47c1503c,c257a11b,fd209ab2,47c4503c,47c4503c,47c4503c,47c4503c,0,1,1,0,1,1,1,f,f,f,f,f,f,7,0,0,f,f,f
4,4,0,47c2503c,3ffc01fffffffa047c5503c47c5503c47c5503c47c5503cfd3f9ab24257a11b47c2503c47c2503c,47c2503c,4257a11b,fd3f9ab2,47c5503c,47c5503c,47c5503c,47c5503c,0,0,1,0,1,1,1,f,f,f,f,f,f,7,0,0,f,f,f
5,5,0,47c3503c,3ffc01fffffffa047c6503c47c6503c47c6503c47c6503cfd4ee6b2fdd7016847c3503c47c3503c,47c3503c,fdd70168,fd4ee6b2,47c6503c,47c6503c,47c6503c,47c6503c,0,0,1,0,1,1,1,f,f,f,f,f,f,7,0,0,f,f,f
6,6,0,47c4503c,3ffc01ffffffea047c7503c47c7503c47c7503c47c7503cfd229ab20257a10547c4503c47c4503c,47c4503c,0257a105,fd229ab2,47c7503c,47c7503c,47c7503c,47c7503c,0,0,1,0,1,0,1,f,f,f,f,f,f,7,0,0,f,f,f
7,7,0,47c5503c,3ffc01ffffffeb047c8503c47c8503c47c8503c47c8503cff56e6b2dbd7016947c5503c47c5503c,47c5503c,dbd70169,ff56e6b2,47c8503c,47c8503c,47c8503c,47c8503c,0,1,1,0,1,0,1,f,f,f,f,f,f,7,0,0,f,f,f
8,8,0,47c6503c,3ffc01fffffffb047c9503c47c9503c47c9503c47c9503c9e5a9ab24257a10947c6503c47c6503c,47c6503c,4257a109,9e5a9ab2,47c9503c,47c9503c,47c9503c,47c9503c,0,1,1,0,1,1,1,f,f,f,f,f,f,7,0,0,f,f,f
9,9,0,47c7503c,3ffc01fffffffa047ca503c47ca503c47ca503c47ca503c9e9d9ab20257a11e47c7503c47c7503c,47c7503c,0257a11e,9e9d9ab2,47ca503c,47ca503c,47ca503c,47ca503c,0,0,1,0,1,1,1,f,f,f,f,f,f,7,0,0,f,f,f
10,10,0,47c8503c,3ffc01fffffffa047cb503c47cb503c47cb503c47cb503c9e5ee6b2fdd7016947c8503c47c8503c,47c8503c,fdd70169,9e5ee6b2,47cb503c,47cb503c,47cb503c,47cb503c,0,0,1,0,1,1,1,f,f,f,f,f,f,7,0,0,f,f,f
11,11,0,47c9503c,3ffc01ffffffea047cc503c47cc503c47cc503c47cc503c9e469ab2c257a10a47c9503c47c9503c,47c9503c,c257a10a,9e469ab2,47cc503c,47cc503c,47cc503c,47cc503c,0,0,1,0,1,0,1,f,f,f,f,f,f,7,0,0,f,f,f
12,12,0,47ca503c,3ffc01ffffffeb047cd503c47cd503c47cd503c47cd503c9c4a9ab24057a10a47ca503c47ca503c,47ca503c,4057a10a,9c4a9ab2,47cd503c,47cd503c,47cd503c,47cd503c,0,1,1,0,1,0,1,f,f,f,f,f,f,7,0,0,f,f,f
13,13,0,47cb503c,3ffc01fffffffb047ce503c47ce503c47ce503c47ce503cfde1e6b2fdd7016247cb503c47cb503c,47cb503c,fdd70162,fde1e6b2,47ce503c,47ce503c,47ce503c,47ce503c,0,1,1,0,1,1,1,f,f,f,f,f,f,7,0,0,f,f,f
14,14,0,47cc503c,3ffc01fffffffa047cf503c47cf503c47cf503c47cf503cfd52e6b2a2d7016b47cc503c47cc503c,47cc503c,a2d7016b,fd52e6b2,47cf503c,47cf503c,47cf503c,47cf503c,0,0,1,0,1,1,1,f,f,f,f,f,f,7,0,0,f,f,f
15,15,0,47cd503c,3ffc01fffffffa047d0503c47d0503c47d0503c47d0503cfdf0e6b2ddd7016347cd503c47cd503c,47cd503c,ddd70163,fdf0e6b2,47d0503c,47d0503c,47d0503c,47d0503c,0,0,1,0,1,1,1,f,f,f,f,f,f,7,0,0,f,f,f
16,16,0,47ce503c,3ffc01ffffffea047d1503c47d1503c47d1503c47d1503cfdefe6b25dd7016347ce503c47ce503c,47ce503c,5dd70163,fdefe6b2,47d1503c,47d1503c,47d1503c,47d1503c,0,0,1,0,1,0,1,f,f,f,f,f,f,7,0,0,f,f,f
17,17,0,47cf503c,3ffc01ffffffeb047d2503c47d2503c47d2503c47d2503cfdf69ab2c257a11e47cf503c47cf503c,47cf503c,c257a11e,fdf69ab2,47d2503c,47d2503c,47d2503c,47d2503c,0,1,1,0,1,0,1,f,f,f,f,f,f,7,0,0,f,f,f
18,18,0,47d0503c,3ffc01fffffffb047d3503c47d3503c47d3503c47d3503cfde69ab2c257a11d47d0503c47d0503c,47d0503c,c257a11d,fde69ab2,47d3503c,47d3503c,47d3503c,47d3503c,0,1,1,0,1,1,1,f,f,f,f,f,f,7,0,0,f,f,f
19,19,0,47d1503c,3ffc01fffffffa047d4503c47d4503c47d4503c47d4503cfd80e6b2ddd7016c47d1503c47d1503c,47d1503c,ddd7016c,fd80e6b2,47d4503c,47d4503c,47d4503c,47d4503c,0,0,1,0,1,1,1,f,f,f,f,f,f,7,0,0,f,f,f
20,20,0,47d2503c,3ffc01fffffffa047d5503c47d5503c47d5503c47d5503cfd9fe6b25dd7016c47d2503c47d2503c,47d2503c,5dd7016c,fd9fe6b2,47d5503c,47d5503c,47d5503c,47d5503c,0,0,1,0,1,1,1,f,f,f,f,f,f,7,0,0,f,f,f
21,21,0,47d3503c,3ffc01ffffffea047d6503c47d6503c47d6503c47d6503cfd2ee6b2fdd7016447d3503c47d3503c,47d3503c,fdd70164,fd2ee6b2,47d6503c,47d6503c,47d6503c,47d6503c,0,0,1,0,1,0,1,f,f,f,f,f,f,7,0,0,f,f,f
22,22,0,47d4503c,3ffc01ffffffeb047d7503c47d7503c47d7503c47d7503cff82e6b2a2d7016d47d4503c47d4503c,47d4503c,a2d7016d,ff82e6b2,47d7503c,47d7503c,47d7503c,47d7503c,0,1,1,0,1,0,1,f,f,f,f,f,f,7,0,0,f,f,f
23,23,0,47d5503c,3ffc01fffffffb047d8503c47d8503c47d8503c47d8503c9e369ab2c257a10547d5503c47d5503c,47d5503c,c257a105,9e369ab2,47d8503c,47d8503c,47d8503c,47d8503c,0,1,1,0,1,1,1,f,f,f,f,f,f,7,0,0,f,f,f
24,24,0,47d6503c,3ffc01fffffffa047d9503c47d9503c47d9503c47d9503c9e3a9ab24257a10547d6503c47d6503c,47d6503c,4257a105,9e3a9ab2,47d9503c,47d9503c,47d9503c,47d9503c,0,0,1,0,1,1,1,f,f,f,f,f,f,7,0,0,f,f,f
25,25,0,47d7503c,3ffc01fffffffa047da503c47da503c47da503c47da503c9e3ee6b2fdd7016547d7503c47d7503c,47d7503c,fdd70165,9e3ee6b2,47da503c,47da503c,47da503c,47da503c,0,0,1,0,1,1,1,f,f,f,f,f,f,7,0,0,f,f,f
26,26,0,47d8503c,3ffc01ffffffea047db503c47db503c47db503c47db503c9e8ee6b2fdd7016c47d8503c47d8503c,47d8503c,fdd7016c,9e8ee6b2,47db503c,47db503c,47db503c,47db503c,0,0,1,0,1,0,1,f,f,f,f,f,f,7,0,0,f,f,f
27,27,0,47d9503c,3ffc01ffffffeb047dc503c47dc503c47dc503c47dc503cdc269eb2c457a10647d9503c47d9503c,47d9503c,c457a106,dc269eb2,47dc503c,47dc503c,47dc503c,47dc503c,0,1,1,0,1,0,1,f,f,f,f,f,f,7,0,0,f,f,f
28,28,0,47da503c,3ffc01fffffffb047dd503c47dd503c47dd503c47dd503cfd2ae6b25dd7016647da503c47da503c,47da503c,5dd70166,fd2ae6b2,47dd503c,47dd503c,47dd503c,47dd503c,0,1,1,0,1,1,1,f,f,f,f,f,f,7,0,0,f,f,f
29,29,0,47db503c,3ffc01fffffffa047de503c47de503c47de503c47de503cfd429ab20257a10947db503c47db503c,47db503c,0257a109,fd429ab2,47de503c,47de503c,47de503c,47de503c,0,0,1,0,1,1,1,f,f,f,f,f,f,7,0,0,f,f,f
30,30,0,47dc503c,3ffc01fffffffa047df503c47df503c47df503c47df503cfd32e6b2a2d7016747dc503c47dc503c,47dc503c,a2d70167,fd32e6b2,47df503c,47df503c,47df503c,47df503c,0,0,1,0,1,1,1,f,f,f,f,f,f,7,0,0,f,f,f
31,31,0,47dd503c,3ffc01ffffffea047e0503c47e0503c47e0503c47e0503cfd5f9ab24257a11747dd503c47dd503c,47dd503c,4257a117,fd5f9ab2,47e0503c,47e0503c,47e0503c,47e0503c,0,0,1,0,1,0,1,f,f,f,f,f,f,7,0,0,f,f,f
32,32,0,47de503c,3ffc01ffffffeb047e1503c47e1503c47e1503c47e1503cfd409ab2c257a11747de503c47de503c,47de503c,c257a117,fd409ab2,47e1503c,47e1503c,47e1503c,47e1503c,0,1,1,0,1,0,1,f,f,f,f,f,f,7,0,0,f,f,f
33,33,0,47df503c,3ffc01fffffffb047e2503c47e2503c47e2503c47e2503cfdea9ab24257a11d47df503c47df503c,47df503c,4257a11d,fdea9ab2,47e2503c,47e2503c,47e2503c,47e2503c,0,1,1,0,1,1,1,f,f,f,f,f,f,7,0,0,f,f,f
34,34,0,47e0503c,3ffc01fffffffa047e3503c47e3503c47e3503c47e3503cfe66e6b2ddd7017147e0503c47e0503c,47e0503c,ddd70171,fe66e6b2,47e3503c,47e3503c,47e3503c,47e3503c,0,0,1,0,1,1,1,f,f,f,f,f,f,7,0,0,f,f,f
35,35,0,47e1503c,3ffc01fffffffa047e4503c47e4503c47e4503c47e4503cfe0fe6b25dd7017447e1503c47e1503c,47e1503c,5dd70174,fe0fe6b2,47e4503c,47e4503c,47e4503c,47e4503c,0,0,1,0,1,1,1,f,f,f,f,f,f,7,0,0,f,f,f
36,36,0,47e2503c,3ffc01ffffffea047e5503c47e5503c47e5503c47e5503cfe10e6b2ddd7017447e2503c47e2503c,47e2503c,ddd70174,fe10e6b2,47e5503c,47e5503c,47e5503c,47e5503c,0,0,1,0,1,0,1,f,f,f,f,f,f,7,0,0,f,f,f
37,37,0,47e3503c,3ffc01ffffffeb047e6503c47e6503c47e6503c47e6503cfe0e9ab2ad57a18847e3503c47e3503c,47e3503c,ad57a188,fe0e9ab2,47e6503c,47e6503c,47e6503c,47e6503c,0,1,1,0,1,0,1,f,f,f,f,f,f,7,0,0,f,f,f
38,38,0,47e4503c,3ffc01fffffffb047e7503c47e7503c47e7503c47e7503c9e029ab20257a18a47e4503c47e4503c,47e4503c,0257a18a,9e029ab2,47e7503c,47e7503c,47e7503c,47e7503c,0,1,1,0,1,1,1,f,f,f,f,f,f,7,0,0,f,f,f
39,39,0,47e5503c,3ffc01fffffffa047e8503c47e8503c47e8503c47e8503c9e96e6b2ddd7017947e5503c47e5503c,47e5503c,ddd70179,9e96e6b2,47e8503c,47e8503c,47e8503c,47e8503c,0,0,1,0,1,1,1,f,f,f,f,f,f,7,0,0,f,f,f
40,40,0,47e6503c,3ffc01fffffffa047e9503c47e9503c47e9503c47e9503c9e9ae6b25dd7017947e6503c47e6503c,47e6503c,5dd70179,9e9ae6b2,47e9503c,47e9503c,47e9503c,47e9503c,0,0,1,0,1,1,1,f,f,f,f,f,f,7,0,0,f,f,f
41,41,0,47e7503c,3ffc01ffffffea047ea503c47ea503c47ea503c47ea503c9e7ee6b2fdd7017147e7503c47e7503c,47e7503c,fdd70171,9e7ee6b2,47ea503c,47ea503c,47ea503c,47ea503c,0,0,1,0,1,0,1,f,f,f,f,f,f,7,0,0,f,f,f
42,42,0,47e8503c,3ffc01ffffffeb047eb503c47eb503c47eb503c47eb503c9e1d9ab2c457a18847e8503c47e8503c,47e8503c,c457a188,9e1d9ab2,47eb503c,47eb503c,47eb503c,47eb503c,0,1,1,0,1,0,1,f,f,f,f,f,f,7,0,0,f,f,f
43,43,0,47e9503c,3ffc01fffffffb047ec503c47ec503c47ec503c47ec503c9ea6e6b2ddd7017a47e9503c47e9503c,47e9503c,ddd7017a,9ea6e6b2,47ec503c,47ec503c,47ec503c,47ec503c,0,1,1,0,1,1,1,f,f,f,f,f,f,7,0,0,f,f,f
44,44,0,47ea503c,3ffc01fffffffa047ed503c47ed503c47ed503c47ed503c9eaae6b25dd7017a47ea503c47ea503c,47ea503c,5dd7017a,9eaae6b2,47ed503c,47ed503c,47ed503c,47ed503c,0,0,1,0,1,1,1,f,f,f,f,f,f,7,0,0,f,f,f
45,45,0,47eb503c,3ffc01fffffffa047ee503c47ee503c47ee503c47ee503c9e61e6b2fdd7017247eb503c47eb503c,47eb503c,fdd70172,9e61e6b2,47ee503c,47ee503c,47ee503c,47ee503c,0,0,1,0,1,1,1,f,f,f,f,f,f,7,0,0,f,f,f
46,46,0,47ec503c,3ffc01ffffffea047ef503c47ef503c47ef503c47ef503c9ef2e6b2a2d7017b47ec503c47ec503c,47ec503c,a2d7017b,9ef2e6b2,47ef503c,47ef503c,47ef503c,47ef503c,0,0,1,0,1,0,1,f,f,f,f,f,f,7,0,0,f,f,f
47,47,0,47ed503c,3ffc01ffffffeb047f0503c47f0503c47f0503c47f0503c9e70e6b2ddd7017347ed503c47ed503c,47ed503c,ddd70173,9e70e6b2,47f0503c,47f0503c,47f0503c,47f0503c,0,1,1,0,1,0,1,f,f,f,f,f,f,7,0,0,f,f,f
48,48,0,47ee503c,3ffc01fffffffb047f1503c47f1503c47f1503c47f1503c9e6fe6b25dd7017347ee503c47ee503c,47ee503c,5dd70173,9e6fe6b2,47f1503c,47f1503c,47f1503c,47f1503c,0,1,1,0,1,1,1,f,f,f,f,f,f,7,0,0,f,f,f
49,49,0,47ef503c,3ffc01fffffffa047f2503c47f2503c47f2503c47f2503c9e769ab2c257a18e47ef503c47ef503c,47ef503c,c257a18e,9e769ab2,47f2503c,47f2503c,47f2503c,47f2503c,0,0,1,0,1,1,1,f,f,f,f,f,f,7,0,0,f,f,f
50,50,0,47f0503c,3ffc01fffffffa047f3503c47f3503c47f3503c47f3503c9e669ab2c257a18d47f0503c47f0503c,47f0503c,c257a18d,9e669ab2,47f3503c,47f3503c,47f3503c,47f3503c,0,0,1,0,1,1,1,f,f,f,f,f,f,7,0,0,f,f,f
51,51,0,47f1503c,3ffc01ffffffea047f4503c47f4503c47f4503c47f4503c8380e6b2ddd7016c47f1503c47f1503c,47f1503c,ddd7016c,8380e6b2,47f4503c,47f4503c,47f4503c,47f4503c,0,0,1,0,1,0,1,f,f,f,f,f,f,7,0,0,f,f,f
52,52,0,47f2503c,3ffc01ffffffeb047f5503c47f5503c47f5503c47f5503c839fe6b25dd7016c47f2503c47f2503c,47f2503c,5dd7016c,839fe6b2,47f5503c,47f5503c,47f5503c,47f5503c,0,1,1,0,1,0,1,f,f,f,f,f,f,7,0,0,f,f,f
53,53,0,47f3503c,3ffc01fffffffb047f6503c47f6503c47f6503c47f6503c9e0ee6b2fdd7017447f3503c47f3503c,47f3503c,fdd70174,9e0ee6b2,47f6503c,47f6503c,47f6503c,47f6503c,0,1,1,0,1,1,1,f,f,f,f,f,f,7,0,0,f,f,f
54,54,0,47f4503c,3ffc01fffffffa047f7503c47f7503c47f7503c47f7503c8382e6b2a2d701ed47f4503c47f4503c,47f4503c,a2d701ed,8382e6b2,47f7503c,47f7503c,47f7503c,47f7503c,0,0,1,0,1,1,1,f,f,f,f,f,f,7,0,0,f,f,f
55,55,0,47f5503c,3ffc01fffffffa047f8503c47f8503c47f8503c47f8503c9e16e6b2ddd7017547f5503c47f5503c,47f5503c,ddd70175,9e16e6b2,47f8503c,47f8503c,47f8503c,47f8503c,0,0,1,0,1,1,1,f,f,f,f,f,f,7,0,0,f,f,f
56,56,0,47f6503c,3ffc01ffffffea047f9503c47f9503c47f9503c47f9503c9e1ae6b25dd7017547f6503c47f6503c,47f6503c,5dd70175,9e1ae6b2,47f9503c,47f9503c,47f9503c,47f9503c,0,0,1,0,1,0,1,f,f,f,f,f,f,7,0,0,f,f,f
57,57,0,47f7503c,3ffc01ffffffeb047fa503c47fa503c47fa503c47fa503cdefd9ab2c457a18447f7503c47f7503c,47f7503c,c457a184,defd9ab2,47fa503c,47fa503c,47fa503c,47fa503c,0,1,1,0,1,0,1,f,f,f,f,f,f,7,0,0,f,f,f
58,58,0,47f8503c,3ffc01fffffffb047fb503c47fb503c47fb503c47fb503cfe6ee6b2fdd7017347f8503c47f8503c,47f8503c,fdd70173,fe6ee6b2,47fb503c,47fb503c,47fb503c,47fb503c,0,1,1,0,1,1,1,f,f,f,f,f,f,7,0,0,f,f,f
59,59,0,47f9503c,3ffc01fffffffa047fc503c47fc503c47fc503c47fc503cfe669ab2c257a18647f9503c47f9503c,47f9503c,c257a186,fe669ab2,47fc503c,47fc503c,47fc503c,47fc503c,0,0,1,0,1,1,1,f,f,f,f,f,f,7,0,0,f,f,f
60,60,0,47fa503c,3ffc01fffffffa047fd503c47fd503c47fd503c47fd503cfe6a9ab24257a18647fa503c47fa503c,47fa503c,4257a186,fe6a9ab2,47fd503c,47fd503c,47fd503c,47fd503c,0,0,1,0,1,1,1,f,f,f,f,f,f,7,0,0,f,f,f
61,61,0,47fb503c,3ffc01ffffffea047fe503c47fe503c47fe503c47fe503cfe6ee6b2fdd7017947fb503c47fb503c,47fb503c,fdd70179,fe6ee6b2,47fe503c,47fe503c,47fe503c,47fe503c,0,0,1,0,1,0,1,f,f,f,f,f,f,7,0,0,f,f,f
62,62,0,47fc503c,3ffc01ffffffeb047ff503c47ff503c47ff503c47ff503cfe729ab20257a18747fc503c47fc503c,47fc503c,0257a187,fe729ab2,47ff503c,47ff503c,47ff503c,47ff503c,0,1,1,0,1,0,1,f,f,f,f,f,f,7,0,0,f,f,f
63,63,0,47fd503c,3ffc01fffffffb04800503c4800503c4800503c4800503c9e8a9ab24257a18747fd503c47fd503c,47fd503c,4257a187,9e8a9ab2,4800503c,4800503c,4800503c,4800503c,0,1,1,0,1,1,1,f,f,f,f,f,f,7,0,0,f,f,f
64,64,0,47fe503c,3ffc01fffffffa04801503c4801503c4801503c4801503c9e869ab2c257a18747fe503c47fe503c,47fe503c,c257a187,9e869ab2,4801503c,4801503c,4801503c,4801503c,0,0,1,0,1,1,1,f,f,f,f,f,f,7,0,0,f,f,f
65,65,0,47ff503c,3ffc01fffffffa04802503c4802503c4802503c4802503c9e6a9ab24257a18d47ff503c47ff503c,47ff503c,4257a18d,9e6a9ab2,4802503c,4802503c,4802503c,4802503c,0,0,1,0,1,1,1,f,f,f,f,f,f,7,0,0,f,f,f
66,66,0,4800503c,3ffc01ffffffea04803503c4803503c4803503c4803503c5c86e6b2ddd709614800503c4800503c,4800503c,ddd70961,5c86e6b2,4803503c,4803503c,4803503c,4803503c,0,0,1,0,1,0,1,f,f,f,f,f,f,7,0,0,f,f,f
67,67,0,4801503c,3ffc01ffffffeb04804503c4804503c4804503c4804503c5c4fe6b25dd709644801503c4801503c,4801503c,5dd70964,5c4fe6b2,4804503c,4804503c,4804503c,4804503c,0,1,1,0,1,0,1,f,f,f,f,f,f,7,0,0,f,f,f
68,68,0,4802503c,3ffc01fffffffb04805503c4805503c4805503c4805503c5c50e6b2ddd709644802503c4802503c,4802503c,ddd70964,5c50e6b2,4805503c,4805503c,4805503c,4805503c,0,1,1,0,1,1,1,f,f,f,f,f,f,7,0,0,f,f,f
69,69,0,4803503c,3ffc01fffffffa04806503c4806503c4806503c4806503c5c4e9ab2ad5706684803503c4803503c,4803503c,ad570668,5c4e9ab2,4806503c,4806503c,4806503c,4806503c,0,0,1,0,1,1,1,f,f,f,f,f,f,7,0,0,f,f,f
70,70,0,4804503c,3ffc01fffffffa04807503c4807503c4807503c4807503c5c41e6b2fdd7096a4804503c4804503c,4804503c,fdd7096a,5c41e6b2,4807503c,4807503c,4807503c,4807503c,0,0,1,0,1,1,1,f,f,f,f,f,f,7,0,0,f,f,f
71,71,0,4805503c,3ffc01ffffffea04808503c4808503c4808503c4808503c5c569ab2c25706794805503c4805503c,4805503c,c2570679,5c569ab2,4808503c,4808503c,4808503c,4808503c,0,0,1,0,1,0,1,f,f,f,f,f,f,7,0,0,f,f,f
72,72,0,4806503c,3ffc01ffffffeb04809503c4809503c4809503c4809503c1e5a9eb2445705794806503c4806503c,4806503c,44570579,1e5a9eb2,4809503c,4809503c,4809503c,4809503c,0,1,1,0,1,0,1,f,f,f,f,f,f,7,0,0,f,f,f
73,73,0,4807503c,3ffc01fffffffb0480a503c480a503c480a503c480a503c239ee6b2fdd709614807503c4807503c,4807503c,fdd70961,239ee6b2,480a503c,480a503c,480a503c,480a503c,0,1,1,0,1,1,1,f,f,f,f,f,f,7,0,0,f,f,f
74,74,0,4808503c,3ffc01fffffffa0480b503c480b503c480b503c480b503c23bd9ab2025706764808503c4808503c,4808503c,02570676,23bd9ab2,480b503c,480b503c,480b503c,480b503c,0,0,1,0,1,1,1,f,f,f,f,f,f,7,0,0,f,f,f
75,75,0,4809503c,3ffc01fffffffa0480c503c480c503c480c503c480c503c23c6e6b2ddd7096a4809503c4809503c,4809503c,ddd7096a,23c6e6b2,480c503c,480c503c,480c503c,480c503c,0,0,1,0,1,1,1,f,f,f,f,f,f,7,0,0,f,f,f
76,76,0,480a503c,3ffc01ffffffea0480d503c480d503c480d503c480d503c23cae6b25dd7096a480a503c480a503c,480a503c,5dd7096a,23cae6b2,480d503c,480d503c,480d503c,480d503c,0,0,1,0,1,0,1,f,f,f,f,f,f,7,0,0,f,f,f
77,77,0,480b503c,3ffc01ffffffeb0480e503c480e503c480e503c480e503c6181e2b2bdd70e22480b503c480b503c,480b503c,bdd70e22,6181e2b2,480e503c,480e503c,480e503c,480e503c,0,1,1,0,1,0,1,f,f,f,f,f,f,7,0,0,f,f,f
78,78,0,480c503c,3ffc01fffffffb0480f503c480f503c480f503c480f503c5c529ab2025706db480c503c480c503c,480c503c,025706db,5c529ab2,480f503c,480f503c,480f503c,480f503c,0,1,1,0,1,1,1,f,f,f,f,f,f,7,0,0,f,f,f
79,79,0,480d503c,3ffc01fffffffa04810503c4810503c4810503c4810503c5cf09ab2c2570673480d503c480d503c,480d503c,c2570673,5cf09ab2,4810503c,4810503c,4810503c,4810503c,0,0,1,0,1,1,1,f,f,f,f,f,f,7,0,0,f,f,f
80,80,0,480e503c,3ffc01fffffffa04811503c4811503c4811503c4811503c5cef9ab242570673480e503c480e503c,480e503c,42570673,5cef9ab2,4811503c,4811503c,4811503c,4811503c,0,0,1,0,1,1,1,f,f,f,f,f,f,7,0,0,f,f,f
81,81,0,480f503c,3ffc01ffffffea04812503c4812503c4812503c4812503c5c8ae6b25dd70961480f503c480f503c,480f503c,5dd70961,5c8ae6b2,4812503c,4812503c,4812503c,4812503c,0,0,1,0,1,0,1,f,f,f,f,f,f,7,0,0,f,f,f
82,82,0,4810503c,3ffc01ffffffeb04813503c4813503c4813503c4813503c5c9ae6b25dd709624810503c4810503c,4810503c,5dd70962,5c9ae6b2,4813503c,4813503c,4813503c,4813503c,0,1,1,0,1,0,1,f,f,f,f,f,f,7,0,0,f,f,f
83,83,0,4811503c,3ffc01fffffffb04814503c4814503c4814503c4814503c23e0e6b2ddd7096c4811503c4811503c,4811503c,ddd7096c,23e0e6b2,4814503c,4814503c,4814503c,4814503c,0,1,1,0,1,1,1,f,f,f,f,f,f,7,0,0,f,f,f
84,84,0,4812503c,3ffc01fffffffa04815503c4815503c4815503c4815503c23ffe6b25dd7096c4812503c4812503c,4812503c,5dd7096c,23ffe6b2,4815503c,4815503c,4815503c,4815503c,0,0,1,0,1,1,1,f,f,f,f,f,f,7,0,0,f,f,f
85,85,0,4813503c,3ffc01fffffffa04816503c4816503c4816503c4816503c23aee6b2fdd709244813503c4813503c,4813503c,fdd70924,23aee6b2,4816503c,4816503c,4816503c,4816503c,0,0,1,0,1,1,1,f,f,f,f,f,f,7,0,0,f,f,f
86,86,0,4814503c,3ffc01ffffffea04817503c4817503c4817503c4817503c23e2e6b2a2d709624814503c4814503c,4814503c,a2d70962,23e2e6b2,4817503c,4817503c,4817503c,4817503c,0,0,1,0,1,0,1,f,f,f,f,f,f,7,0,0,f,f,f
87,87,0,4815503c,3ffc01ffffffeb04818503c4818503c4818503c4818503c61b6e6b2dbd70e654815503c4815503c,4815503c,dbd70e65,61b6e6b2,4818503c,4818503c,4818503c,4818503c,0,1,1,0,1,0,1,f,f,f,f,f,f,7,0,0,f,f,f
88,88,0,4816503c,3ffc01fffffffb04819503c4819503c4819503c4819503c5c3a9ab2425706754816503c4816503c,4816503c,42570675,5c3a9ab2,4819503c,4819503c,4819503c,4819503c,0,1,1,0,1,1,1,f,f,f,f,f,f,7,0,0,f,f,f
89,89,0,4817503c,3ffc01fffffffa0481a503c481a503c481a503c481a503c5c3ee6b2fdd709654817503c4817503c,4817503c,fdd70965,5c3ee6b2,481a503c,481a503c,481a503c,481a503c,0,0,1,0,1,1,1,f,f,f,f,f,f,7,0,0,f,f,f
90,90,0,4818503c,3ffc01fffffffa0481b503c481b503c481b503c481b503c5c8ee6b2fdd7096c4818503c4818503c,4818503c,fdd7096c,5c8ee6b2,481b503c,481b503c,481b503c,481b503c,0,0,1,0,1,1,1,f,f,f,f,f,f,7,0,0,f,f,f
91,91,0,4819503c,3ffc01ffffffea0481c503c481c503c481c503c481c503c5c269ab2c25706764819503c4819503c,4819503c,c2570676,5c269ab2,481c503c,481c503c,481c503c,481c503c,0,0,1,0,1,0,1,f,f,f,f,f,f,7,0,0,f,f,f
92,92,0,481a503c,3ffc01ffffffeb0481d503c481d503c481d503c481d503c5e2a9ab240570576481a503c481a503c,481a503c,40570576,5e2a9ab2,481d503c,481d503c,481d503c,481d503c,0,1,1,0,1,0,1,f,f,f,f,f,f,7,0,0,f,f,f
93,93,0,481b503c,3ffc01fffffffb0481e503c481e503c481e503c481e503c5c21e6b2fdd70966481b503c481b503c,481b503c,fdd70966,5c21e6b2,481e503c,481e503c,481e503c,481e503c,0,1,1,0,1,1,1,f,f,f,f,f,f,7,0,0,f,f,f
94,94,0,481c503c,3ffc01fffffffa0481f503c481f503c481f503c481f503c5c329ab2025706d7481c503c481c503c,481c503c,025706d7,5c329ab2,481f503c,481f503c,481f503c,481f503c,0,0,1,0,1,1,1,f,f,f,f,f,f,7,0,0,f,f,f
95,95,0,481d503c,3ffc01fffffffa04820503c4820503c4820503c4820503c5c30e6b2ddd70968481d503c481d503c,481d503c,ddd70968,5c30e6b2,4820503c,4820503c,4820503c,4820503c,0,0,1,0,1,1,1,f,f,f,f,f,f,7,0,0,f,f,f
96,96,0,481e503c,3ffc01ffffffea04821503c4821503c4821503c4821503c5c2fe6b25dd70968481e503c481e503c,481e503c,5dd70968,5c2fe6b2,4821503c,4821503c,4821503c,4821503c,0,0,1,0,1,0,1,f,f,f,f,f,f,7,0,0,f,f,f
