Sample in Buffer,Sample in Window,TRIGGER,receiver_0[31:0],ila_data[617:0],receiver_1[31:0],receiver_2[31:0],receiver_3[31:0],transmitter_0[31:0],transmitter_1[31:0],transmitter_2[31:0],transmitter_3[31:0],prbs_match_int[3:0],ch0_rxctrl0_int[15:0],ch1_rxctrl0_int[15:0],ch2_rxctrl0_int[15:0],ch3_rxctrl0_int[15:0],ch0_rxctrl1_int[15:0],ch1_rxctrl1_int[15:0],ch2_rxctrl1_int[15:0],ch3_rxctrl1_int[15:0],ch0_rxctrl2_int[7:0],ch1_rxctrl2_int[7:0],ch2_rxctrl2_int[7:0],ch3_rxctrl2_int[7:0],ch0_rxctrl3_int[7:0],ch1_rxctrl3_int[7:0],ch2_rxctrl3_int[7:0],ch3_rxctrl3_int[7:0],ch0_txctrl0_int[15:0],ch1_txctrl0_int[15:0],ch2_txctrl0_int[15:0],ch3_txctrl0_int[15:0],ch0_txctrl1_int[15:0],ch1_txctrl1_int[15:0],ch2_txctrl1_int[15:0],ch3_txctrl1_int[15:0],ch0_txctrl2_int[7:0],ch1_txctrl2_int[7:0],ch2_txctrl2_int[7:0],ch3_txctrl2_int[7:0],hb0_gtwiz_userclk_rx_usrclk2_int,hb0_gtwiz_userclk_rx_active_int,hb_gtwiz_reset_all_int,hb0_gtwiz_reset_rx_done_int,hb0_gtwiz_userclk_tx_usrclk2_int,hb0_gtwiz_userclk_tx_active_int
Radix - UNSIGNED,UNSIGNED,UNSIGNED,HEX,HEX,HEX,HEX,HEX,HEX,HEX,HEX,HEX,HEX,HEX,HEX,HEX,HEX,HEX,HEX,HEX,HEX,HEX,HEX,HEX,HEX,HEX,HEX,HEX,HEX,HEX,HEX,HEX,HEX,HEX,HEX,HEX,HEX,HEX,HEX,HEX,HEX,HEX,HEX,HEX,HEX,HEX,HEX
0,0,0,b50aff63,2a0000000000000000000000000000000000000000f2f0f0f000000000000100000000000000000000000000000b5d750bc4a2850bcdaeb50bc251450bc5179bba1b0435189b043422db50aff63,b043422d,b0435189,5179bba1,251450bc,daeb50bc,4a2850bc,b5d750bc,0,0000,0000,0000,0000,0000,0000,0000,0001,00,00,00,00,f0,f0,f0,f2,0000,0000,0000,0000,0000,0000,0000,0000,00,00,00,00,0,1,0,1,0,1
1,1,0,ad1aff63,2b0000000000000000000000000000000000000000f2f0f0f000000000000100000000000000000000000000000b5d550bc4a2a50bcdaea50bc251550bc517abba1b043518ab043422bad1aff63,b043422b,b043518a,517abba1,251550bc,daea50bc,4a2a50bc,b5d550bc,0,0000,0000,0000,0000,0000,0000,0000,0001,00,00,00,00,f0,f0,f0,f2,0000,0000,0000,0000,0000,0000,0000,0000,00,00,00,00,1,1,0,1,0,1
2,2,0,0f1aff6c,3b0000000000000000000000000000000000000000f2f0f0f000000000000100000000000d00000000000000000b5d350bc4a2c50bcdae950bc251650bc516bbba1b043518bb04342290f1aff6c,b0434229,b043518b,516bbba1,251650bc,dae950bc,4a2c50bc,b5d350bc,0,0000,0000,0000,0000,000d,0000,0000,0001,00,00,00,00,f0,f0,f0,f2,0000,0000,0000,0000,0000,0000,0000,0000,00,00,00,00,1,1,0,1,1,1
3,3,0,9f1aff6c,3a0000000000000000000000000000000000000000f2f0f0f000000000000100000000000400000000000000000b5d150bc4a2e50bcdae850bc251750bc517cbba1b043518cb04342389f1aff6c,b0434238,b043518c,517cbba1,251750bc,dae850bc,4a2e50bc,b5d150bc,0,0000,0000,0000,0000,0004,0000,0000,0001,00,00,00,00,f0,f0,f0,f2,0000,0000,0000,0000,0000,0000,0000,0000,00,00,00,00,0,1,0,1,1,1
4,4,0,751aff6c,2a0000000000000000000000000000000000000000f2f0f0f000000000000100000000000d00000000000000000b5cf50bc4a3050bcdae750bc251850bc516dbba1b043518db0434225751aff6c,b0434225,b043518d,516dbba1,251850bc,dae750bc,4a3050bc,b5cf50bc,0,0000,0000,0000,0000,000d,0000,0000,0001,00,00,00,00,f0,f0,f0,f2,0000,0000,0000,0000,0000,0000,0000,0000,00,00,00,00,0,1,0,1,0,1
5,5,0,a51aff6c,2a0000000000000000000000000000000000000000f2f0f0f800000000000100000000000d00000000000000080b5cd50bc4a3250bcdae650bc251950bc516ebba1b043518eb0434223a51aff6c,b0434223,b043518e,516ebba1,251950bc,dae650bc,4a3250bc,b5cd50bc,0,0008,0000,0000,0000,000d,0000,0000,0001,00,00,00,00,f8,f0,f0,f2,0000,0000,0000,0000,0000,0000,0000,0000,00,00,00,00,0,1,0,1,0,1
6,6,0,a51aff6c,2b0000000000000000000000000000000000000000f6f0f0f800000000000f00000000000d00000000000000080b5cb50bc4a3450bcdae550bc251a50bc41c8bba1b0435190b043423ea51aff6c,b043423e,b0435190,41c8bba1,251a50bc,dae550bc,4a3450bc,b5cb50bc,0,0008,0000,0000,0000,000d,0000,0000,000f,00,00,00,00,f8,f0,f0,f6,0000,0000,0000,0000,0000,0000,0000,0000,00,00,00,00,1,1,0,1,0,1
7,7,0,051aff6c,3b0000000000000000000000000000000000000000f2f0f0f000000000000100000000000500000000000000000b5c950bc4a3650bcdae450bc251b50bc51c5bba1b043518fb04342e0051aff6c,b04342e0,b043518f,51c5bba1,251b50bc,dae450bc,4a3650bc,b5c950bc,0,0000,0000,0000,0000,0005,0000,0000,0001,00,00,00,00,f0,f0,f0,f2,0000,0000,0000,0000,0000,0000,0000,0000,00,00,00,00,1,1,0,1,1,1
8,8,0,650aff63,3a0000000000000000000000000000000000000000f2f0f0f000000000000100000000000800000000000000000b5c750bc4a3850bcdae350bc251c50bc51d1bba1b0435191b04342e2650aff63,b04342e2,b0435191,51d1bba1,251c50bc,dae350bc,4a3850bc,b5c750bc,0,0000,0000,0000,0000,0008,0000,0000,0001,00,00,00,00,f0,f0,f0,f2,0000,0000,0000,0000,0000,0000,0000,0000,00,00,00,00,0,1,0,1,1,1
9,9,0,8f0aff63,2a0000000000000000000000000000000000000000f2f0f0f000000000000100000000000000000000000000000b5c550bc4a3a50bcdae250bc251d50bc51d2bba1b0435192b04342e48f0aff63,b04342e4,b0435192,51d2bba1,251d50bc,dae250bc,4a3a50bc,b5c550bc,0,0000,0000,0000,0000,0000,0000,0000,0001,00,00,00,00,f0,f0,f0,f2,0000,0000,0000,0000,0000,0000,0000,0000,00,00,00,00,0,1,0,1,0,1
10,10,0,1f0aff63,2b0000000000000000000000000000000000000000f2f0f0f000000000000000000000000900000000000000000b5c350bc4a3c50bcdae150bc251e50bc51daa401b0435193b04342f91f0aff63,b04342f9,b0435193,51daa401,251e50bc,dae150bc,4a3c50bc,b5c350bc,0,0000,0000,0000,0000,0009,0000,0000,0000,00,00,00,00,f0,f0,f0,f2,0000,0000,0000,0000,0000,0000,0000,0000,00,00,00,00,1,1,0,1,0,1
11,11,0,1f1aff6c,3b0000000000000000000000000000000000000000f2f0f0f000000000000100000000000400000000000000000b5c150bc4a3e50bcdae050bc251f50bc51d4bba1b0435194b04342e81f1aff6c,b04342e8,b0435194,51d4bba1,251f50bc,dae050bc,4a3e50bc,b5c150bc,0,0000,0000,0000,0000,0004,0000,0000,0001,00,00,00,00,f0,f0,f0,f2,0000,0000,0000,0000,0000,0000,0000,0000,00,00,00,00,1,1,0,1,1,1
12,12,0,451aff6c,3b0000000000000000000000000000000000000000f2f0f0f000000000000000000000000500000000000000000b5bf50bc4a4050bcdadf50bc252050bc4135bba1b0435195b04342f5451aff6c,b04342f5,b0435195,4135bba1,252050bc,dadf50bc,4a4050bc,b5bf50bc,0,0000,0000,0000,0000,0005,0000,0000,0000,00,00,00,00,f0,f0,f0,f2,0000,0000,0000,0000,0000,0000,0000,0000,00,00,00,00,1,1,0,1,1,1
13,13,0,551aff6c,3a0000000000000000000000000000000000000000f2f0f0f000000000000000000000000500000000000000000b5bd50bc4a4250bcdade50bc252150bc4136bba1b0435196b04342f3551aff6c,b04342f3,b0435196,4136bba1,252150bc,dade50bc,4a4250bc,b5bd50bc,0,0000,0000,0000,0000,0005,0000,0000,0000,00,00,00,00,f0,f0,f0,f2,0000,0000,0000,0000,0000,0000,0000,0000,00,00,00,00,0,1,0,1,1,1
14,14,0,6f0aff63,2a0000000000000000000000000000000000000000f2f0f0f000000000000000000000000000000000000000000b5bb50bc4a4450bcdadd50bc252250bc4127bba1b0435188b04342f16f0aff63,b04342f1,b0435188,4127bba1,252250bc,dadd50bc,4a4450bc,b5bb50bc,0,0000,0000,0000,0000,0000,0000,0000,0000,00,00,00,00,f0,f0,f0,f2,0000,0000,0000,0000,0000,0000,0000,0000,00,00,00,00,0,1,0,1,0,1
15,15,0,6f0aff63,2b0000000000000000000000000000000000000000f2f0f0f000000000000800000000000000000000000000000b5b950bc4a4650bcdadc50bc252350bc413da401b0435187b04342f06f0aff63,b04342f0,b0435187,413da401,252350bc,dadc50bc,4a4650bc,b5b950bc,0,0000,0000,0000,0000,0000,0000,0000,0008,00,00,00,00,f0,f0,f0,f2,0000,0000,0000,0000,0000,0000,0000,0000,00,00,00,00,1,1,0,1,0,1
16,16,0,251aff6c,3b0000000000000000000000000000000000000000f2f0f0f000000000000000000000000500000000000000000b5b750bc4a4850bcdadb50bc252450bc51c0a401b0435199b04342ed251aff6c,b04342ed,b0435199,51c0a401,252450bc,dadb50bc,4a4850bc,b5b750bc,0,0000,0000,0000,0000,0005,0000,0000,0000,00,00,00,00,f0,f0,f0,f2,0000,0000,0000,0000,0000,0000,0000,0000,00,00,00,00,1,1,0,1,1,1
17,17,0,351aff6c,3a0000000000000000000000000000000000000000f2f0f0f000000000000000000000000500000000000000000b5b550bc4a4a50bcdada50bc252550bc51cfa401b043519ab04342eb351aff6c,b04342eb,b043519a,51cfa401,252550bc,dada50bc,4a4a50bc,b5b550bc,0,0000,0000,0000,0000,0005,0000,0000,0000,00,00,00,00,f0,f0,f0,f2,0000,0000,0000,0000,0000,0000,0000,0000,00,00,00,00,0,1,0,1,1,1
18,18,0,2f0aff63,2a0000000000000000000000000000000000000000f2f0f0f000000000000000000000000000000000000000000b5b350bc4a4c50bcdad950bc252650bc51c4a401b0435184b04342e92f0aff63,b04342e9,b0435184,51c4a401,252650bc,dad950bc,4a4c50bc,b5b350bc,0,0000,0000,0000,0000,0000,0000,0000,0000,00,00,00,00,f0,f0,f0,f2,0000,0000,0000,0000,0000,0000,0000,0000,00,00,00,00,0,1,0,1,0,1
19,19,0,f51aff6c,2a0000000000000000000000000000000000000000f0f0f0f000000000000000000000000400000000000000000b5b150bc4a4e50bcdad850bc252750bc51c35b01b043519cb04342f8f51aff6c,b04342f8,b043519c,51c35b01,252750bc,dad850bc,4a4e50bc,b5b150bc,0,0000,0000,0000,0000,0004,0000,0000,0000,00,00,00,00,f0,f0,f0,f0,0000,0000,0000,0000,0000,0000,0000,0000,00,00,00,00,0,1,0,1,0,1
20,20,0,f51aff6c,2b0000000000000000000000000000000000000000f2f0f0f000000000000000000000000500000000000000000b5af50bc4a5050bcdad750bc252850bc412dbba1b0435182b04342e5f51aff6c,b04342e5,b0435182,412dbba1,252850bc,dad750bc,4a5050bc,b5af50bc,0,0000,0000,0000,0000,0005,0000,0000,0000,00,00,00,00,f0,f0,f0,f2,0000,0000,0000,0000,0000,0000,0000,0000,00,00,00,00,1,1,0,1,0,1
21,21,0,e51aff6c,3b0000000000000000000000000000000000000000f2f0f0f000000000000000000000000500000000000000000b5ad50bc4a5250bcdad650bc252950bc412ebba1b0435181b04342e3e51aff6c,b04342e3,b0435181,412ebba1,252950bc,dad650bc,4a5250bc,b5ad50bc,0,0000,0000,0000,0000,0005,0000,0000,0000,00,00,00,00,f0,f0,f0,f2,0000,0000,0000,0000,0000,0000,0000,0000,00,00,00,00,1,1,0,1,1,1
22,22,0,151aff6c,3a0000000000000000000000000000000000000000f2f0f0f000000000000300000000000500000000000000000b5ab50bc4a5450bcdad550bc252a50bc51d7bba1b0435180b04342fe151aff6c,b04342fe,b0435180,51d7bba1,252a50bc,dad550bc,4a5450bc,b5ab50bc,0,0000,0000,0000,0000,0005,0000,0000,0003,00,00,00,00,f0,f0,f0,f2,0000,0000,0000,0000,0000,0000,0000,0000,00,00,00,00,0,1,0,1,1,1
23,23,0,650aff7b,2a0000000000000000000000000000000000000000f2f0f0f800000000000000000000000000000000000000000b5a950bc4a5650bcdad450bc252b50bc5185bba1b043517fb0435c00650aff7b,b0435c00,b043517f,5185bba1,252b50bc,dad450bc,4a5650bc,b5a950bc,0,0000,0000,0000,0000,0000,0000,0000,0000,00,00,00,00,f8,f0,f0,f2,0000,0000,0000,0000,0000,0000,0000,0000,00,00,00,00,0,1,0,1,0,1
24,24,0,850aff7b,2b0000000000000000000000000000000000000000f2f0f0f000000000000000000000000000000000000000000b5a750bc4a5850bcdad350bc252c50bc51939ba1b043517eb0435c02850aff7b,b0435c02,b043517e,51939ba1,252c50bc,dad350bc,4a5850bc,b5a750bc,0,0000,0000,0000,0000,0000,0000,0000,0000,00,00,00,00,f0,f0,f0,f2,0000,0000,0000,0000,0000,0000,0000,0000,00,00,00,00,1,1,0,1,0,1
25,25,0,951affeb,3b0000000000000000000000000000000000000000f0f0f0f100000000000400000000000400000000000000000b5a550bc4a5a50bcdad250bc252d50bc516d5b01b043517db0435c04951affeb,b0435c04,b043517d,516d5b01,252d50bc,dad250bc,4a5a50bc,b5a550bc,0,0000,0000,0000,0000,0004,0000,0000,0004,00,00,00,00,f1,f0,f0,f0,0000,0000,0000,0000,0000,0000,0000,0000,00,00,00,00,1,1,0,1,1,1
26,26,0,ef0aff7b,3b0000000000000000000000000000000000000000f6f0f0f000000000000400000000000000000000000000000b5a350bc4a5c50bcdad150bc252e50bc51f3a401b0435163b0435c19ef0aff7b,b0435c19,b0435163,51f3a401,252e50bc,dad150bc,4a5c50bc,b5a350bc,0,0000,0000,0000,0000,0000,0000,0000,0004,00,00,00,00,f0,f0,f0,f6,0000,0000,0000,0000,0000,0000,0000,0000,00,00,00,00,1,1,0,1,1,1
27,27,0,5f1affeb,3a0000000000000000000000000000000000000000f0f0f0f100000000000400000000000400000000000000000b5a150bc4a5e50bcdad050bc252f50bc516b5b01b043517bb0435c085f1affeb,b0435c08,b043517b,516b5b01,252f50bc,dad050bc,4a5e50bc,b5a150bc,0,0000,0000,0000,0000,0004,0000,0000,0004,00,00,00,00,f1,f0,f0,f0,0000,0000,0000,0000,0000,0000,0000,0000,00,00,00,00,0,1,0,1,1,1
28,28,0,c50aff7b,2a0000000000000000000000000000000000000000f6f0f0f000000000000400000000000000000000000000000b59f50bc4a6050bcdacf50bc253050bc51f5a401b0435165b0435c15c50aff7b,b0435c15,b0435165,51f5a401,253050bc,dacf50bc,4a6050bc,b59f50bc,0,0000,0000,0000,0000,0000,0000,0000,0004,00,00,00,00,f0,f0,f0,f6,0000,0000,0000,0000,0000,0000,0000,0000,00,00,00,00,0,1,0,1,0,1
29,29,0,d50aff7b,2b0000000000000000000000000000000000000000f6f0f0f800000000000400000000000000000000000000000b59d50bc4a6250bcdace50bc253150bc51f6a401b0435166b0435c13d50aff7b,b0435c13,b0435166,51f6a401,253150bc,dace50bc,4a6250bc,b59d50bc,0,0000,0000,0000,0000,0000,0000,0000,0004,00,00,00,00,f8,f0,f0,f6,0000,0000,0000,0000,0000,0000,0000,0000,00,00,00,00,1,1,0,1,0,1
30,30,0,850aff7b,3b0000000000000000000000000000000000000000f6f0f0f800000000000400000000000800000000000000080b59b50bc4a6450bcdacd50bc253250bc51e7a401b0435178b0435c11850aff7b,b0435c11,b0435178,51e7a401,253250bc,dacd50bc,4a6450bc,b59b50bc,0,0008,0000,0000,0000,0008,0000,0000,0004,00,00,00,00,f8,f0,f0,f6,0000,0000,0000,0000,0000,0000,0000,0000,00,00,00,00,1,1,0,1,1,1
31,31,0,3f1affeb,3a0000000000000000000000000000000000000000f2f0f0f100000000000000000000000400000000000000000b59950bc4a6650bcdacc50bc253350bc517da401b0435177b0435c103f1affeb,b0435c10,b0435177,517da401,253350bc,dacc50bc,4a6650bc,b59950bc,0,0000,0000,0000,0000,0004,0000,0000,0000,00,00,00,00,f1,f0,f0,f2,0000,0000,0000,0000,0000,0000,0000,0000,00,00,00,00,0,1,0,1,1,1
32,32,0,a50aff7b,2a0000000000000000000000000000000000000000f6f0f0f000000000000400000000000000040000000000000b59750bc4a6850bcdacb50bc253450bc51d9a401b0435169b0435c0da50aff7b,b0435c0d,b0435169,51d9a401,253450bc,dacb50bc,4a6850bc,b59750bc,0,0000,0000,0000,0004,0000,0000,0000,0004,00,00,00,00,f0,f0,f0,f6,0000,0000,0000,0000,0000,0000,0000,0000,00,00,00,00,0,1,0,1,0,1
33,33,0,b50aff7b,2a0000000000000000000000000000000000000000f6f0f0f000000000000400000000000000040000000000000b59550bc4a6a50bcdaca50bc253550bc51daa401b043516ab0435c0bb50aff7b,b0435c0b,b043516a,51daa401,253550bc,daca50bc,4a6a50bc,b59550bc,0,0000,0000,0000,0004,0000,0000,0000,0004,00,00,00,00,f0,f0,f0,f6,0000,0000,0000,0000,0000,0000,0000,0000,00,00,00,00,0,1,0,1,0,1
34,34,0,0f0aff7b,2b0000000000000000000000000000000000000000f6f0f0f000000000000400000000000000000000000000000b59350bc4a6c50bcdac950bc253650bc51eba401b043516bb0435c090f0aff7b,b0435c09,b043516b,51eba401,253650bc,dac950bc,4a6c50bc,b59350bc,0,0000,0000,0000,0000,0000,0000,0000,0004,00,00,00,00,f0,f0,f0,f6,0000,0000,0000,0000,0000,0000,0000,0000,00,00,00,00,1,1,0,1,0,1
35,35,0,9f0aff7b,3b0000000000000000000000000000000000000000f0f0f0f000000000000000000000000900000000000000000b59150bc4a6e50bcdac850bc253750bc51835b01b043516cb0435c189f0aff7b,b0435c18,b043516c,51835b01,253750bc,dac850bc,4a6e50bc,b59150bc,0,0000,0000,0000,0000,0009,0000,0000,0000,00,00,00,00,f0,f0,f0,f0,0000,0000,0000,0000,0000,0000,0000,0000,00,00,00,00,1,1,0,1,1,1
36,36,0,650aff7b,3a0000000000000000000000000000000000000000f6f0f0f000000000000400000000000000000000000000000b58f50bc4a7050bcdac750bc253850bc51eda401b043516db0435c05650aff7b,b0435c05,b043516d,51eda401,253850bc,dac750bc,4a7050bc,b58f50bc,0,0000,0000,0000,0000,0000,0000,0000,0004,00,00,00,00,f0,f0,f0,f6,0000,0000,0000,0000,0000,0000,0000,0000,00,00,00,00,0,1,0,1,1,1
37,37,0,750aff7b,2a0000000000000000000000000000000000000000f6f0f0f000000000000400000000000000000000000000000b58d50bc4a7250bcdac650bc253950bc51eea401b043516eb0435c03750aff7b,b0435c03,b043516e,51eea401,253950bc,dac650bc,4a7250bc,b58d50bc,0,0000,0000,0000,0000,0000,0000,0000,0004,00,00,00,00,f0,f0,f0,f6,0000,0000,0000,0000,0000,0000,0000,0000,00,00,00,00,0,1,0,1,0,1
38,38,0,251affeb,2b0000000000000000000000000000000000000000f2f0f0f900000000000000000000000c00000000000000080b58b50bc4a7450bcdac550bc253a50bc5177aea1b0435170b0435c1e251affeb,b0435c1e,b0435170,5177aea1,253a50bc,dac550bc,4a7450bc,b58b50bc,0,0008,0000,0000,0000,000c,0000,0000,0000,00,00,00,00,f9,f0,f0,f2,0000,0000,0000,0000,0000,0000,0000,0000,00,00,00,00,1,1,0,1,0,1
39,39,0,150aff7b,3b0000000000000000000000000000000000000000f0f0f0f000000000000000000000000000000000000000000b58950bc4a7650bcdac450bc253b50bc516f5b01b043516fb0435cc0150aff7b,b0435cc0,b043516f,516f5b01,253b50bc,dac450bc,4a7650bc,b58950bc,0,0000,0000,0000,0000,0000,0000,0000,0000,00,00,00,00,f0,f0,f0,f0,0000,0000,0000,0000,0000,0000,0000,0000,00,00,00,00,1,1,0,1,1,1
40,40,0,651affeb,3b0000000000000000000000000000000000000000f0f0f0f100000000000000000000000400000000000000000b58750bc4a7850bcdac350bc253c50bc51615b01b0435171b0435cc2651affeb,b0435cc2,b0435171,51615b01,253c50bc,dac350bc,4a7850bc,b58750bc,0,0000,0000,0000,0000,0004,0000,0000,0000,00,00,00,00,f1,f0,f0,f0,0000,0000,0000,0000,0000,0000,0000,0000,00,00,00,00,1,1,0,1,1,1
41,41,0,751affeb,2a0000000000000000000000000000000000000000f0f0f0f100000000000000000000000400000000000000000b58550bc4a7a50bcdac250bc253d50bc51625b01b0435172b0435cc4751affeb,b0435cc4,b0435172,51625b01,253d50bc,dac250bc,4a7a50bc,b58550bc,0,0000,0000,0000,0000,0004,0000,0000,0000,00,00,00,00,f1,f0,f0,f0,0000,0000,0000,0000,0000,0000,0000,0000,00,00,00,00,0,1,0,1,0,1
42,42,0,8f1affeb,2a0000000000000000000000000000000000000000f2f0f0f100000000000000000000000c00000000000000000b58350bc4a7c50bcdac150bc253e50bc5178a401b0435173b0435cd98f1affeb,b0435cd9,b0435173,5178a401,253e50bc,dac150bc,4a7c50bc,b58350bc,0,0000,0000,0000,0000,000c,0000,0000,0000,00,00,00,00,f1,f0,f0,f2,0000,0000,0000,0000,0000,0000,0000,0000,00,00,00,00,0,1,0,1,0,1
43,43,0,1f1affeb,2b0000000000000000000000000000000000000000f0f0f0f100000000000000000000000400000000000000000b58150bc4a7e50bcdac050bc253f50bc51645b01b0435174b0435cc81f1affeb,b0435cc8,b0435174,51645b01,253f50bc,dac050bc,4a7e50bc,b58150bc,0,0000,0000,0000,0000,0004,0000,0000,0000,00,00,00,00,f1,f0,f0,f0,0000,0000,0000,0000,0000,0000,0000,0000,00,00,00,00,1,1,0,1,0,1
44,44,0,451affeb,3b0000000000000000000000000000000000000000f2f0f0f100000000000000000000000400000000000000000b57f50bc4a8050bcdabf50bc254050bc517fbba1b0435175b0435cd5451affeb,b0435cd5,b0435175,517fbba1,254050bc,dabf50bc,4a8050bc,b57f50bc,0,0000,0000,0000,0000,0004,0000,0000,0000,00,00,00,00,f1,f0,f0,f2,0000,0000,0000,0000,0000,0000,0000,0000,00,00,00,00,1,1,0,1,1,1
45,45,0,551affeb,3a0000000000000000000000000000000000000000f2f0f0f100000000000000000000000400000000000000000b57d50bc4a8250bcdabe50bc254150bc5170bba1b0435176b0435cd3551affeb,b0435cd3,b0435176,5170bba1,254150bc,dabe50bc,4a8250bc,b57d50bc,0,0000,0000,0000,0000,0004,0000,0000,0000,00,00,00,00,f1,f0,f0,f2,0000,0000,0000,0000,0000,0000,0000,0000,00,00,00,00,0,1,0,1,1,1
46,46,0,4f0aff7b,2a0000000000000000000000000000000000000000f2f0f0f000000000000000000000000000000000000000000b57b50bc4a8450bcdabd50bc254250bc5168bba1b0435168b0435cd14f0aff7b,b0435cd1,b0435168,5168bba1,254250bc,dabd50bc,4a8450bc,b57b50bc,0,0000,0000,0000,0000,0000,0000,0000,0000,00,00,00,00,f0,f0,f0,f2,0000,0000,0000,0000,0000,0000,0000,0000,00,00,00,00,0,1,0,1,0,1
47,47,0,6f0aff7b,2a0000000000000000000000000000000000000000f6f0f0f000000000000600000000000000040000000000000b57950bc4a8650bcdabc50bc254350bc5122bba1b0435167b0435cd06f0aff7b,b0435cd0,b0435167,5122bba1,254350bc,dabc50bc,4a8650bc,b57950bc,0,0000,0000,0000,0004,0000,0000,0000,0006,00,00,00,00,f0,f0,f0,f6,0000,0000,0000,0000,0000,0000,0000,0000,00,00,00,00,0,1,0,1,0,1
48,48,0,251affeb,3b0000000000000000000000000000000000000000f2f0f0f100000000000000000000000400000000000000000b57750bc4a8850bcdabb50bc254450bc5160a401b0435179b0435ccd251affeb,b0435ccd,b0435179,5160a401,254450bc,dabb50bc,4a8850bc,b57750bc,0,0000,0000,0000,0000,0004,0000,0000,0000,00,00,00,00,f1,f0,f0,f2,0000,0000,0000,0000,0000,0000,0000,0000,00,00,00,00,1,1,0,1,1,1
49,49,0,351affeb,3b0000000000000000000000000000000000000000f2f0f0f100000000000000000000000400000000000000000b57550bc4a8a50bcdaba50bc254550bc516fa401b043517ab0435ccb351affeb,b0435ccb,b043517a,516fa401,254550bc,daba50bc,4a8a50bc,b57550bc,0,0000,0000,0000,0000,0004,0000,0000,0000,00,00,00,00,f1,f0,f0,f2,0000,0000,0000,0000,0000,0000,0000,0000,00,00,00,00,1,1,0,1,1,1
50,50,0,2f0aff7b,3a0000000000000000000000000000000000000000f2f0f0f000000000000000000000000000000000000000000b57350bc4a8c50bcdab950bc254650bc5164a401b0435164b0435cc92f0aff7b,b0435cc9,b0435164,5164a401,254650bc,dab950bc,4a8c50bc,b57350bc,0,0000,0000,0000,0000,0000,0000,0000,0000,00,00,00,00,f0,f0,f0,f2,0000,0000,0000,0000,0000,0000,0000,0000,00,00,00,00,0,1,0,1,1,1
