Sample in Buffer,Sample in Window,TRIGGER,ila_data[969:0],receiver_0[31:0],receiver_1[31:0],receiver_2[31:0],receiver_3[31:0],transmitter_0[31:0],transmitter_1[31:0],transmitter_2[31:0],transmitter_3[31:0],prbs_match_int[3:0],hb0_gtwiz_userclk_rx_usrclk2_int,hb0_gtwiz_userclk_rx_active_int,hb_gtwiz_reset_all_int,hb0_gtwiz_reset_rx_done_int,hb0_gtwiz_userclk_tx_usrclk2_int,hb0_gtwiz_userclk_tx_active_int,gtwiz_userclk_tx_reset_int,gtwiz_userclk_tx_usrclk_int,gtwiz_userclk_tx_usrclk2_int,gtwiz_userclk_tx_active_int,gtwiz_userclk_rx_reset_int,gtwiz_userclk_rx_usrclk_int,gtwiz_userclk_rx_usrclk2_int,gtwiz_userclk_rx_active_int,drpaddr_int[35:0],drpclk_int[3:0],drpdi_int[3:0],drpen_int[3:0],drpwe_int[3:0],eyescanreset_int[3:0],rx8b10ben_int[3:0],rxcommadeten_int[3:0],rxlpmen_int[3:0],rxmcommaalignen_int[3:0],rxpcommaalignen_int[3:0],rxrate_int[11:0],tx8b10ben_int[3:0],txdiffctrl_int[15:0],txpostcursor_int[19:0],txprecursor_int[19:0],drpdo_int[63:0],drprdy_int[3:0],gtpowergood_int[3:0],rxbyteisaligned_int[3:0],rxbyterealign_int[3:0],rxcommadet_int[3:0],rxpmaresetdone_int[3:0],txpmaresetdone_int[3:0],ch0_rxctrl0_int[15:0],ch1_rxctrl0_int[15:0],ch2_rxctrl0_int[15:0],ch3_rxctrl0_int[15:0],ch0_rxctrl1_int[15:0],ch1_rxctrl1_int[15:0],ch2_rxctrl1_int[15:0],ch3_rxctrl1_int[15:0],ch0_rxctrl2_int[7:0],ch1_rxctrl2_int[7:0],ch2_rxctrl2_int[7:0],ch3_rxctrl2_int[7:0],ch0_rxctrl3_int[7:0],ch1_rxctrl3_int[7:0],ch2_rxctrl3_int[7:0],ch3_rxctrl3_int[7:0],ch0_txctrl0_int[15:0],ch1_txctrl0_int[15:0],ch2_txctrl0_int[15:0],ch3_txctrl0_int[15:0],ch0_txctrl1_int[15:0],ch1_txctrl1_int[15:0],ch2_txctrl1_int[15:0],ch3_txctrl1_int[15:0],ch0_txctrl2_int[7:0],ch1_txctrl2_int[7:0],ch2_txctrl2_int[7:0],ch3_txctrl2_int[7:0],hb0_rxdata_nml_ctr[39:0],ch0_rxdata_err_ctr[15:0],ch1_rxdata_err_ctr[15:0],ch2_rxdata_err_ctr[15:0],ch3_rxdata_err_ctr[15:0]
Radix - UNSIGNED,UNSIGNED,UNSIGNED,HEX,HEX,HEX,HEX,HEX,HEX,HEX,HEX,HEX,HEX,HEX,HEX,HEX,HEX,HEX,HEX,HEX,HEX,HEX,HEX,HEX,HEX,HEX,HEX,HEX,HEX,HEX,HEX,HEX,HEX,HEX,HEX,HEX,HEX,HEX,HEX,HEX,HEX,HEX,HEX,HEX,HEX,HEX,HEX,HEX,HEX,HEX,HEX,HEX,HEX,HEX,HEX,HEX,HEX,HEX,HEX,HEX,HEX,HEX,HEX,HEX,HEX,HEX,HEX,HEX,HEX,HEX,HEX,HEX,HEX,HEX,HEX,HEX,HEX,HEX,HEX,HEX,HEX,HEX,HEX,HEX
0,0,0,32c4266588ed2ae9458ecee25240000000000000000000000000000000000000003c3c3c3c00000000000000000000000000000000000000003fc03fc0000000000000000000000000033333c003ffffc00020160b0582e22af15b5609315b5609315b5609315b56093e6391d74a280e092a280e092e6391d74,e6391d74,a280e092,a280e092,e6391d74,15b56093,15b56093,15b56093,15b56093,f,0,1,0,1,0,1,0,0,0,1,0,0,0,1,0582c160b,8,0,0,0,0,f,f,f,f,f,000,f,cccc,00000,00000,0000000000000000,0,f,f,0,0,f,f,0000,0000,0000,0000,0000,0000,0000,0000,00,00,00,00,f0,f0,f0,f0,0000,0000,0000,0000,0000,0000,0000,0000,00,00,00,00,163b3b8949,aba5,23b4,9996,cb10
1,1,0,32c4266588ed2ae9458ecee25440000000000000000000000000000000000000003c3c3c3c00000000000000000000000000000000000000003fc03fc0000000000000000000000000033333c003ffffc00020160b0582f22afc4945320c4945320c4945320c4945320cf99267094cafea094cafea0cf992670,cf992670,94cafea0,94cafea0,cf992670,c4945320,c4945320,c4945320,c4945320,f,0,1,0,1,0,1,0,0,0,1,0,0,1,1,0582c160b,8,0,0,0,0,f,f,f,f,f,000,f,cccc,00000,00000,0000000000000000,0,f,f,0,0,f,f,0000,0000,0000,0000,0000,0000,0000,0000,00,00,00,00,f0,f0,f0,f0,0000,0000,0000,0000,0000,0000,0000,0000,00,00,00,00,163b3b8951,aba5,23b4,9996,cb10
2,2,0,32c4266588ed2ae9458ecee25640000000000000000000000000000000000000003c3c3c3c00000000000000000000000000000000000000003fc03fc0000000000000000000000000033333c003ffffc00030160b0582fb2bf63c7f8f163c7f8f163c7f8f163c7f8f1400bb80ccbfa9879cbfa9879400bb80c,400bb80c,cbfa9879,cbfa9879,400bb80c,63c7f8f1,63c7f8f1,63c7f8f1,63c7f8f1,f,1,1,0,1,0,1,0,0,1,1,0,1,1,1,0582c160b,c,0,0,0,0,f,f,f,f,f,000,f,cccc,00000,00000,0000000000000000,0,f,f,0,0,f,f,0000,0000,0000,0000,0000,0000,0000,0000,00,00,00,00,f0,f0,f0,f0,0000,0000,0000,0000,0000,0000,0000,0000,00,00,00,00,163b3b8959,aba5,23b4,9996,cb10
3,3,0,32c4266588ed2ae9458ecee25840000000000000000000000000000000000000003c3c3c3c00000000000000000000000000000000000000003fc03fc0000000000000000000000000033333c003ffffc00030160b0582ebbbfbfbc440fbfbc440fbfbc440fbfbc440f4d456c3e6d891f236d891f234d456c3e,4d456c3e,6d891f23,6d891f23,4d456c3e,bfbc440f,bfbc440f,bfbc440f,bfbc440f,f,1,1,0,1,1,1,0,1,1,1,0,1,0,1,0582c160b,c,0,0,0,0,f,f,f,f,f,000,f,cccc,00000,00000,0000000000000000,0,f,f,0,0,f,f,0000,0000,0000,0000,0000,0000,0000,0000,00,00,00,00,f0,f0,f0,f0,0000,0000,0000,0000,0000,0000,0000,0000,00,00,00,00,163b3b8961,aba5,23b4,9996,cb10
4,4,0,32c4266588ed2ae9458ecee25a00000000000000000000000000000000000000003c3c3c3c00000000000000000000000000000000000000003fc03fc0000000000000000000000000033333c003ffffc00030160b0582e2baf4f2e98e54f2e98e54d2e98e54f2e98e5b13ba5b06c71977c6c71977cb13ba5b0,b13ba5b0,6c71977c,6c71977c,b13ba5b0,4f2e98e5,4d2e98e5,4f2e98e5,4f2e98e5,f,0,1,0,1,1,1,0,1,0,1,0,0,0,1,0582c160b,c,0,0,0,0,f,f,f,f,f,000,f,cccc,00000,00000,0000000000000000,0,f,f,0,0,f,f,0000,0000,0000,0000,0000,0000,0000,0000,00,00,00,00,f0,f0,f0,f0,0000,0000,0000,0000,0000,0000,0000,0000,00,00,00,00,163b3b8968,aba5,23b4,9996,cb10
5,5,0,32c4266588ed2ae9458ecee25c00000000000000000000000000000000000000003c3c3c3c00000000000000000000000000000000000000003fc03fc0000000000000000000000000033333c003ffffc00030160b0582f22af902a8b64902a8b64902a8b64902a8b64ef3f53266693a35e6693a35eef3f5326,ef3f5326,6693a35e,6693a35e,ef3f5326,902a8b64,902a8b64,902a8b64,902a8b64,f,0,1,0,1,0,1,0,0,0,1,0,0,1,1,0582c160b,c,0,0,0,0,f,f,f,f,f,000,f,cccc,00000,00000,0000000000000000,0,f,f,0,0,f,f,0000,0000,0000,0000,0000,0000,0000,0000,00,00,00,00,f0,f0,f0,f0,0000,0000,0000,0000,0000,0000,0000,0000,00,00,00,00,163b3b8970,aba5,23b4,9996,cb10
6,6,0,32c4266588ed2ae9458ecee25e00000000000000000000000000000000000000003c3c3c3c00000000000000000000000000000000000000003fc03fc0000000000000000000000000033333c003ffffc00020160b0582fa2bf8a87c78f8a87c78f8a87c78f8a87c78fe707e2ca8086793181467831c78363f2,c78363f2,81467831,80867931,e707e2ca,8a87c78f,8a87c78f,8a87c78f,8a87c78f,f,1,1,0,1,0,1,0,0,0,1,0,1,1,1,0582c160b,8,0,0,0,0,f,f,f,f,f,000,f,cccc,00000,00000,0000000000000000,0,f,f,0,0,f,f,0000,0000,0000,0000,0000,0000,0000,0000,00,00,00,00,f0,f0,f0,f0,0000,0000,0000,0000,0000,0000,0000,0000,00,00,00,00,163b3b8978,aba5,23b4,9996,cb10
7,7,0,32c4266588ed2ae9458ecee26000000000000000000000000000000000000000003c3c3c3c00000000000000000000000000000000000000003fc03fc0000000000000000000000000033333c003ffffc00020160b0582fbbbf0d6118780d6118780d6118780d611878ca4aa2e9467e04a5467e04a5ca4aa2e9,ca4aa2e9,467e04a5,467e04a5,ca4aa2e9,0d611878,0d611878,0d611878,0d611878,f,1,1,0,1,1,1,0,1,1,1,0,1,1,1,0582c160b,8,0,0,0,0,f,f,f,f,f,000,f,cccc,00000,00000,0000000000000000,0,f,f,0,0,f,f,0000,0000,0000,0000,0000,0000,0000,0000,00,00,00,00,f0,f0,f0,f0,0000,0000,0000,0000,0000,0000,0000,0000,00,00,00,00,163b3b8980,aba5,23b4,9996,cb10
8,8,0,32c4266588ed2ae9458ecee261c0000000000000000000000000000000000000003c3c3c3c00000000000000000000000000000000000000003fc03fc0000000000000000000000000033333c003ffffc00030160b0582ebbbf026ff4a3026bfca3026bfca3026bfca31c4bb1f8301e9c1c301e9c1c1c4bb1f8,1c4bb1f8,301e9c1c,301e9c1c,1c4bb1f8,026bfca3,026bfca3,026bfca3,026ff4a3,f,1,1,0,1,1,1,0,1,1,1,0,1,0,1,0582c160b,c,0,0,0,0,f,f,f,f,f,000,f,cccc,00000,00000,0000000000000000,0,f,f,0,0,f,f,0000,0000,0000,0000,0000,0000,0000,0000,00,00,00,00,f0,f0,f0,f0,0000,0000,0000,0000,0000,0000,0000,0000,00,00,00,00,163b3b8987,aba5,23b4,9996,cb10
9,9,0,32c4266588ed2ae9458ecee263c0000000000000000000000000000000000000003c3c3c3c00000000000000000000000000000000000000003fc03fc0000000000000000000000000033333c003ffffc00030160b0582e2baf5e1e67c85e1e67c85e1e67c85e1e67c8d3fd28522b3eb9532b3eb953d3fd2852,d3fd2852,2b3eb953,2b3eb953,d3fd2852,5e1e67c8,5e1e67c8,5e1e67c8,5e1e67c8,f,0,1,0,1,1,1,0,1,0,1,0,0,0,1,0582c160b,c,0,0,0,0,f,f,f,f,f,000,f,cccc,00000,00000,0000000000000000,0,f,f,0,0,f,f,0000,0000,0000,0000,0000,0000,0000,0000,00,00,00,00,f0,f0,f0,f0,0000,0000,0000,0000,0000,0000,0000,0000,00,00,00,00,163b3b898f,aba5,23b4,9996,cb10
10,10,0,32c4266588ed2ae9458ecee265c0000000000000000000000000000000000000003c3c3c3c00000000000000000000000000000000000000003fc03fc0000000000000000000000000033333c003ffffc00020160b0582f22afbdb0cbffbdb0cbffbdb0cbffbdb0cbff8712bb8464078985640789858712bb84,8712bb84,64078985,64078985,8712bb84,bdb0cbff,bdb0cbff,bdb0cbff,bdb0cbff,f,0,1,0,1,0,1,0,0,0,1,0,0,1,1,0582c160b,8,0,0,0,0,f,f,f,f,f,000,f,cccc,00000,00000,0000000000000000,0,f,f,0,0,f,f,0000,0000,0000,0000,0000,0000,0000,0000,00,00,00,00,f0,f0,f0,f0,0000,0000,0000,0000,0000,0000,0000,0000,00,00,00,00,163b3b8997,aba5,23b4,9996,cb10
11,11,0,32c4266588ed2ae9458ecee267c0000000000000000000000000000000000000003c3c3c3c00000000000000000000000000000000000000003fc03fc0000000000000000000000000033333c003ffffc00020160b0582fb2bf9abed98b9abed98b9abed98b9abed98bfc935dc41e7f74c35e6f74c11e7f64c1,1e7f64c1,5e6f74c1,1e7f74c3,fc935dc4,9abed98b,9abed98b,9abed98b,9abed98b,f,1,1,0,1,0,1,0,0,1,1,0,1,1,1,0582c160b,8,0,0,0,0,f,f,f,f,f,000,f,cccc,00000,00000,0000000000000000,0,f,f,0,0,f,f,0000,0000,0000,0000,0000,0000,0000,0000,00,00,00,00,f0,f0,f0,f0,0000,0000,0000,0000,0000,0000,0000,0000,00,00,00,00,163b3b899f,aba5,23b4,9996,cb10
12,12,0,32c4266588ed2ae9458ecee269c0000000000000000000000000000000000000003c3c3c3c00000000000000000000000000000000000000003fc03fc0000000000000000000000000033333c003ffffc00030160b0582ebbbfc66e3f84c66e3f84c66e3f84c66e3f84207c08636dc63b486dc63b48207c0863,207c0863,6dc63b48,6dc63b48,207c0863,c66e3f84,c66e3f84,c66e3f84,c66e3f84,f,1,1,0,1,1,1,0,1,1,1,0,1,0,1,0582c160b,c,0,0,0,0,f,f,f,f,f,000,f,cccc,00000,00000,0000000000000000,0,f,f,0,0,f,f,0000,0000,0000,0000,0000,0000,0000,0000,00,00,00,00,f0,f0,f0,f0,0000,0000,0000,0000,0000,0000,0000,0000,00,00,00,00,163b3b89a7,aba5,23b4,9996,cb10
13,13,0,32c4266588ed2ae9458ecee26b80000000000000000000000000000000000000003c3c3c3c00000000000000000000000000000000000000003fc03fc0000000000000000000000000033333c003ffffc00020160b0582e3baf7f773c7ffa179e377e97984d3a579a05da19b8bfaf52b82baf52b82bda19b8bf,da19b8bf,af52b82b,af52b82b,da19b8bf,3a579a05,7e97984d,fa179e37,7f773c7f,f,0,1,0,1,1,1,0,1,1,1,0,0,0,1,0582c160b,8,0,0,0,0,f,f,f,f,f,000,f,cccc,00000,00000,0000000000000000,0,f,f,0,0,f,f,0000,0000,0000,0000,0000,0000,0000,0000,00,00,00,00,f0,f0,f0,f0,0000,0000,0000,0000,0000,0000,0000,0000,00,00,00,00,163b3b89ae,aba5,23b4,9996,cb10
14,14,0,32c4266588ed2ae9458ecee26d80000000000000000000000000000000000000003c3c3c3c00000000000000000000000000000000000000003fc03fc0000000000000000000000000033333c003ffffc00030160b0582e22af80d512c680d512c680d512c680d512c67b775e6cb5f3252fb5f3252f7b775e6c,7b775e6c,b5f3252f,b5f3252f,7b775e6c,80d512c6,80d512c6,80d512c6,80d512c6,f,0,1,0,1,0,1,0,0,0,1,0,0,0,1,0582c160b,c,0,0,0,0,f,f,f,f,f,000,f,cccc,00000,00000,0000000000000000,0,f,f,0,0,f,f,0000,0000,0000,0000,0000,0000,0000,0000,00,00,00,00,f0,f0,f0,f0,0000,0000,0000,0000,0000,0000,0000,0000,00,00,00,00,163b3b89b6,aba5,23b4,9996,cb10
15,15,0,32c4266588ed2ae9458ecee26f80000000000000000000000000000000000000003c3c3c3c00000000000000000000000000000000000000003fc03fc0000000000000000000000000033333c003ffffc00020160b0582f22aff8e70d5df8e70d5df8e70d5df8e70d5d6577ad8ecb1353e0cb1353e06577ad8e,6577ad8e,cb1353e0,cb1353e0,6577ad8e,f8e70d5d,f8e70d5d,f8e70d5d,f8e70d5d,f,0,1,0,1,0,1,0,0,0,1,0,0,1,1,0582c160b,8,0,0,0,0,f,f,f,f,f,000,f,cccc,00000,00000,0000000000000000,0,f,f,0,0,f,f,0000,0000,0000,0000,0000,0000,0000,0000,00,00,00,00,f0,f0,f0,f0,0000,0000,0000,0000,0000,0000,0000,0000,00,00,00,00,163b3b89be,aba5,23b4,9996,cb10
16,16,0,32c4266588ed2ae9458ecee27180000000000000000000000000000000000000003c3c3c3c00000000000000000000000000000000000000003fc03fc0000000000000000000000000033333c003ffffc00030160b0582fb3bfb7051176b7051176b7051176b70511761460408ad489dbb2d489dbb21460408a,1460408a,d489dbb2,d489dbb2,1460408a,b7051176,b7051176,b7051176,b7051176,f,1,1,0,1,1,1,0,0,1,1,0,1,1,1,0582c160b,c,0,0,0,0,f,f,f,f,f,000,f,cccc,00000,00000,0000000000000000,0,f,f,0,0,f,f,0000,0000,0000,0000,0000,0000,0000,0000,00,00,00,00,f0,f0,f0,f0,0000,0000,0000,0000,0000,0000,0000,0000,00,00,00,00,163b3b89c6,aba5,23b4,9996,cb10
17,17,0,32c4266588ed2ae9458ecee27380000000000000000000000000000000000000003c3c3c3c00000000000000000000000000000000000000003fc03fc0000000000000000000000000033333c003ffffc00030160b0582ebbbfb345dcbdb345dcbdb345dcbdb345dcbd9962440daad8f9b9aad8f9b99962440d,9962440d,aad8f9b9,aad8f9b9,9962440d,b345dcbd,b345dcbd,b345dcbd,b345dcbd,f,1,1,0,1,1,1,0,1,1,1,0,1,0,1,0582c160b,c,0,0,0,0,f,f,f,f,f,000,f,cccc,00000,00000,0000000000000000,0,f,f,0,0,f,f,0000,0000,0000,0000,0000,0000,0000,0000,00,00,00,00,f0,f0,f0,f0,0000,0000,0000,0000,0000,0000,0000,0000,00,00,00,00,163b3b89ce,aba5,23b4,9996,cb10
18,18,0,32c4266588ed2ae9458ecee27540000000000000000000000000000000000000003c3c3c3c00000000000000000000000000000000000000003fc03fc0000000000000000000000000033333c003ffffc00020160b0582e2baff184830df184830df184830df184830decbe6402676b2bbe676b2bbeecbe6402,ecbe6402,676b2bbe,676b2bbe,ecbe6402,f184830d,f184830d,f184830d,f184830d,f,0,1,0,1,1,1,0,1,0,1,0,0,0,1,0582c160b,8,0,0,0,0,f,f,f,f,f,000,f,cccc,00000,00000,0000000000000000,0,f,f,0,0,f,f,0000,0000,0000,0000,0000,0000,0000,0000,00,00,00,00,f0,f0,f0,f0,0000,0000,0000,0000,0000,0000,0000,0000,00,00,00,00,163b3b89d5,aba5,23b4,9996,cb10
19,19,0,32c4266588ed2ae9458ecee27740000000000000000000000000000000000000003c3c3c3c00000000000000000000000000000000000000003fc03fc0000000000000000000000000033333c003ffffc00030160b0582f22af2e2b8d352e2b8d352e2b8d352e2b8d3526786a259ea44c4f9ea44c4f26786a25,26786a25,9ea44c4f,9ea44c4f,26786a25,2e2b8d35,2e2b8d35,2e2b8d35,2e2b8d35,f,0,1,0,1,0,1,0,0,0,1,0,0,1,1,0582c160b,c,0,0,0,0,f,f,f,f,f,000,f,cccc,00000,00000,0000000000000000,0,f,f,0,0,f,f,0000,0000,0000,0000,0000,0000,0000,0000,00,00,00,00,f0,f0,f0,f0,0000,0000,0000,0000,0000,0000,0000,0000,00,00,00,00,163b3b89dd,aba5,23b4,9996,cb10
20,20,0,32c4266588ed2ae9458ecee27940000000000000000000000000000000000000003c3c3c3c00000000000000000000000000000000000000003fc03fc0000000000000000000000000033333c003ffffc00030160b0582fa2bfc3d955c4c3d955c4c3d955c4c3d955c4eef7ffbdba6cc7ef9a26c6ef2e7dcbda,2e7dcbda,9a26c6ef,ba6cc7ef,eef7ffbd,c3d955c4,c3d955c4,c3d955c4,c3d955c4,f,1,1,0,1,0,1,0,0,0,1,0,1,1,1,0582c160b,c,0,0,0,0,f,f,f,f,f,000,f,cccc,00000,00000,0000000000000000,0,f,f,0,0,f,f,0000,0000,0000,0000,0000,0000,0000,0000,00,00,00,00,f0,f0,f0,f0,0000,0000,0000,0000,0000,0000,0000,0000,00,00,00,00,163b3b89e5,aba5,23b4,9996,cb10
21,21,0,32c4266588ed2ae9458ecee27b40000000000000000000000000000000000000003c3c3c3c00000000000000000000000000000000000000003fc03fc0000000000000000000000000033333c003ffffc00030160b0582ebbbfbc12e6ebbc12e6ebbc12e6ebbc12e6eb0b7ea29acaf7449bcaf7449b0b7ea29a,0b7ea29a,caf7449b,caf7449b,0b7ea29a,bc12e6eb,bc12e6eb,bc12e6eb,bc12e6eb,f,1,1,0,1,1,1,0,1,1,1,0,1,0,1,0582c160b,c,0,0,0,0,f,f,f,f,f,000,f,cccc,00000,00000,0000000000000000,0,f,f,0,0,f,f,0000,0000,0000,0000,0000,0000,0000,0000,00,00,00,00,f0,f0,f0,f0,0000,0000,0000,0000,0000,0000,0000,0000,00,00,00,00,163b3b89ed,aba5,23b4,9996,cb10
22,22,0,32c4266588ed2ae9458ecee27d00000000000000000000000000000000000000003c3c3c3c00000000000000000000000000000000000000003fc03fc0000000000000000000000000033333c003ffffc00020160b0582ebbbff174cffdf1744ffdf1744ffdf1744ffdae03c5c6a21e2140a21e2140ae03c5c6,ae03c5c6,a21e2140,a21e2140,ae03c5c6,f1744ffd,f1744ffd,f1744ffd,f174cffd,f,1,1,0,1,1,1,0,1,1,1,0,1,0,1,0582c160b,8,0,0,0,0,f,f,f,f,f,000,f,cccc,00000,00000,0000000000000000,0,f,f,0,0,f,f,0000,0000,0000,0000,0000,0000,0000,0000,00,00,00,00,f0,f0,f0,f0,0000,0000,0000,0000,0000,0000,0000,0000,00,00,00,00,163b3b89f4,aba5,23b4,9996,cb10
23,23,0,32c4266588ed2ae9458ecee27f00000000000000000000000000000000000000003c3c3c3c00000000000000000000000000000000000000003fc03fc0000000000000000000000000033333c003ffffc00020160b0582e22aff323a5d9f323a5d9f323a5d9f323a5d91d4fdd7a208cec95208cec951d4fdd7a,1d4fdd7a,208cec95,208cec95,1d4fdd7a,f323a5d9,f323a5d9,f323a5d9,f323a5d9,f,0,1,0,1,0,1,0,0,0,1,0,0,0,1,0582c160b,8,0,0,0,0,f,f,f,f,f,000,f,cccc,00000,00000,0000000000000000,0,f,f,0,0,f,f,0000,0000,0000,0000,0000,0000,0000,0000,00,00,00,00,f0,f0,f0,f0,0000,0000,0000,0000,0000,0000,0000,0000,00,00,00,00,163b3b89fc,aba5,23b4,9996,cb10
24,24,0,32c4266588ed2ae9458ecee28100000000000000000000000000000000000000003c3c3c3c00000000000000000000000000000000000000003fc03fc0000000000000000000000000033333c003ffffc00020160b0582f22afd850cb14d850cb14d850cb14d850cb144a6e5cb7ae6e346fae6e346f4a6e5cb7,4a6e5cb7,ae6e346f,ae6e346f,4a6e5cb7,d850cb14,d850cb14,d850cb14,d850cb14,f,0,1,0,1,0,1,0,0,0,1,0,0,1,1,0582c160b,8,0,0,0,0,f,f,f,f,f,000,f,cccc,00000,00000,0000000000000000,0,f,f,0,0,f,f,0000,0000,0000,0000,0000,0000,0000,0000,00,00,00,00,f0,f0,f0,f0,0000,0000,0000,0000,0000,0000,0000,0000,00,00,00,00,163b3b8a04,aba5,23b4,9996,cb10
25,25,0,32c4266588ed2ae9458ecee28300000000000000000000000000000000000000003c3c3c3c00000000000000000000000000000000000000003fc03fc0000000000000000000000000033333c003ffffc00030160b0582fb2bfe57539f0e57539f0e57539f0e57539f0020984f83edba5cc3efbb5cc3edba5cc,3edba5cc,3efbb5cc,3edba5cc,020984f8,e57539f0,e57539f0,e57539f0,e57539f0,f,1,1,0,1,0,1,0,0,1,1,0,1,1,1,0582c160b,c,0,0,0,0,f,f,f,f,f,000,f,cccc,00000,00000,0000000000000000,0,f,f,0,0,f,f,0000,0000,0000,0000,0000,0000,0000,0000,00,00,00,00,f0,f0,f0,f0,0000,0000,0000,0000,0000,0000,0000,0000,00,00,00,00,163b3b8a0c,aba5,23b4,9996,cb10
26,26,0,32c4266588ed2ae9458ecee28400000000000000000000000000000000000000003c3c3c3c00000000000000000000000000000000000000003fc03fc0000000000000000000000000033333c003ffffc00020160b0582ebbbf6408ba5e6408ba5e6408ba5e6408ba5e0d2653b789beb31f89beb31f0d2653b7,0d2653b7,89beb31f,89beb31f,0d2653b7,6408ba5e,6408ba5e,6408ba5e,6408ba5e,f,1,1,0,1,1,1,0,1,1,1,0,1,0,1,0582c160b,8,0,0,0,0,f,f,f,f,f,000,f,cccc,00000,00000,0000000000000000,0,f,f,0,0,f,f,0000,0000,0000,0000,0000,0000,0000,0000,00,00,00,00,f0,f0,f0,f0,0000,0000,0000,0000,0000,0000,0000,0000,00,00,00,00,163b3b8a10,aba5,23b4,9996,cb10
27,27,0,32c4266588ed2ae9458ecee286c0000000000000000000000000000000000000003c3c3c3c00000000000000000000000000000000000000003fc03fc0000000000000000000000000033333c003ffffc00020160b0582e3baf851dfc1d8120de119535dc19d124fe39694c6ab39dcd0c0d9dcd0c0d694c6ab3,694c6ab3,9dcd0c0d,9dcd0c0d,694c6ab3,d124fe39,9535dc19,8120de11,851dfc1d,f,0,1,0,1,1,1,0,1,1,1,0,0,0,1,0582c160b,8,0,0,0,0,f,f,f,f,f,000,f,cccc,00000,00000,0000000000000000,0,f,f,0,0,f,f,0000,0000,0000,0000,0000,0000,0000,0000,00,00,00,00,f0,f0,f0,f0,0000,0000,0000,0000,0000,0000,0000,0000,00,00,00,00,163b3b8a1b,aba5,23b4,9996,cb10
28,28,0,32c4266588ed2ae9458ecee288c0000000000000000000000000000000000000003c3c3c3c00000000000000000000000000000000000000003fc03fc0000000000000000000000000033333c003ffffc00020160b0582f22af5e1a3c335e1a3c335e1a3c335e1a3c336f5bbf986ea79bca6ea79bca6f5bbf98,6f5bbf98,6ea79bca,6ea79bca,6f5bbf98,5e1a3c33,5e1a3c33,5e1a3c33,5e1a3c33,f,0,1,0,1,0,1,0,0,0,1,0,0,1,1,0582c160b,8,0,0,0,0,f,f,f,f,f,000,f,cccc,00000,00000,0000000000000000,0,f,f,0,0,f,f,0000,0000,0000,0000,0000,0000,0000,0000,00,00,00,00,f0,f0,f0,f0,0000,0000,0000,0000,0000,0000,0000,0000,00,00,00,00,163b3b8a23,aba5,23b4,9996,cb10
29,29,0,32c4266588ed2ae9458ecee28ac0000000000000000000000000000000000000003c3c3c3c00000000000000000000000000000000000000003fc03fc0000000000000000000000000033333c003ffffc00020160b0582f22afdfb2a7e6dfb2a7e6dfb2a7e6dfb2a7e65b373faaf7d713c2f7d713c25b373f8a,5b373f8a,f7d713c2,f7d713c2,5b373faa,dfb2a7e6,dfb2a7e6,dfb2a7e6,dfb2a7e6,f,0,1,0,1,0,1,0,0,0,1,0,0,1,1,0582c160b,8,0,0,0,0,f,f,f,f,f,000,f,cccc,00000,00000,0000000000000000,0,f,f,0,0,f,f,0000,0000,0000,0000,0000,0000,0000,0000,00,00,00,00,f0,f0,f0,f0,0000,0000,0000,0000,0000,0000,0000,0000,00,00,00,00,163b3b8a2b,aba5,23b4,9996,cb10
