Sample in Buffer,Sample in Window,TRIGGER,receiver_0[31:0],ila_data[617:0],receiver_1[31:0],receiver_2[31:0],receiver_3[31:0],transmitter_0[31:0],transmitter_1[31:0],transmitter_2[31:0],transmitter_3[31:0],prbs_match_int[3:0],ch0_rxctrl0_int[15:0],ch1_rxctrl0_int[15:0],ch2_rxctrl0_int[15:0],ch3_rxctrl0_int[15:0],ch0_rxctrl1_int[15:0],ch1_rxctrl1_int[15:0],ch2_rxctrl1_int[15:0],ch3_rxctrl1_int[15:0],ch0_rxctrl2_int[7:0],ch1_rxctrl2_int[7:0],ch2_rxctrl2_int[7:0],ch3_rxctrl2_int[7:0],ch0_rxctrl3_int[7:0],ch1_rxctrl3_int[7:0],ch2_rxctrl3_int[7:0],ch3_rxctrl3_int[7:0],ch0_txctrl0_int[15:0],ch1_txctrl0_int[15:0],ch2_txctrl0_int[15:0],ch3_txctrl0_int[15:0],ch0_txctrl1_int[15:0],ch1_txctrl1_int[15:0],ch2_txctrl1_int[15:0],ch3_txctrl1_int[15:0],ch0_txctrl2_int[7:0],ch1_txctrl2_int[7:0],ch2_txctrl2_int[7:0],ch3_txctrl2_int[7:0],hb0_gtwiz_userclk_rx_usrclk2_int,hb0_gtwiz_userclk_rx_active_int,hb_gtwiz_reset_all_int,hb0_gtwiz_reset_rx_done_int,hb0_gtwiz_userclk_tx_usrclk2_int,hb0_gtwiz_userclk_tx_active_int
Radix - UNSIGNED,UNSIGNED,UNSIGNED,HEX,HEX,HEX,HEX,HEX,HEX,HEX,HEX,HEX,HEX,HEX,HEX,HEX,HEX,HEX,HEX,HEX,HEX,HEX,HEX,HEX,HEX,HEX,HEX,HEX,HEX,HEX,HEX,HEX,HEX,HEX,HEX,HEX,HEX,HEX,HEX,HEX,HEX,HEX,HEX,HEX,HEX,HEX,HEX
0,0,0,beb5b0c3,3b0000000000000000000000000000000000000000f0f0f0f000000000000000000000000000000000000000000a32ec3afa32ec1afa33ec3af503ccb48691d66f7691d66f7691d66f7beb5b0c3,691d66f7,691d66f7,691d66f7,503ccb48,a33ec3af,a32ec1af,a32ec3af,0,0000,0000,0000,0000,0000,0000,0000,0000,00,00,00,00,f0,f0,f0,f0,0000,0000,0000,0000,0000,0000,0000,0000,00,00,00,00,1,1,0,1,1,1
1,1,0,beb4b0c3,2b0000000000000000000000000000000000000000f0f0f0f000000000000000000000000000000000000000000cfbf0156cfbf0156cfbf0156503ccb49f8154c0ef8154c0ef8154c0ebeb4b0c3,f8154c0e,f8154c0e,f8154c0e,503ccb49,cfbf0156,cfbf0156,cfbf0156,0,0000,0000,0000,0000,0000,0000,0000,0000,00,00,00,00,f0,f0,f0,f0,0000,0000,0000,0000,0000,0000,0000,0000,00,00,00,00,1,1,0,1,0,1
2,2,0,beb3b0c3,2b0000000000000000000000000000000000000000f0f0f0f000000000000000000000000000000000000000000f3efc055f3efc055f3efc055503ccb4a7e0253247e0253247e025324beb3b0c3,7e025324,7e025324,7e025324,503ccb4a,f3efc055,f3efc055,f3efc055,0,0000,0000,0000,0000,0000,0000,0000,0000,00,00,00,00,f0,f0,f0,f0,0000,0000,0000,0000,0000,0000,0000,0000,00,00,00,00,1,1,0,1,0,1
3,3,0,beb2b0c3,2a0000000000000000000000000000000000000000f0f0f0f000000000000000000000000000000000000000000bcfbf015bcfbf015bcfbf015503ccb4b3f8054ce3f8054ce3f8054cebeb2b0c3,3f8054ce,3f8054ce,3f8054ce,503ccb4b,bcfbf015,bcfbf015,bcfbf015,0,0000,0000,0000,0000,0000,0000,0000,0000,00,00,00,00,f0,f0,f0,f0,0000,0000,0000,0000,0000,0000,0000,0000,00,00,00,00,0,1,0,1,0,1
4,4,0,beb1b0c3,3a0000000000000000000000000000000000000000f0f0f0f000000000000000000000000000000000000000000af3efc05af3efc05af3efc05503ccb4cf7e0d533f7e0d533f7e0d533beb1b0c3,f7e0d533,f7e0d533,f7e0d533,503ccb4c,af3efc05,af3efc05,af3efc05,0,0000,0000,0000,0000,0000,0000,0000,0000,00,00,00,00,f0,f0,f0,f0,0000,0000,0000,0000,0000,0000,0000,0000,00,00,00,00,0,1,0,1,1,1
5,5,0,beafb0c3,3b0000000000000000000000000000000000000000f0f0f0f0000000000000000000000000000000000000000004266bf397a42ad3156663f39503ccb4d6cf8154c7ff815cc5df0156cbeafb0c3,5df0156c,7ff815cc,6cf8154c,503ccb4d,56663f39,7a42ad31,4266bf39,0,0000,0000,0000,0000,0000,0000,0000,0000,00,00,00,00,f0,f0,f0,f0,0000,0000,0000,0000,0000,0000,0000,0000,00,00,00,00,1,1,0,1,1,1
6,6,0,beb0b0c3,2b0000000000000000000000000000000000000000f0f0f0f00000000000000000000000000000000000000000055988b4e55988b4e55988b4e503ccb4e24a56d0d24a56d0d24a56d0dbeb0b0c3,24a56d0d,24a56d0d,24a56d0d,503ccb4e,55988b4e,55988b4e,55988b4e,0,0000,0000,0000,0000,0000,0000,0000,0000,00,00,00,00,f0,f0,f0,f0,0000,0000,0000,0000,0000,0000,0000,0000,00,00,00,00,1,1,0,1,0,1
7,7,0,beaeb0c3,2a0000000000000000000000000000000000000000f0f0f0f000000000000000000000000000000000000000000156622d3156622d3156622d3503ccb4fce098384ce098384ce098384beaeb0c3,ce098384,ce098384,ce098384,503ccb4f,156622d3,156622d3,156622d3,0,0000,0000,0000,0000,0000,0000,0000,0000,00,00,00,00,f0,f0,f0,f0,0000,0000,0000,0000,0000,0000,0000,0000,00,00,00,00,0,1,0,1,0,1
8,8,0,beadb0c3,3a0000000000000000000000000000000000000000f0f0f0f000000000000000000000000000000000000000000055988b4055988b4055988b4503ccb5033ba47c133ba47c133ba47c1beadb0c3,33ba47c1,33ba47c1,33ba47c1,503ccb50,055988b4,055988b4,055988b4,0,0000,0000,0000,0000,0000,0000,0000,0000,00,00,00,00,f0,f0,f0,f0,0000,0000,0000,0000,0000,0000,0000,0000,00,00,00,00,0,1,0,1,1,1
9,9,0,beacb0c3,3a0000000000000000000000000000000000000000f0f0f0f0000000000000000000000000000000000000000000156622d0156622d01566225503ccb514c0e76284c0e76284c0e7628beacb0c3,4c0e7628,4c0e7628,4c0e7628,503ccb51,01566225,0156622d,0156622d,0,0000,0000,0000,0000,0000,0000,0000,0000,00,00,00,00,f0,f0,f0,f0,0000,0000,0000,0000,0000,0000,0000,0000,00,00,00,00,0,1,0,1,1,1
10,10,0,beabb0c3,3b0000000000000000000000000000000000000000f0f0f0f0000000000000000000000000000000000000000004e42526d4e42526d4e42526d503ccb520d8c71dd0d8c71dd0d8c71ddbeabb0c3,0d8c71dd,0d8c71dd,0d8c71dd,503ccb52,4e42526d,4e42526d,4e42526d,0,0000,0000,0000,0000,0000,0000,0000,0000,00,00,00,00,f0,f0,f0,f0,0000,0000,0000,0000,0000,0000,0000,0000,00,00,00,00,1,1,0,1,1,1
11,11,0,beaab0c3,2b0000000000000000000000000000000000000000f0f0f0f000000000000000000000000000000000000000000d390949bd390949bd390949b503ccb5384443b8f84443b8f84443b8fbeaab0c3,84443b8f,84443b8f,84443b8f,503ccb53,d390949b,d390949b,d390949b,0,0000,0000,0000,0000,0000,0000,0000,0000,00,00,00,00,f0,f0,f0,f0,0000,0000,0000,0000,0000,0000,0000,0000,00,00,00,00,1,1,0,1,0,1
12,12,0,bea9b0c3,2a0000000000000000000000000000000000000000f0f0f0f000000000000000000000000000000000000000000b4e42526b4e42526b4e42526503ccb54c1d6c9fcc1d6c9fcc1d6c9fcbea9b0c3,c1d6c9fc,c1d6c9fc,c1d6c9fc,503ccb54,b4e42526,b4e42526,b4e42526,0,0000,0000,0000,0000,0000,0000,0000,0000,00,00,00,00,f0,f0,f0,f0,0000,0000,0000,0000,0000,0000,0000,0000,00,00,00,00,0,1,0,1,0,1
13,13,0,beb7b0c3,3a0000000000000000000000000000000000000000f0f0f0f0000000000000000000000000000000000000000002d3909492d3909492d390949503ccb5528b5b25828b5b25828b5b258beb7b0c3,28b5b258,28b5b258,28b5b258,503ccb55,2d390949,2d390949,2d390949,0,0000,0000,0000,0000,0000,0000,0000,0000,00,00,00,00,f0,f0,f0,f0,0000,0000,0000,0000,0000,0000,0000,0000,00,00,00,00,0,1,0,1,1,1
14,14,0,beb8b0c3,3b0000000000000000000000000000000000000000f0f0f0f0000000000000000000000000000000000000000008b4e42528b4e40568b4e6252503ccb566d0d8c716d0d8c716d0d8c71beb8b0c3,6d0d8c71,6d0d8c71,6d0d8c71,503ccb56,8b4e6252,8b4e4056,8b4e4252,0,0000,0000,0000,0000,0000,0000,0000,0000,00,00,00,00,f0,f0,f0,f0,0000,0000,0000,0000,0000,0000,0000,0000,00,00,00,00,1,1,0,1,1,1
15,15,0,bea6b0c3,2b0000000000000000000000000000000000000000f0f0f0f0000000000000000000000000000000000000000009b71e8359b71e8359b71e835503ccb578fa148348fa148348fa14834bea6b0c3,8fa14834,8fa14834,8fa14834,503ccb57,9b71e835,9b71e835,9b71e835,0,0000,0000,0000,0000,0000,0000,0000,0000,00,00,00,00,f0,f0,f0,f0,0000,0000,0000,0000,0000,0000,0000,0000,00,00,00,00,1,1,0,1,0,1
16,16,0,bea5b0c3,2b0000000000000000000000000000000000000000f0f0f0f00000000000000000000000000000000000000000026dc7a0d26dc7a0d26dc7a0d503ccb58fc3075cdfc3075cdfc3075cdbea5b0c3,fc3075cd,fc3075cd,fc3075cd,503ccb58,26dc7a0d,26dc7a0d,26dc7a0d,0,0000,0000,0000,0000,0000,0000,0000,0000,00,00,00,00,f0,f0,f0,f0,0000,0000,0000,0000,0000,0000,0000,0000,00,00,00,00,1,1,0,1,0,1
17,17,0,bebbb0c3,2a0000000000000000000000000000000000000000f0f0f0f00000000000000000000000000000000000000000049b71e8349b71e8349b71e83503ccb5958eb059358eb059358eb0593bebbb0c3,58eb0593,58eb0593,58eb0593,503ccb59,49b71e83,49b71e83,49b71e83,0,0000,0000,0000,0000,0000,0000,0000,0000,00,00,00,00,f0,f0,f0,f0,0000,0000,0000,0000,0000,0000,0000,0000,00,00,00,00,0,1,0,1,0,1
18,18,0,bea3b0c3,3a0000000000000000000000000000000000000000f0f0f0f000000000000000000000000000000000000000000526dc7a0526dc7a0526dc7a0503ccb5a71dd195c71dd195c71dd195cbea3b0c3,71dd195c,71dd195c,71dd195c,503ccb5a,526dc7a0,526dc7a0,526dc7a0,0,0000,0000,0000,0000,0000,0000,0000,0000,00,00,00,00,f0,f0,f0,f0,0000,0000,0000,0000,0000,0000,0000,0000,00,00,00,00,0,1,0,1,1,1
19,19,0,bebdb0c3,3b0000000000000000000000000000000000000000f0f0f0f0000000000000000000000000000000000000000003519761d3519761d3519741d503ccb5b3049a1083987a54c3f85a168bebdb0c3,3f85a168,3987a54c,3049a108,503ccb5b,3519741d,3519761d,3519761d,0,0000,0000,0000,0000,0000,0000,0000,0000,00,00,00,00,f0,f0,f0,f0,0000,0000,0000,0000,0000,0000,0000,0000,00,00,00,00,1,1,0,1,1,1
20,20,0,bebeb0c3,2b0000000000000000000000000000000000000000f0f0f0f0000000000000000000000000000000000000000000d465d870d465d870d465d87503ccb5ccdf3c5eccdf3c5eccdf3c5ecbebeb0c3,cdf3c5ec,cdf3c5ec,cdf3c5ec,503ccb5c,0d465d87,0d465d87,0d465d87,0,0000,0000,0000,0000,0000,0000,0000,0000,00,00,00,00,f0,f0,f0,f0,0000,0000,0000,0000,0000,0000,0000,0000,00,00,00,00,1,1,0,1,0,1
21,21,0,bebfb0c3,2a0000000000000000000000000000000000000000f0f0f0f000000000000000000000000000000000000000000835197618351976183519761503ccb5d935b1143935b1143935b1143bebfb0c3,935b1143,935b1143,935b1143,503ccb5d,83519761,83519761,83519761,0,0000,0000,0000,0000,0000,0000,0000,0000,00,00,00,00,f0,f0,f0,f0,0000,0000,0000,0000,0000,0000,0000,0000,00,00,00,00,0,1,0,1,0,1
22,22,0,be60b0c3,3a0000000000000000000000000000000000000000f0f0f0f000000000000000000000000000000000000000000a0d465d8a0d465d8a0d465d8503ccb5e5cd13c4f5cd13c4f5cd13c4fbe60b0c3,5cd13c4f,5cd13c4f,5cd13c4f,503ccb5e,a0d465d8,a0d465d8,a0d465d8,0,0000,0000,0000,0000,0000,0000,0000,0000,00,00,00,00,f0,f0,f0,f0,0000,0000,0000,0000,0000,0000,0000,0000,00,00,00,00,0,1,0,1,1,1
23,23,0,be61b0c3,3a0000000000000000000000000000000000000000f0f0f0f000000000000000000000000000000000000000000e8351976e8351976e8351976503ccb5f483450f4483450f4483450f4be61b0c3,483450f4,483450f4,483450f4,503ccb5f,e8351976,e8351976,e8351976,0,0000,0000,0000,0000,0000,0000,0000,0000,00,00,00,00,f0,f0,f0,f0,0000,0000,0000,0000,0000,0000,0000,0000,00,00,00,00,0,1,0,1,1,1
24,24,0,be62b0c3,3b0000000000000000000000000000000000000000f0f0f0f000000000000000000000000000000000000000000875e7df8875e7df8875e7df8503ccb60ecef20aaecef20aaecef20aabe62b0c3,ecef20aa,ecef20aa,ecef20aa,503ccb60,875e7df8,875e7df8,875e7df8,0,0000,0000,0000,0000,0000,0000,0000,0000,00,00,00,00,f0,f0,f0,f0,0000,0000,0000,0000,0000,0000,0000,0000,00,00,00,00,1,1,0,1,1,1
25,25,0,be7cb0c3,2b0000000000000000000000000000000000000000f0f0f0f00000000000000000000000000000000000000000061d79f7e61d79f7e61d79f7e503ccb6143fbf00a43fbf00a43fbf00abe7cb0c3,43fbf00a,43fbf00a,43fbf00a,503ccb61,61d79f7e,61d79f7e,61d79f7e,0,0000,0000,0000,0000,0000,0000,0000,0000,00,00,00,00,f0,f0,f0,f0,0000,0000,0000,0000,0000,0000,0000,0000,00,00,00,00,1,1,0,1,0,1
26,26,0,be64b0c3,2a0000000000000000000000000000000000000000f0f0f0f000000000000000000000000000000000000000000d875e7dfd875e7dfd875e7df503ccb624fdee31a4fdee31a4fdee31abe64b0c3,4fdee31a,4fdee31a,4fdee31a,503ccb62,d875e7df,d875e7df,d875e7df,0,0000,0000,0000,0000,0000,0000,0000,0000,00,00,00,00,f0,f0,f0,f0,0000,0000,0000,0000,0000,0000,0000,0000,00,00,00,00,0,1,0,1,0,1
27,27,0,be7ab0c3,3a0000000000000000000000000000000000000000f0f0f0f000000000000000000000000000000000000000000761d79f7761d79f7761d79f7503ccb63f42f5f01f42f5f01f42f5f01be7ab0c3,f42f5f01,f42f5f01,f42f5f01,503ccb63,761d79f7,761d79f7,761d79f7,0,0000,0000,0000,0000,0000,0000,0000,0000,00,00,00,00,f0,f0,f0,f0,0000,0000,0000,0000,0000,0000,0000,0000,00,00,00,00,0,1,0,1,1,1
28,28,0,be79b0c3,3b0000000000000000000000000000000000000000f0f0f0f000000000000000000000000000000000000000000dd865a3d5d075e79dd8ef675503ccb64c5ecef20c5ecef20c5ecef20be79b0c3,c5ecef20,c5ecef20,c5ecef20,503ccb64,dd8ef675,5d075e79,dd865a3d,0,0000,0000,0000,0000,0000,0000,0000,0000,00,00,00,00,f0,f0,f0,f0,0000,0000,0000,0000,0000,0000,0000,0000,00,00,00,00,1,1,0,1,1,1
29,29,0,be67b0c3,2b0000000000000000000000000000000000000000f0f0f0f0000000000000000000000000000000000000000007e02acc47e02acc47e02acc4503ccb650a79c22c0a79c22c0a79c22cbe67b0c3,0a79c22c,0a79c22c,0a79c22c,503ccb65,7e02acc4,7e02acc4,7e02acc4,0,0000,0000,0000,0000,0000,0000,0000,0000,00,00,00,00,f0,f0,f0,f0,0000,0000,0000,0000,0000,0000,0000,0000,00,00,00,00,1,1,0,1,0,1
30,30,0,be68b0c3,2b0000000000000000000000000000000000000000f0f0f0f000000000000000000000000000000000000000000df80ab31df80ab31df80ab31503ccb661aa6884b1aa6884b1aa6884bbe68b0c3,1aa6884b,1aa6884b,1aa6884b,503ccb66,df80ab31,df80ab31,df80ab31,0,0000,0000,0000,0000,0000,0000,0000,0000,00,00,00,00,f0,f0,f0,f0,0000,0000,0000,0000,0000,0000,0000,0000,00,00,00,00,1,1,0,1,0,1
31,31,0,be76b0c3,2a0000000000000000000000000000000000000000f0f0f0f000000000000000000000000000000000000000000f7e02accf7e02accf7e02acc503ccb6701a962d201a962d201a962d2be76b0c3,01a962d2,01a962d2,01a962d2,503ccb67,f7e02acc,f7e02acc,f7e02acc,0,0000,0000,0000,0000,0000,0000,0000,0000,00,00,00,00,f0,f0,f0,f0,0000,0000,0000,0000,0000,0000,0000,0000,00,00,00,00,0,1,0,1,0,1
32,32,0,be75b0c3,3a0000000000000000000000000000000000000000f0f0f0f0000000000000000000000000000000000000000007df80ab37df80ab37df80ab3503ccb6820aa989420aa989420aa9894be75b0c3,20aa9894,20aa9894,20aa9894,503ccb68,7df80ab3,7df80ab3,7df80ab3,0,0000,0000,0000,0000,0000,0000,0000,0000,00,00,00,00,f0,f0,f0,f0,0000,0000,0000,0000,0000,0000,0000,0000,00,00,00,00,0,1,0,1,1,1
33,33,0,be74b0c3,3b0000000000000000000000000000000000000000f0f0f0f000000000000000000000000000000000000000000d45a7212c45a7212c45a7212503ccb692c90599a2882599ab4003bdbbe74b0c3,b4003bdb,2882599a,2c90599a,503ccb69,c45a7212,c45a7212,d45a7212,0,0000,0000,0000,0000,0000,0000,0000,0000,00,00,00,00,f0,f0,f0,f0,0000,0000,0000,0000,0000,0000,0000,0000,00,00,00,00,1,1,0,1,1,1
34,34,0,be73b0c3,2b0000000000000000000000000000000000000000f0f0f0f00000000000000000000000000000000000000000031169c8431169c8431169c84503ccb6a4be4dad94be4dad94be4dad9be73b0c3,4be4dad9,4be4dad9,4be4dad9,503ccb6a,31169c84,31169c84,31169c84,0,0000,0000,0000,0000,0000,0000,0000,0000,00,00,00,00,f0,f0,f0,f0,0000,0000,0000,0000,0000,0000,0000,0000,00,00,00,00,1,1,0,1,0,1
35,35,0,be72b0c3,2a0000000000000000000000000000000000000000f0f0f0f000000000000000000000000000000000000000000cc45a721cc45a721cc45a721503ccb6bd2c616b6d2c616b6d2c616b6be72b0c3,d2c616b6,d2c616b6,d2c616b6,503ccb6b,cc45a721,cc45a721,cc45a721,0,0000,0000,0000,0000,0000,0000,0000,0000,00,00,00,00,f0,f0,f0,f0,0000,0000,0000,0000,0000,0000,0000,0000,00,00,00,00,0,1,0,1,0,1
36,36,0,be71b0c3,3a0000000000000000000000000000000000000000f0f0f0f000000000000000000000000000000000000000000b31169c8b31169c8b31169c8503ccb6c94b1a2ad94b1a2ad94b1a2adbe71b0c3,94b1a2ad,94b1a2ad,94b1a2ad,503ccb6c,b31169c8,b31169c8,b31169c8,0,0000,0000,0000,0000,0000,0000,0000,0000,00,00,00,00,f0,f0,f0,f0,0000,0000,0000,0000,0000,0000,0000,0000,00,00,00,00,0,1,0,1,1,1
37,37,0,be6fb0c3,3b0000000000000000000000000000000000000000f0f0f0f000000000000000000000000000000000000000000acc45a72acc45a72acc45a7a503ccb6dc22c908bc22c908bc22c908bbe6fb0c3,c22c908b,c22c908b,c22c908b,503ccb6d,acc45a7a,acc45a72,acc45a72,0,0000,0000,0000,0000,0000,0000,0000,0000,00,00,00,00,f0,f0,f0,f0,0000,0000,0000,0000,0000,0000,0000,0000,00,00,00,00,1,1,0,1,1,1
38,38,0,be70b0c3,2b0000000000000000000000000000000000000000f0f0f0f00000000000000000000000000000000000000000084a4db8f84a4db8f84a4db8f503ccb6ed9236512d9236512d9236512be70b0c3,d9236512,d9236512,d9236512,503ccb6e,84a4db8f,84a4db8f,84a4db8f,0,0000,0000,0000,0000,0000,0000,0000,0000,00,00,00,00,f0,f0,f0,f0,0000,0000,0000,0000,0000,0000,0000,0000,00,00,00,00,1,1,0,1,0,1
39,39,0,be6eb0c3,2b0000000000000000000000000000000000000000f0f0f0f000000000000000000000000000000000000000000212936e3212936e3212936e3503ccb6fb6571e9cb6571e9cb6571e9cbe6eb0c3,b6571e9c,b6571e9c,b6571e9c,503ccb6f,212936e3,212936e3,212936e3,0,0000,0000,0000,0000,0000,0000,0000,0000,00,00,00,00,f0,f0,f0,f0,0000,0000,0000,0000,0000,0000,0000,0000,00,00,00,00,1,1,0,1,0,1
40,40,0,be6db0c3,2a0000000000000000000000000000000000000000f0f0f0f000000000000000000000000000000000000000000c84a4db8c84a4db8c84a4db8503ccb70ad722740ad722740ad722740be6db0c3,ad722740,ad722740,ad722740,503ccb70,c84a4db8,c84a4db8,c84a4db8,0,0000,0000,0000,0000,0000,0000,0000,0000,00,00,00,00,f0,f0,f0,f0,0000,0000,0000,0000,0000,0000,0000,0000,00,00,00,00,0,1,0,1,0,1
41,41,0,be6cb0c3,3a0000000000000000000000000000000000000000f0f0f0f0000000000000000000000000000000000000000007212936e7212936e7212936e503ccb718b9b6ee88b9b6ee88b9b6ee8be6cb0c3,8b9b6ee8,8b9b6ee8,8b9b6ee8,503ccb71,7212936e,7212936e,7212936e,0,0000,0000,0000,0000,0000,0000,0000,0000,00,00,00,00,f0,f0,f0,f0,0000,0000,0000,0000,0000,0000,0000,0000,00,00,00,00,0,1,0,1,1,1
42,42,0,be6bb0c3,3b0000000000000000000000000000000000000000f0f0f0f0000000000000000000000000000000000000000009e85a0db8d04a4cb9d85acdb503ccb72dad92365dad92365dad92365be6bb0c3,dad92365,dad92365,dad92365,503ccb72,9d85acdb,8d04a4cb,9e85a0db,0,0000,0000,0000,0000,0000,0000,0000,0000,00,00,00,00,f0,f0,f0,f0,0000,0000,0000,0000,0000,0000,0000,0000,00,00,00,00,1,1,0,1,1,1
43,43,0,be6ab0c3,2b0000000000000000000000000000000000000000f0f0f0f000000000000000000000000000000000000000000e3d06a32e3d06a32e3d06a32503ccb739cae97619cae97619cae9761be6ab0c3,9cae9761,9cae9761,9cae9761,503ccb73,e3d06a32,e3d06a32,e3d06a32,0,0000,0000,0000,0000,0000,0000,0000,0000,00,00,00,00,f0,f0,f0,f0,0000,0000,0000,0000,0000,0000,0000,0000,00,00,00,00,1,1,0,1,0,1
44,44,0,be69b0c3,2a0000000000000000000000000000000000000000f0f0f0f000000000000000000000000000000000000000000b8f41a8cb8f41a8cb8f41a8c503ccb74402b7a38402b7a38402b7a38be69b0c3,402b7a38,402b7a38,402b7a38,503ccb74,b8f41a8c,b8f41a8c,b8f41a8c,0,0000,0000,0000,0000,0000,0000,0000,0000,00,00,00,00,f0,f0,f0,f0,0000,0000,0000,0000,0000,0000,0000,0000,00,00,00,00,0,1,0,1,0,1
45,45,0,be77b0c3,3a0000000000000000000000000000000000000000f0f0f0f0000000000000000000000000000000000000000006e3d06a36e3d06a36e3d06a3503ccb75e8ca0669e8ca0669e8ca0669be77b0c3,e8ca0669,e8ca0669,e8ca0669,503ccb75,6e3d06a3,6e3d06a3,6e3d06a3,0,0000,0000,0000,0000,0000,0000,0000,0000,00,00,00,00,f0,f0,f0,f0,0000,0000,0000,0000,0000,0000,0000,0000,00,00,00,00,0,1,0,1,1,1
46,46,0,be78b0c3,3a0000000000000000000000000000000000000000f0f0f0f000000000000000000000000000000000000000000db8f41a8db8f41a8db8f41a8503ccb766512b9bd6512b9bd6512b9bdbe78b0c3,6512b9bd,6512b9bd,6512b9bd,503ccb76,db8f41a8,db8f41a8,db8f41a8,0,0000,0000,0000,0000,0000,0000,0000,0000,00,00,00,00,f0,f0,f0,f0,0000,0000,0000,0000,0000,0000,0000,0000,00,00,00,00,0,1,0,1,1,1
47,47,0,be66b0c3,3b0000000000000000000000000000000000000000f0f0f0f00000000000000000000000000000000000000000032ec3af332ec3af332ec3af3503ccb7761378f7f6d368f7e78b6afbebe66b0c3,78b6afbe,6d368f7e,61378f7f,503ccb77,32ec3af3,32ec3af3,32ec3af3,0,0000,0000,0000,0000,0000,0000,0000,0000,00,00,00,00,f0,f0,f0,f0,0000,0000,0000,0000,0000,0000,0000,0000,00,00,00,00,1,1,0,1,1,1
48,48,0,be65b0c3,2b0000000000000000000000000000000000000000f0f0f0f0000000000000000000000000000000000000000008cbb0ebc8cbb0ebc8cbb0ebc503ccb78386ae73f386ae73f386ae73fbe65b0c3,386ae73f,386ae73f,386ae73f,503ccb78,8cbb0ebc,8cbb0ebc,8cbb0ebc,0,0000,0000,0000,0000,0000,0000,0000,0000,00,00,00,00,f0,f0,f0,f0,0000,0000,0000,0000,0000,0000,0000,0000,00,00,00,00,1,1,0,1,0,1
49,49,0,be7bb0c3,2a0000000000000000000000000000000000000000f0f0f0f000000000000000000000000000000000000000000a32ec3afa32ec3afa32ec3af503ccb79691d66f7691d66f7691d66f7be7bb0c3,691d66f7,691d66f7,691d66f7,503ccb79,a32ec3af,a32ec3af,a32ec3af,0,0000,0000,0000,0000,0000,0000,0000,0000,00,00,00,00,f0,f0,f0,f0,0000,0000,0000,0000,0000,0000,0000,0000,00,00,00,00,0,1,0,1,0,1
50,50,0,be63b0c3,3a0000000000000000000000000000000000000000f0f0f0f000000000000000000000000000000000000000000a8cbb0eba8cbb0eba8cbb0eb503ccb7abd87be7dbd87be7dbd87be7dbe63b0c3,bd87be7d,bd87be7d,bd87be7d,503ccb7a,a8cbb0eb,a8cbb0eb,a8cbb0eb,0,0000,0000,0000,0000,0000,0000,0000,0000,00,00,00,00,f0,f0,f0,f0,0000,0000,0000,0000,0000,0000,0000,0000,00,00,00,00,0,1,0,1,1,1
