Sample in Buffer,Sample in Window,TRIGGER,ila_data[265:0],receiver_0[31:0],receiver_1[31:0],receiver_2[31:0],receiver_3[31:0],transmitter_0[31:0],transmitter_1[31:0],transmitter_2[31:0],transmitter_3[31:0],prbs_match_int[3:0],hb0_gtwiz_userclk_rx_usrclk2_int,hb0_gtwiz_userclk_rx_active_int,hb_gtwiz_reset_all_int,hb0_gtwiz_reset_rx_done_int,hb0_gtwiz_userclk_tx_usrclk2_int,hb0_gtwiz_userclk_tx_active_int
Radix - UNSIGNED,UNSIGNED,UNSIGNED,HEX,HEX,HEX,HEX,HEX,HEX,HEX,HEX,HEX,HEX,HEX,HEX,HEX,HEX,HEX,HEX
0,0,0,2a0bdc9f490bdc9f490bdc9f490bdc9f490bdc9f48dbdc9f48dbdc9f48dbdc9f48d,bdc9f48d,bdc9f48d,bdc9f48d,bdc9f48d,bdc9f490,bdc9f490,bdc9f490,bdc9f490,0,0,1,0,1,0,1
1,1,0,2a0bdc9f491bdc9f491bdc9f491bdc9f491bdc9f48ebdc9f48ebdc9f48ebdc9f48e,bdc9f48e,bdc9f48e,bdc9f48e,bdc9f48e,bdc9f491,bdc9f491,bdc9f491,bdc9f491,0,0,1,0,1,0,1
2,2,0,3a0bdc9f492bdc9f492bdc9f492bdc9f492bdc9f48fbdc9f48fbdc9f48fbdc9f48f,bdc9f48f,bdc9f48f,bdc9f48f,bdc9f48f,bdc9f492,bdc9f492,bdc9f492,bdc9f492,0,0,1,0,1,1,1
3,3,0,3b0bdc9f493bdc9f493bdc9f493bdc9f493bdc9f490bdc9f490bdc9f490bdc9f490,bdc9f490,bdc9f490,bdc9f490,bdc9f490,bdc9f493,bdc9f493,bdc9f493,bdc9f493,0,1,1,0,1,1,1
4,4,0,3b0bdc9f494bdc9f494bdc9f494bdc9f494bdc9f491bdc9f491bdc9f491bdc9f491,bdc9f491,bdc9f491,bdc9f491,bdc9f491,bdc9f494,bdc9f494,bdc9f494,bdc9f494,0,1,1,0,1,1,1
5,5,0,2a0bdc9f495bdc9f495bdc9f495bdc9f495bdc9f492bdc9f492bdc9f492bdc9f492,bdc9f492,bdc9f492,bdc9f492,bdc9f492,bdc9f495,bdc9f495,bdc9f495,bdc9f495,0,0,1,0,1,0,1
6,6,0,2a0bdc9f496bdc9f496bdc9f496bdc9f496bdc9f493bdc9f493bdc9f493bdc9f493,bdc9f493,bdc9f493,bdc9f493,bdc9f493,bdc9f496,bdc9f496,bdc9f496,bdc9f496,0,0,1,0,1,0,1
7,7,0,3a0bdc9f497bdc9f497bdc9f497bdc9f497bdc9f494bdc9f494bdc9f494bdc9f494,bdc9f494,bdc9f494,bdc9f494,bdc9f494,bdc9f497,bdc9f497,bdc9f497,bdc9f497,0,0,1,0,1,1,1
8,8,0,3b0bdc9f498bdc9f498bdc9f498bdc9f498bdc9f495bdc9f495bdc9f495bdc9f495,bdc9f495,bdc9f495,bdc9f495,bdc9f495,bdc9f498,bdc9f498,bdc9f498,bdc9f498,0,1,1,0,1,1,1
9,9,0,3b0bdc9f499bdc9f499bdc9f499bdc9f499bdc9f496bdc9f496bdc9f496bdc9f496,bdc9f496,bdc9f496,bdc9f496,bdc9f496,bdc9f499,bdc9f499,bdc9f499,bdc9f499,0,1,1,0,1,1,1
10,10,0,2a0bdc9f49abdc9f49abdc9f49abdc9f49abdc9f497bdc9f497bdc9f497bdc9f497,bdc9f497,bdc9f497,bdc9f497,bdc9f497,bdc9f49a,bdc9f49a,bdc9f49a,bdc9f49a,0,0,1,0,1,0,1
11,11,0,2a0bdc9f49bbdc9f49bbdc9f49bbdc9f49bbdc9f498bdc9f498bdc9f498bdc9f498,bdc9f498,bdc9f498,bdc9f498,bdc9f498,bdc9f49b,bdc9f49b,bdc9f49b,bdc9f49b,0,0,1,0,1,0,1
12,12,0,3b0bdc9f49cbdc9f49cbdc9f49cbdc9f49cbdc9f499bdc9f499bdc9f499bdc9f499,bdc9f499,bdc9f499,bdc9f499,bdc9f499,bdc9f49c,bdc9f49c,bdc9f49c,bdc9f49c,0,1,1,0,1,1,1
13,13,0,3b0bdc9f49dbdc9f49dbdc9f49dbdc9f49dbdc9f49abdc9f49abdc9f49abdc9f49a,bdc9f49a,bdc9f49a,bdc9f49a,bdc9f49a,bdc9f49d,bdc9f49d,bdc9f49d,bdc9f49d,0,1,1,0,1,1,1
14,14,0,3b0bdc9f49ebdc9f49ebdc9f49ebdc9f49ebdc9f49bbdc9f49bbdc9f49bbdc9f49b,bdc9f49b,bdc9f49b,bdc9f49b,bdc9f49b,bdc9f49e,bdc9f49e,bdc9f49e,bdc9f49e,0,1,1,0,1,1,1
15,15,0,2a0bdc9f49fbdc9f49fbdc9f49fbdc9f49fbdc9f49cbdc9f49cbdc9f49cbdc9f49c,bdc9f49c,bdc9f49c,bdc9f49c,bdc9f49c,bdc9f49f,bdc9f49f,bdc9f49f,bdc9f49f,0,0,1,0,1,0,1
16,16,0,2a0bdc9f4a0bdc9f4a0bdc9f4a0bdc9f4a0bdc9f49dbdc9f49dbdc9f49dbdc9f49d,bdc9f49d,bdc9f49d,bdc9f49d,bdc9f49d,bdc9f4a0,bdc9f4a0,bdc9f4a0,bdc9f4a0,0,0,1,0,1,0,1
17,17,0,3a0bdc9f4a1bdc9f4a1bdc9f4a1bdc9f4a1bdc9f49ebdc9f49ebdc9f49ebdc9f49e,bdc9f49e,bdc9f49e,bdc9f49e,bdc9f49e,bdc9f4a1,bdc9f4a1,bdc9f4a1,bdc9f4a1,0,0,1,0,1,1,1
18,18,0,3b0bdc9f4a2bdc9f4a2bdc9f4a2bdc9f4a2bdc9f49fbdc9f49fbdc9f49fbdc9f49f,bdc9f49f,bdc9f49f,bdc9f49f,bdc9f49f,bdc9f4a2,bdc9f4a2,bdc9f4a2,bdc9f4a2,0,1,1,0,1,1,1
19,19,0,3b0bdc9f4a3bdc9f4a3bdc9f4a3bdc9f4a3bdc9f4a0bdc9f4a0bdc9f4a0bdc9f4a0,bdc9f4a0,bdc9f4a0,bdc9f4a0,bdc9f4a0,bdc9f4a3,bdc9f4a3,bdc9f4a3,bdc9f4a3,0,1,1,0,1,1,1
20,20,0,2a0bdc9f4a4bdc9f4a4bdc9f4a4bdc9f4a4bdc9f4a1bdc9f4a1bdc9f4a1bdc9f4a1,bdc9f4a1,bdc9f4a1,bdc9f4a1,bdc9f4a1,bdc9f4a4,bdc9f4a4,bdc9f4a4,bdc9f4a4,0,0,1,0,1,0,1
21,21,0,2a0bdc9f4a5bdc9f4a5bdc9f4a5bdc9f4a5bdc9f4a2bdc9f4a2bdc9f4a2bdc9f4a2,bdc9f4a2,bdc9f4a2,bdc9f4a2,bdc9f4a2,bdc9f4a5,bdc9f4a5,bdc9f4a5,bdc9f4a5,0,0,1,0,1,0,1
22,22,0,3b0bdc9f4a6bdc9f4a6bdc9f4a6bdc9f4a6bdc9f4a3bdc9f4a3bdc9f4a3bdc9f4a3,bdc9f4a3,bdc9f4a3,bdc9f4a3,bdc9f4a3,bdc9f4a6,bdc9f4a6,bdc9f4a6,bdc9f4a6,0,1,1,0,1,1,1
23,23,0,3b0bdc9f4a7bdc9f4a7bdc9f4a7bdc9f4a7bdc9f4a4bdc9f4a4bdc9f4a4bdc9f4a4,bdc9f4a4,bdc9f4a4,bdc9f4a4,bdc9f4a4,bdc9f4a7,bdc9f4a7,bdc9f4a7,bdc9f4a7,0,1,1,0,1,1,1
24,24,0,3b0bdc9f4a8bdc9f4a8bdc9f4a8bdc9f4a8bdc9f4a5bdc9f4a5bdc9f4a5bdc9f4a5,bdc9f4a5,bdc9f4a5,bdc9f4a5,bdc9f4a5,bdc9f4a8,bdc9f4a8,bdc9f4a8,bdc9f4a8,0,1,1,0,1,1,1
25,25,0,2a0bdc9f4a9bdc9f4a9bdc9f4a9bdc9f4a9bdc9f4a6bdc9f4a6bdc9f4a6bdc9f4a6,bdc9f4a6,bdc9f4a6,bdc9f4a6,bdc9f4a6,bdc9f4a9,bdc9f4a9,bdc9f4a9,bdc9f4a9,0,0,1,0,1,0,1
26,26,0,2a0bdc9f4aabdc9f4aabdc9f4aabdc9f4aabdc9f4a7bdc9f4a7bdc9f4a7bdc9f4a7,bdc9f4a7,bdc9f4a7,bdc9f4a7,bdc9f4a7,bdc9f4aa,bdc9f4aa,bdc9f4aa,bdc9f4aa,0,0,1,0,1,0,1
27,27,0,3a0bdc9f4abbdc9f4abbdc9f4abbdc9f4abbdc9f4a8bdc9f4a8bdc9f4a8bdc9f4a8,bdc9f4a8,bdc9f4a8,bdc9f4a8,bdc9f4a8,bdc9f4ab,bdc9f4ab,bdc9f4ab,bdc9f4ab,0,0,1,0,1,1,1
28,28,0,3b0bdc9f4acbdc9f4acbdc9f4acbdc9f4acbdc9f4a9bdc9f4a9bdc9f4a9bdc9f4a9,bdc9f4a9,bdc9f4a9,bdc9f4a9,bdc9f4a9,bdc9f4ac,bdc9f4ac,bdc9f4ac,bdc9f4ac,0,1,1,0,1,1,1
29,29,0,3b0bdc9f4adbdc9f4adbdc9f4adbdc9f4adbdc9f4aabdc9f4aabdc9f4aabdc9f4aa,bdc9f4aa,bdc9f4aa,bdc9f4aa,bdc9f4aa,bdc9f4ad,bdc9f4ad,bdc9f4ad,bdc9f4ad,0,1,1,0,1,1,1
30,30,0,2a0bdc9f4aebdc9f4aebdc9f4aebdc9f4aebdc9f4abbdc9f4abbdc9f4abbdc9f4ab,bdc9f4ab,bdc9f4ab,bdc9f4ab,bdc9f4ab,bdc9f4ae,bdc9f4ae,bdc9f4ae,bdc9f4ae,0,0,1,0,1,0,1
31,31,0,2a0bdc9f4afbdc9f4afbdc9f4afbdc9f4afbdc9f4acbdc9f4acbdc9f4acbdc9f4ac,bdc9f4ac,bdc9f4ac,bdc9f4ac,bdc9f4ac,bdc9f4af,bdc9f4af,bdc9f4af,bdc9f4af,0,0,1,0,1,0,1
32,32,0,2a0bdc9f4b0bdc9f4b0bdc9f4b0bdc9f4b0bdc9f4adbdc9f4adbdc9f4adbdc9f4ad,bdc9f4ad,bdc9f4ad,bdc9f4ad,bdc9f4ad,bdc9f4b0,bdc9f4b0,bdc9f4b0,bdc9f4b0,0,0,1,0,1,0,1
33,33,0,3b0bdc9f4b1bdc9f4b1bdc9f4b1bdc9f4b1bdc9f4aebdc9f4aebdc9f4aebdc9f4ae,bdc9f4ae,bdc9f4ae,bdc9f4ae,bdc9f4ae,bdc9f4b1,bdc9f4b1,bdc9f4b1,bdc9f4b1,0,1,1,0,1,1,1
34,34,0,3b0bdc9f4b2bdc9f4b2bdc9f4b2bdc9f4b2bdc9f4afbdc9f4afbdc9f4afbdc9f4af,bdc9f4af,bdc9f4af,bdc9f4af,bdc9f4af,bdc9f4b2,bdc9f4b2,bdc9f4b2,bdc9f4b2,0,1,1,0,1,1,1
35,35,0,2a0bdc9f4b3bdc9f4b3bdc9f4b3bdc9f4b3bdc9f4b0bdc9f4b0bdc9f4b0bdc9f4b0,bdc9f4b0,bdc9f4b0,bdc9f4b0,bdc9f4b0,bdc9f4b3,bdc9f4b3,bdc9f4b3,bdc9f4b3,0,0,1,0,1,0,1
36,36,0,2a0bdc9f4b4bdc9f4b4bdc9f4b4bdc9f4b4bdc9f4b1bdc9f4b1bdc9f4b1bdc9f4b1,bdc9f4b1,bdc9f4b1,bdc9f4b1,bdc9f4b1,bdc9f4b4,bdc9f4b4,bdc9f4b4,bdc9f4b4,0,0,1,0,1,0,1
37,37,0,2a0bdc9f4b5bdc9f4b5bdc9f4b5bdc9f4b5bdc9f4b2bdc9f4b2bdc9f4b2bdc9f4b2,bdc9f4b2,bdc9f4b2,bdc9f4b2,bdc9f4b2,bdc9f4b5,bdc9f4b5,bdc9f4b5,bdc9f4b5,0,0,1,0,1,0,1
38,38,0,3b0bdc9f4b6bdc9f4b6bdc9f4b6bdc9f4b6bdc9f4b3bdc9f4b3bdc9f4b3bdc9f4b3,bdc9f4b3,bdc9f4b3,bdc9f4b3,bdc9f4b3,bdc9f4b6,bdc9f4b6,bdc9f4b6,bdc9f4b6,0,1,1,0,1,1,1
39,39,0,3b0bdc9f4b7bdc9f4b7bdc9f4b7bdc9f4b7bdc9f4b4bdc9f4b4bdc9f4b4bdc9f4b4,bdc9f4b4,bdc9f4b4,bdc9f4b4,bdc9f4b4,bdc9f4b7,bdc9f4b7,bdc9f4b7,bdc9f4b7,0,1,1,0,1,1,1
40,40,0,2a0bdc9f4b8bdc9f4b8bdc9f4b8bdc9f4b8bdc9f4b5bdc9f4b5bdc9f4b5bdc9f4b5,bdc9f4b5,bdc9f4b5,bdc9f4b5,bdc9f4b5,bdc9f4b8,bdc9f4b8,bdc9f4b8,bdc9f4b8,0,0,1,0,1,0,1
41,41,0,2a0bdc9f4b9bdc9f4b9bdc9f4b9bdc9f4b9bdc9f4b6bdc9f4b6bdc9f4b6bdc9f4b6,bdc9f4b6,bdc9f4b6,bdc9f4b6,bdc9f4b6,bdc9f4b9,bdc9f4b9,bdc9f4b9,bdc9f4b9,0,0,1,0,1,0,1
42,42,0,3b0bdc9f4babdc9f4babdc9f4babdc9f4babdc9f4b7bdc9f4b7bdc9f4b7bdc9f4b7,bdc9f4b7,bdc9f4b7,bdc9f4b7,bdc9f4b7,bdc9f4ba,bdc9f4ba,bdc9f4ba,bdc9f4ba,0,1,1,0,1,1,1
43,43,0,3b0bdc9f4bbbdc9f4bbbdc9f4bbbdc9f4bbbdc9f4b8bdc9f4b8bdc9f4b8bdc9f4b8,bdc9f4b8,bdc9f4b8,bdc9f4b8,bdc9f4b8,bdc9f4bb,bdc9f4bb,bdc9f4bb,bdc9f4bb,0,1,1,0,1,1,1
44,44,0,3b0bdc9f4bcbdc9f4bcbdc9f4bcbdc9f4bcbdc9f4b9bdc9f4b9bdc9f4b9bdc9f4b9,bdc9f4b9,bdc9f4b9,bdc9f4b9,bdc9f4b9,bdc9f4bc,bdc9f4bc,bdc9f4bc,bdc9f4bc,0,1,1,0,1,1,1
45,45,0,2a0bdc9f4bdbdc9f4bdbdc9f4bdbdc9f4bdbdc9f4babdc9f4babdc9f4babdc9f4ba,bdc9f4ba,bdc9f4ba,bdc9f4ba,bdc9f4ba,bdc9f4bd,bdc9f4bd,bdc9f4bd,bdc9f4bd,0,0,1,0,1,0,1
46,46,0,2a0bdc9f4bebdc9f4bebdc9f4bebdc9f4bebdc9f4bbbdc9f4bbbdc9f4bbbdc9f4bb,bdc9f4bb,bdc9f4bb,bdc9f4bb,bdc9f4bb,bdc9f4be,bdc9f4be,bdc9f4be,bdc9f4be,0,0,1,0,1,0,1
47,47,0,3b0bdc9f4bfbdc9f4bfbdc9f4bfbdc9f4bfbdc9f4bcbdc9f4bcbdc9f4bcbdc9f4bc,bdc9f4bc,bdc9f4bc,bdc9f4bc,bdc9f4bc,bdc9f4bf,bdc9f4bf,bdc9f4bf,bdc9f4bf,0,1,1,0,1,1,1
48,48,0,3b0bdc9f4c0bdc9f4c0bdc9f4c0bdc9f4c0bdc9f4bdbdc9f4bdbdc9f4bdbdc9f4bd,bdc9f4bd,bdc9f4bd,bdc9f4bd,bdc9f4bd,bdc9f4c0,bdc9f4c0,bdc9f4c0,bdc9f4c0,0,1,1,0,1,1,1
49,49,0,3b0bdc9f4c1bdc9f4c1bdc9f4c1bdc9f4c1bdc9f4bebdc9f4bebdc9f4bebdc9f4be,bdc9f4be,bdc9f4be,bdc9f4be,bdc9f4be,bdc9f4c1,bdc9f4c1,bdc9f4c1,bdc9f4c1,0,1,1,0,1,1,1
50,50,0,2a0bdc9f4c2bdc9f4c2bdc9f4c2bdc9f4c2bdc9f4bfbdc9f4bfbdc9f4bfbdc9f4bf,bdc9f4bf,bdc9f4bf,bdc9f4bf,bdc9f4bf,bdc9f4c2,bdc9f4c2,bdc9f4c2,bdc9f4c2,0,0,1,0,1,0,1
51,51,0,2a0bdc9f4c3bdc9f4c3bdc9f4c3bdc9f4c3bdc9f4c0bdc9f4c0bdc9f4c0bdc9f4c0,bdc9f4c0,bdc9f4c0,bdc9f4c0,bdc9f4c0,bdc9f4c3,bdc9f4c3,bdc9f4c3,bdc9f4c3,0,0,1,0,1,0,1
52,52,0,3b0bdc9f4c4bdc9f4c4bdc9f4c4bdc9f4c4bdc9f4c1bdc9f4c1bdc9f4c1bdc9f4c1,bdc9f4c1,bdc9f4c1,bdc9f4c1,bdc9f4c1,bdc9f4c4,bdc9f4c4,bdc9f4c4,bdc9f4c4,0,1,1,0,1,1,1
53,53,0,3b0bdc9f4c5bdc9f4c5bdc9f4c5bdc9f4c5bdc9f4c2bdc9f4c2bdc9f4c2bdc9f4c2,bdc9f4c2,bdc9f4c2,bdc9f4c2,bdc9f4c2,bdc9f4c5,bdc9f4c5,bdc9f4c5,bdc9f4c5,0,1,1,0,1,1,1
54,54,0,3b0bdc9f4c6bdc9f4c6bdc9f4c6bdc9f4c6bdc9f4c3bdc9f4c3bdc9f4c3bdc9f4c3,bdc9f4c3,bdc9f4c3,bdc9f4c3,bdc9f4c3,bdc9f4c6,bdc9f4c6,bdc9f4c6,bdc9f4c6,0,1,1,0,1,1,1
55,55,0,2a0bdc9f4c7bdc9f4c7bdc9f4c7bdc9f4c7bdc9f4c4bdc9f4c4bdc9f4c4bdc9f4c4,bdc9f4c4,bdc9f4c4,bdc9f4c4,bdc9f4c4,bdc9f4c7,bdc9f4c7,bdc9f4c7,bdc9f4c7,0,0,1,0,1,0,1
56,56,0,2a0bdc9f4c8bdc9f4c8bdc9f4c8bdc9f4c8bdc9f4c5bdc9f4c5bdc9f4c5bdc9f4c5,bdc9f4c5,bdc9f4c5,bdc9f4c5,bdc9f4c5,bdc9f4c8,bdc9f4c8,bdc9f4c8,bdc9f4c8,0,0,1,0,1,0,1
57,57,0,3b0bdc9f4c9bdc9f4c9bdc9f4c9bdc9f4c9bdc9f4c6bdc9f4c6bdc9f4c6bdc9f4c6,bdc9f4c6,bdc9f4c6,bdc9f4c6,bdc9f4c6,bdc9f4c9,bdc9f4c9,bdc9f4c9,bdc9f4c9,0,1,1,0,1,1,1
58,58,0,3b0bdc9f4cabdc9f4cabdc9f4cabdc9f4cabdc9f4c7bdc9f4c7bdc9f4c7bdc9f4c7,bdc9f4c7,bdc9f4c7,bdc9f4c7,bdc9f4c7,bdc9f4ca,bdc9f4ca,bdc9f4ca,bdc9f4ca,0,1,1,0,1,1,1
59,59,0,3b0bdc9f4cbbdc9f4cbbdc9f4cbbdc9f4cbbdc9f4c8bdc9f4c8bdc9f4c8bdc9f4c8,bdc9f4c8,bdc9f4c8,bdc9f4c8,bdc9f4c8,bdc9f4cb,bdc9f4cb,bdc9f4cb,bdc9f4cb,0,1,1,0,1,1,1
60,60,0,2a0bdc9f4ccbdc9f4ccbdc9f4ccbdc9f4ccbdc9f4c9bdc9f4c9bdc9f4c9bdc9f4c9,bdc9f4c9,bdc9f4c9,bdc9f4c9,bdc9f4c9,bdc9f4cc,bdc9f4cc,bdc9f4cc,bdc9f4cc,0,0,1,0,1,0,1
61,61,0,2a0bdc9f4cdbdc9f4cdbdc9f4cdbdc9f4cdbdc9f4cabdc9f4cabdc9f4cabdc9f4ca,bdc9f4ca,bdc9f4ca,bdc9f4ca,bdc9f4ca,bdc9f4cd,bdc9f4cd,bdc9f4cd,bdc9f4cd,0,0,1,0,1,0,1
62,62,0,3b0bdc9f4cebdc9f4cebdc9f4cebdc9f4cebdc9f4cbbdc9f4cbbdc9f4cbbdc9f4cb,bdc9f4cb,bdc9f4cb,bdc9f4cb,bdc9f4cb,bdc9f4ce,bdc9f4ce,bdc9f4ce,bdc9f4ce,0,1,1,0,1,1,1
63,63,0,3b0bdc9f4cfbdc9f4cfbdc9f4cfbdc9f4cfbdc9f4ccbdc9f4ccbdc9f4ccbdc9f4cc,bdc9f4cc,bdc9f4cc,bdc9f4cc,bdc9f4cc,bdc9f4cf,bdc9f4cf,bdc9f4cf,bdc9f4cf,0,1,1,0,1,1,1
64,64,0,3b0bdc9f4d0bdc9f4d0bdc9f4d0bdc9f4d0bdc9f4cdbdc9f4cdbdc9f4cdbdc9f4cd,bdc9f4cd,bdc9f4cd,bdc9f4cd,bdc9f4cd,bdc9f4d0,bdc9f4d0,bdc9f4d0,bdc9f4d0,0,1,1,0,1,1,1
65,65,0,2a0bdc9f4d1bdc9f4d1bdc9f4d1bdc9f4d1bdc9f4cebdc9f4cebdc9f4cebdc9f4ce,bdc9f4ce,bdc9f4ce,bdc9f4ce,bdc9f4ce,bdc9f4d1,bdc9f4d1,bdc9f4d1,bdc9f4d1,0,0,1,0,1,0,1
66,66,0,2a0bdc9f4d2bdc9f4d2bdc9f4d2bdc9f4d2bdc9f4cfbdc9f4cfbdc9f4cfbdc9f4cf,bdc9f4cf,bdc9f4cf,bdc9f4cf,bdc9f4cf,bdc9f4d2,bdc9f4d2,bdc9f4d2,bdc9f4d2,0,0,1,0,1,0,1
67,67,0,3b0bdc9f4d3bdc9f4d3bdc9f4d3bdc9f4d3bdc9f4d0bdc9f4d0bdc9f4d0bdc9f4d0,bdc9f4d0,bdc9f4d0,bdc9f4d0,bdc9f4d0,bdc9f4d3,bdc9f4d3,bdc9f4d3,bdc9f4d3,0,1,1,0,1,1,1
68,68,0,3b0bdc9f4d4bdc9f4d4bdc9f4d4bdc9f4d4bdc9f4d1bdc9f4d1bdc9f4d1bdc9f4d1,bdc9f4d1,bdc9f4d1,bdc9f4d1,bdc9f4d1,bdc9f4d4,bdc9f4d4,bdc9f4d4,bdc9f4d4,0,1,1,0,1,1,1
69,69,0,3b0bdc9f4d5bdc9f4d5bdc9f4d5bdc9f4d5bdc9f4d2bdc9f4d2bdc9f4d2bdc9f4d2,bdc9f4d2,bdc9f4d2,bdc9f4d2,bdc9f4d2,bdc9f4d5,bdc9f4d5,bdc9f4d5,bdc9f4d5,0,1,1,0,1,1,1
70,70,0,2a0bdc9f4d6bdc9f4d6bdc9f4d6bdc9f4d6bdc9f4d3bdc9f4d3bdc9f4d3bdc9f4d3,bdc9f4d3,bdc9f4d3,bdc9f4d3,bdc9f4d3,bdc9f4d6,bdc9f4d6,bdc9f4d6,bdc9f4d6,0,0,1,0,1,0,1
71,71,0,2a0bdc9f4d7bdc9f4d7bdc9f4d7bdc9f4d7bdc9f4d4bdc9f4d4bdc9f4d4bdc9f4d4,bdc9f4d4,bdc9f4d4,bdc9f4d4,bdc9f4d4,bdc9f4d7,bdc9f4d7,bdc9f4d7,bdc9f4d7,0,0,1,0,1,0,1
72,72,0,3b0bdc9f4d8bdc9f4d8bdc9f4d8bdc9f4d8bdc9f4d5bdc9f4d5bdc9f4d5bdc9f4d5,bdc9f4d5,bdc9f4d5,bdc9f4d5,bdc9f4d5,bdc9f4d8,bdc9f4d8,bdc9f4d8,bdc9f4d8,0,1,1,0,1,1,1
73,73,0,3b0bdc9f4d9bdc9f4d9bdc9f4d9bdc9f4d9bdc9f4d6bdc9f4d6bdc9f4d6bdc9f4d6,bdc9f4d6,bdc9f4d6,bdc9f4d6,bdc9f4d6,bdc9f4d9,bdc9f4d9,bdc9f4d9,bdc9f4d9,0,1,1,0,1,1,1
74,74,0,3b0bdc9f4dabdc9f4dabdc9f4dabdc9f4dabdc9f4d7bdc9f4d7bdc9f4d7bdc9f4d7,bdc9f4d7,bdc9f4d7,bdc9f4d7,bdc9f4d7,bdc9f4da,bdc9f4da,bdc9f4da,bdc9f4da,0,1,1,0,1,1,1
75,75,0,2a0bdc9f4dbbdc9f4dbbdc9f4dbbdc9f4dbbdc9f4d8bdc9f4d8bdc9f4d8bdc9f4d8,bdc9f4d8,bdc9f4d8,bdc9f4d8,bdc9f4d8,bdc9f4db,bdc9f4db,bdc9f4db,bdc9f4db,0,0,1,0,1,0,1
76,76,0,2a0bdc9f4dcbdc9f4dcbdc9f4dcbdc9f4dcbdc9f4d9bdc9f4d9bdc9f4d9bdc9f4d9,bdc9f4d9,bdc9f4d9,bdc9f4d9,bdc9f4d9,bdc9f4dc,bdc9f4dc,bdc9f4dc,bdc9f4dc,0,0,1,0,1,0,1
77,77,0,3b0bdc9f4ddbdc9f4ddbdc9f4ddbdc9f4ddbdc9f4dabdc9f4dabdc9f4dabdc9f4da,bdc9f4da,bdc9f4da,bdc9f4da,bdc9f4da,bdc9f4dd,bdc9f4dd,bdc9f4dd,bdc9f4dd,0,1,1,0,1,1,1
78,78,0,3b0bdc9f4debdc9f4debdc9f4debdc9f4debdc9f4dbbdc9f4dbbdc9f4dbbdc9f4db,bdc9f4db,bdc9f4db,bdc9f4db,bdc9f4db,bdc9f4de,bdc9f4de,bdc9f4de,bdc9f4de,0,1,1,0,1,1,1
79,79,0,3b0bdc9f4dfbdc9f4dfbdc9f4dfbdc9f4dfbdc9f4dcbdc9f4dcbdc9f4dcbdc9f4dc,bdc9f4dc,bdc9f4dc,bdc9f4dc,bdc9f4dc,bdc9f4df,bdc9f4df,bdc9f4df,bdc9f4df,0,1,1,0,1,1,1
80,80,0,2a0bdc9f4e0bdc9f4e0bdc9f4e0bdc9f4e0bdc9f4ddbdc9f4ddbdc9f4ddbdc9f4dd,bdc9f4dd,bdc9f4dd,bdc9f4dd,bdc9f4dd,bdc9f4e0,bdc9f4e0,bdc9f4e0,bdc9f4e0,0,0,1,0,1,0,1
81,81,0,2a0bdc9f4e1bdc9f4e1bdc9f4e1bdc9f4e1bdc9f4debdc9f4debdc9f4debdc9f4de,bdc9f4de,bdc9f4de,bdc9f4de,bdc9f4de,bdc9f4e1,bdc9f4e1,bdc9f4e1,bdc9f4e1,0,0,1,0,1,0,1
82,82,0,3b0bdc9f4e2bdc9f4e2bdc9f4e2bdc9f4e2bdc9f4dfbdc9f4dfbdc9f4dfbdc9f4df,bdc9f4df,bdc9f4df,bdc9f4df,bdc9f4df,bdc9f4e2,bdc9f4e2,bdc9f4e2,bdc9f4e2,0,1,1,0,1,1,1
83,83,0,3b0bdc9f4e3bdc9f4e3bdc9f4e3bdc9f4e3bdc9f4e0bdc9f4e0bdc9f4e0bdc9f4e0,bdc9f4e0,bdc9f4e0,bdc9f4e0,bdc9f4e0,bdc9f4e3,bdc9f4e3,bdc9f4e3,bdc9f4e3,0,1,1,0,1,1,1
84,84,0,3b0bdc9f4e4bdc9f4e4bdc9f4e4bdc9f4e4bdc9f4e1bdc9f4e1bdc9f4e1bdc9f4e1,bdc9f4e1,bdc9f4e1,bdc9f4e1,bdc9f4e1,bdc9f4e4,bdc9f4e4,bdc9f4e4,bdc9f4e4,0,1,1,0,1,1,1
85,85,0,2a0bdc9f4e5bdc9f4e5bdc9f4e5bdc9f4e5bdc9f4e2bdc9f4e2bdc9f4e2bdc9f4e2,bdc9f4e2,bdc9f4e2,bdc9f4e2,bdc9f4e2,bdc9f4e5,bdc9f4e5,bdc9f4e5,bdc9f4e5,0,0,1,0,1,0,1
86,86,0,2a0bdc9f4e6bdc9f4e6bdc9f4e6bdc9f4e6bdc9f4e3bdc9f4e3bdc9f4e3bdc9f4e3,bdc9f4e3,bdc9f4e3,bdc9f4e3,bdc9f4e3,bdc9f4e6,bdc9f4e6,bdc9f4e6,bdc9f4e6,0,0,1,0,1,0,1
87,87,0,3a0bdc9f4e7bdc9f4e7bdc9f4e7bdc9f4e7bdc9f4e4bdc9f4e4bdc9f4e4bdc9f4e4,bdc9f4e4,bdc9f4e4,bdc9f4e4,bdc9f4e4,bdc9f4e7,bdc9f4e7,bdc9f4e7,bdc9f4e7,0,0,1,0,1,1,1
88,88,0,3b0bdc9f4e8bdc9f4e8bdc9f4e8bdc9f4e8bdc9f4e5bdc9f4e5bdc9f4e5bdc9f4e5,bdc9f4e5,bdc9f4e5,bdc9f4e5,bdc9f4e5,bdc9f4e8,bdc9f4e8,bdc9f4e8,bdc9f4e8,0,1,1,0,1,1,1
89,89,0,3b0bdc9f4e9bdc9f4e9bdc9f4e9bdc9f4e9bdc9f4e6bdc9f4e6bdc9f4e6bdc9f4e6,bdc9f4e6,bdc9f4e6,bdc9f4e6,bdc9f4e6,bdc9f4e9,bdc9f4e9,bdc9f4e9,bdc9f4e9,0,1,1,0,1,1,1
90,90,0,2a0bdc9f4eabdc9f4eabdc9f4eabdc9f4eabdc9f4e7bdc9f4e7bdc9f4e7bdc9f4e7,bdc9f4e7,bdc9f4e7,bdc9f4e7,bdc9f4e7,bdc9f4ea,bdc9f4ea,bdc9f4ea,bdc9f4ea,0,0,1,0,1,0,1
91,91,0,2a0bdc9f4ebbdc9f4ebbdc9f4ebbdc9f4ebbdc9f4e8bdc9f4e8bdc9f4e8bdc9f4e8,bdc9f4e8,bdc9f4e8,bdc9f4e8,bdc9f4e8,bdc9f4eb,bdc9f4eb,bdc9f4eb,bdc9f4eb,0,0,1,0,1,0,1
92,92,0,3b0bdc9f4ecbdc9f4ecbdc9f4ecbdc9f4ecbdc9f4e9bdc9f4e9bdc9f4e9bdc9f4e9,bdc9f4e9,bdc9f4e9,bdc9f4e9,bdc9f4e9,bdc9f4ec,bdc9f4ec,bdc9f4ec,bdc9f4ec,0,1,1,0,1,1,1
93,93,0,3b0bdc9f4edbdc9f4edbdc9f4edbdc9f4edbdc9f4eabdc9f4eabdc9f4eabdc9f4ea,bdc9f4ea,bdc9f4ea,bdc9f4ea,bdc9f4ea,bdc9f4ed,bdc9f4ed,bdc9f4ed,bdc9f4ed,0,1,1,0,1,1,1
94,94,0,3b0bdc9f4eebdc9f4eebdc9f4eebdc9f4eebdc9f4ebbdc9f4ebbdc9f4ebbdc9f4eb,bdc9f4eb,bdc9f4eb,bdc9f4eb,bdc9f4eb,bdc9f4ee,bdc9f4ee,bdc9f4ee,bdc9f4ee,0,1,1,0,1,1,1
95,95,0,2a0bdc9f4efbdc9f4efbdc9f4efbdc9f4efbdc9f4ecbdc9f4ecbdc9f4ecbdc9f4ec,bdc9f4ec,bdc9f4ec,bdc9f4ec,bdc9f4ec,bdc9f4ef,bdc9f4ef,bdc9f4ef,bdc9f4ef,0,0,1,0,1,0,1
96,96,0,2a0bdc9f4f0bdc9f4f0bdc9f4f0bdc9f4f0bdc9f4edbdc9f4edbdc9f4edbdc9f4ed,bdc9f4ed,bdc9f4ed,bdc9f4ed,bdc9f4ed,bdc9f4f0,bdc9f4f0,bdc9f4f0,bdc9f4f0,0,0,1,0,1,0,1
97,97,0,3b0bdc9f4f1bdc9f4f1bdc9f4f1bdc9f4f1bdc9f4eebdc9f4eebdc9f4eebdc9f4ee,bdc9f4ee,bdc9f4ee,bdc9f4ee,bdc9f4ee,bdc9f4f1,bdc9f4f1,bdc9f4f1,bdc9f4f1,0,1,1,0,1,1,1
98,98,0,3b0bdc9f4f2bdc9f4f2bdc9f4f2bdc9f4f2bdc9f4efbdc9f4efbdc9f4efbdc9f4ef,bdc9f4ef,bdc9f4ef,bdc9f4ef,bdc9f4ef,bdc9f4f2,bdc9f4f2,bdc9f4f2,bdc9f4f2,0,1,1,0,1,1,1
99,99,0,3b0bdc9f4f3bdc9f4f3bdc9f4f3bdc9f4f3bdc9f4f0bdc9f4f0bdc9f4f0bdc9f4f0,bdc9f4f0,bdc9f4f0,bdc9f4f0,bdc9f4f0,bdc9f4f3,bdc9f4f3,bdc9f4f3,bdc9f4f3,0,1,1,0,1,1,1
100,100,0,2a0bdc9f4f4bdc9f4f4bdc9f4f4bdc9f4f4bdc9f4f1bdc9f4f1bdc9f4f1bdc9f4f1,bdc9f4f1,bdc9f4f1,bdc9f4f1,bdc9f4f1,bdc9f4f4,bdc9f4f4,bdc9f4f4,bdc9f4f4,0,0,1,0,1,0,1
101,101,0,2a0bdc9f4f5bdc9f4f5bdc9f4f5bdc9f4f5bdc9f4f2bdc9f4f2bdc9f4f2bdc9f4f2,bdc9f4f2,bdc9f4f2,bdc9f4f2,bdc9f4f2,bdc9f4f5,bdc9f4f5,bdc9f4f5,bdc9f4f5,0,0,1,0,1,0,1
102,102,0,3b0bdc9f4f6bdc9f4f6bdc9f4f6bdc9f4f6bdc9f4f3bdc9f4f3bdc9f4f3bdc9f4f3,bdc9f4f3,bdc9f4f3,bdc9f4f3,bdc9f4f3,bdc9f4f6,bdc9f4f6,bdc9f4f6,bdc9f4f6,0,1,1,0,1,1,1
103,103,0,3b0bdc9f4f7bdc9f4f7bdc9f4f7bdc9f4f7bdc9f4f4bdc9f4f4bdc9f4f4bdc9f4f4,bdc9f4f4,bdc9f4f4,bdc9f4f4,bdc9f4f4,bdc9f4f7,bdc9f4f7,bdc9f4f7,bdc9f4f7,0,1,1,0,1,1,1
104,104,0,3b0bdc9f4f8bdc9f4f8bdc9f4f8bdc9f4f8bdc9f4f5bdc9f4f5bdc9f4f5bdc9f4f5,bdc9f4f5,bdc9f4f5,bdc9f4f5,bdc9f4f5,bdc9f4f8,bdc9f4f8,bdc9f4f8,bdc9f4f8,0,1,1,0,1,1,1
105,105,0,2a0bdc9f4f9bdc9f4f9bdc9f4f9bdc9f4f9bdc9f4f6bdc9f4f6bdc9f4f6bdc9f4f6,bdc9f4f6,bdc9f4f6,bdc9f4f6,bdc9f4f6,bdc9f4f9,bdc9f4f9,bdc9f4f9,bdc9f4f9,0,0,1,0,1,0,1
106,106,0,2a0bdc9f4fabdc9f4fabdc9f4fabdc9f4fabdc9f4f7bdc9f4f7bdc9f4f7bdc9f4f7,bdc9f4f7,bdc9f4f7,bdc9f4f7,bdc9f4f7,bdc9f4fa,bdc9f4fa,bdc9f4fa,bdc9f4fa,0,0,1,0,1,0,1
107,107,0,3b0bdc9f4fbbdc9f4fbbdc9f4fbbdc9f4fbbdc9f4f8bdc9f4f8bdc9f4f8bdc9f4f8,bdc9f4f8,bdc9f4f8,bdc9f4f8,bdc9f4f8,bdc9f4fb,bdc9f4fb,bdc9f4fb,bdc9f4fb,0,1,1,0,1,1,1
108,108,0,3b0bdc9f4fcbdc9f4fcbdc9f4fcbdc9f4fcbdc9f4f9bdc9f4f9bdc9f4f9bdc9f4f9,bdc9f4f9,bdc9f4f9,bdc9f4f9,bdc9f4f9,bdc9f4fc,bdc9f4fc,bdc9f4fc,bdc9f4fc,0,1,1,0,1,1,1
109,109,0,3b0bdc9f4fdbdc9f4fdbdc9f4fdbdc9f4fdbdc9f4fabdc9f4fabdc9f4fabdc9f4fa,bdc9f4fa,bdc9f4fa,bdc9f4fa,bdc9f4fa,bdc9f4fd,bdc9f4fd,bdc9f4fd,bdc9f4fd,0,1,1,0,1,1,1
110,110,0,2a0bdc9f4febdc9f4febdc9f4febdc9f4febdc9f4fbbdc9f4fbbdc9f4fbbdc9f4fb,bdc9f4fb,bdc9f4fb,bdc9f4fb,bdc9f4fb,bdc9f4fe,bdc9f4fe,bdc9f4fe,bdc9f4fe,0,0,1,0,1,0,1
111,111,0,2a0bdc9f4ffbdc9f4ffbdc9f4ffbdc9f4ffbdc9f4fcbdc9f4fcbdc9f4fcbdc9f4fc,bdc9f4fc,bdc9f4fc,bdc9f4fc,bdc9f4fc,bdc9f4ff,bdc9f4ff,bdc9f4ff,bdc9f4ff,0,0,1,0,1,0,1
112,112,0,3b0bdc9f500bdc9f500bdc9f500bdc9f500bdc9f4fdbdc9f4fdbdc9f4fdbdc9f4fd,bdc9f4fd,bdc9f4fd,bdc9f4fd,bdc9f4fd,bdc9f500,bdc9f500,bdc9f500,bdc9f500,0,1,1,0,1,1,1
113,113,0,3b0bdc9f501bdc9f501bdc9f501bdc9f501bdc9f4febdc9f4febdc9f4febdc9f4fe,bdc9f4fe,bdc9f4fe,bdc9f4fe,bdc9f4fe,bdc9f501,bdc9f501,bdc9f501,bdc9f501,0,1,1,0,1,1,1
114,114,0,3b0bdc9f502bdc9f502bdc9f502bdc9f502bdc9f4ffbdc9f4ffbdc9f4ffbdc9f4ff,bdc9f4ff,bdc9f4ff,bdc9f4ff,bdc9f4ff,bdc9f502,bdc9f502,bdc9f502,bdc9f502,0,1,1,0,1,1,1
115,115,0,2a0bdc9f503bdc9f503bdc9f503bdc9f503bdc9f500bdc9f500bdc9f500bdc9f500,bdc9f500,bdc9f500,bdc9f500,bdc9f500,bdc9f503,bdc9f503,bdc9f503,bdc9f503,0,0,1,0,1,0,1
116,116,0,2a0bdc9f504bdc9f504bdc9f504bdc9f504bdc9f501bdc9f501bdc9f501bdc9f501,bdc9f501,bdc9f501,bdc9f501,bdc9f501,bdc9f504,bdc9f504,bdc9f504,bdc9f504,0,0,1,0,1,0,1
117,117,0,3b0bdc9f505bdc9f505bdc9f505bdc9f505bdc9f502bdc9f502bdc9f502bdc9f502,bdc9f502,bdc9f502,bdc9f502,bdc9f502,bdc9f505,bdc9f505,bdc9f505,bdc9f505,0,1,1,0,1,1,1
118,118,0,3b0bdc9f506bdc9f506bdc9f506bdc9f506bdc9f503bdc9f503bdc9f503bdc9f503,bdc9f503,bdc9f503,bdc9f503,bdc9f503,bdc9f506,bdc9f506,bdc9f506,bdc9f506,0,1,1,0,1,1,1
119,119,0,3b0bdc9f507bdc9f507bdc9f507bdc9f507bdc9f504bdc9f504bdc9f504bdc9f504,bdc9f504,bdc9f504,bdc9f504,bdc9f504,bdc9f507,bdc9f507,bdc9f507,bdc9f507,0,1,1,0,1,1,1
