Sample in Buffer,Sample in Window,TRIGGER,ila_data[969:0],receiver_0[31:0],receiver_1[31:0],receiver_2[31:0],receiver_3[31:0],transmitter_0[31:0],transmitter_1[31:0],transmitter_2[31:0],transmitter_3[31:0],prbs_match_int[3:0],hb0_gtwiz_userclk_rx_usrclk2_int,hb0_gtwiz_userclk_rx_active_int,hb_gtwiz_reset_all_int,hb0_gtwiz_reset_rx_done_int,hb0_gtwiz_userclk_tx_usrclk2_int,hb0_gtwiz_userclk_tx_active_int,gtwiz_userclk_tx_reset_int,gtwiz_userclk_tx_usrclk_int,gtwiz_userclk_tx_usrclk2_int,gtwiz_userclk_tx_active_int,gtwiz_userclk_rx_reset_int,gtwiz_userclk_rx_usrclk_int,gtwiz_userclk_rx_usrclk2_int,gtwiz_userclk_rx_active_int,drpaddr_int[35:0],drpclk_int[3:0],drpdi_int[3:0],drpen_int[3:0],drpwe_int[3:0],eyescanreset_int[3:0],rx8b10ben_int[3:0],rxcommadeten_int[3:0],rxlpmen_int[3:0],rxmcommaalignen_int[3:0],rxpcommaalignen_int[3:0],rxrate_int[11:0],tx8b10ben_int[3:0],txdiffctrl_int[15:0],txpostcursor_int[19:0],txprecursor_int[19:0],drpdo_int[63:0],drprdy_int[3:0],gtpowergood_int[3:0],rxbyteisaligned_int[3:0],rxbyterealign_int[3:0],rxcommadet_int[3:0],rxpmaresetdone_int[3:0],txpmaresetdone_int[3:0],ch0_rxctrl0_int[15:0],ch1_rxctrl0_int[15:0],ch2_rxctrl0_int[15:0],ch3_rxctrl0_int[15:0],ch0_rxctrl1_int[15:0],ch1_rxctrl1_int[15:0],ch2_rxctrl1_int[15:0],ch3_rxctrl1_int[15:0],ch0_rxctrl2_int[7:0],ch1_rxctrl2_int[7:0],ch2_rxctrl2_int[7:0],ch3_rxctrl2_int[7:0],ch0_rxctrl3_int[7:0],ch1_rxctrl3_int[7:0],ch2_rxctrl3_int[7:0],ch3_rxctrl3_int[7:0],ch0_txctrl0_int[15:0],ch1_txctrl0_int[15:0],ch2_txctrl0_int[15:0],ch3_txctrl0_int[15:0],ch0_txctrl1_int[15:0],ch1_txctrl1_int[15:0],ch2_txctrl1_int[15:0],ch3_txctrl1_int[15:0],ch0_txctrl2_int[7:0],ch1_txctrl2_int[7:0],ch2_txctrl2_int[7:0],ch3_txctrl2_int[7:0],hb0_rxdata_nml_ctr[39:0],ch0_rxdata_err_ctr[15:0],ch1_rxdata_err_ctr[15:0],ch2_rxdata_err_ctr[15:0],ch3_rxdata_err_ctr[15:0]
Radix - UNSIGNED,UNSIGNED,UNSIGNED,HEX,HEX,HEX,HEX,HEX,HEX,HEX,HEX,HEX,HEX,HEX,HEX,HEX,HEX,HEX,HEX,HEX,HEX,HEX,HEX,HEX,HEX,HEX,HEX,HEX,HEX,HEX,HEX,HEX,HEX,HEX,HEX,HEX,HEX,HEX,HEX,HEX,HEX,HEX,HEX,HEX,HEX,HEX,HEX,HEX,HEX,HEX,HEX,HEX,HEX,HEX,HEX,HEX,HEX,HEX,HEX,HEX,HEX,HEX,HEX,HEX,HEX,HEX,HEX,HEX,HEX,HEX,HEX,HEX,HEX,HEX,HEX,HEX,HEX,HEX,HEX,HEX,HEX,HEX,HEX,HEX
0,0,0,045b4455444e04479a5545f4b1c0000000000000000000000000000000000000003c3c3c3c00000000000000000000000000000000000000003fc03fc0000000000000000000000000033333c003ffffc00020160b0582ea2b0f54c503cf54c503cf54c503cf54c503cad503c92ad503c92ad503c92ad503c92,ad503c92,ad503c92,ad503c92,ad503c92,f54c503c,f54c503c,f54c503c,f54c503c,0,1,1,0,1,0,1,0,0,0,1,0,1,0,1,0582c160b,8,0,0,0,0,f,f,f,f,f,000,f,cccc,00000,00000,0000000000000000,0,f,f,0,0,f,f,0000,0000,0000,0000,0000,0000,0000,0000,00,00,00,00,f0,f0,f0,f0,0000,0000,0000,0000,0000,0000,0000,0000,00,00,00,00,695517d2c7,111e,1138,1155,116d
1,1,0,045d4457445004499a5545f4b3c0000000000000000000000000000000000000003c3c3c3c00000000000000000000000000000000000000003fc03fc0000000000000000000000000033333c003ffffc00030160b0582e22a0faa6503cfaa6503cfaa6503cfaa6503cd6503cc9d6503cc9d6503cc9d6503cc9,d6503cc9,d6503cc9,d6503cc9,d6503cc9,faa6503c,faa6503c,faa6503c,faa6503c,0,0,1,0,1,0,1,0,0,0,1,0,0,0,1,0582c160b,c,0,0,0,0,f,f,f,f,f,000,f,cccc,00000,00000,0000000000000000,0,f,f,0,0,f,f,0000,0000,0000,0000,0000,0000,0000,0000,00,00,00,00,f0,f0,f0,f0,0000,0000,0000,0000,0000,0000,0000,0000,00,00,00,00,695517d2cf,1126,1140,115d,1175
2,2,0,045f44594452044b9a5545f4b5c0000000000000000000000000000000000000003c3c3c3c00000000000000000000000000000000000000003fc03fc0000000000000000000000000033333c003ffffc00020160b0582e3ba0fd53503cfd53503cfd53503cfd53503c6b503c646b503c646b503c646b503c64,6b503c64,6b503c64,6b503c64,6b503c64,fd53503c,fd53503c,fd53503c,fd53503c,0,0,1,0,1,1,1,0,1,1,1,0,0,0,1,0582c160b,8,0,0,0,0,f,f,f,f,f,000,f,cccc,00000,00000,0000000000000000,0,f,f,0,0,f,f,0000,0000,0000,0000,0000,0000,0000,0000,00,00,00,00,f0,f0,f0,f0,0000,0000,0000,0000,0000,0000,0000,0000,00,00,00,00,695517d2d7,112e,1148,1165,117d
3,3,0,0461445b4454044d9a5545f4b7c0000000000000000000000000000000000000003c3c3c3c00000000000000000000000000000000000000003fc03fc0000000000000000000000000033333c003ffffc00020160b0582fbbb0fea9503cfea9503cfea9503cfea9503cb5503cb2b5503cb2b5503cb2b5503cb2,b5503cb2,b5503cb2,b5503cb2,b5503cb2,fea9503c,fea9503c,fea9503c,fea9503c,0,1,1,0,1,1,1,0,1,1,1,0,1,1,1,0582c160b,8,0,0,0,0,f,f,f,f,f,000,f,cccc,00000,00000,0000000000000000,0,f,f,0,0,f,f,0000,0000,0000,0000,0000,0000,0000,0000,00,00,00,00,f0,f0,f0,f0,0000,0000,0000,0000,0000,0000,0000,0000,00,00,00,00,695517d2df,1136,1150,116d,1185
4,4,0,0463445d4456044f9a5545f4b9c0000000000000000000000000000000000000003c3c3c3c00000000000000000000000000000000000000003fc03fc0000000000000000000000000033333c003ffffc00020160b0582fabb0cee9503ccee9503ccee9503c7ee9503c23503c8523503c8523503c8523503c85,23503c85,23503c85,23503c85,23503c85,7ee9503c,cee9503c,cee9503c,cee9503c,0,1,1,0,1,1,1,0,1,0,1,0,1,1,1,0582c160b,8,0,0,0,0,f,f,f,f,f,000,f,cccc,00000,00000,0000000000000000,0,f,f,0,0,f,f,0000,0000,0000,0000,0000,0000,0000,0000,00,00,00,00,f0,f0,f0,f0,0000,0000,0000,0000,0000,0000,0000,0000,00,00,00,00,695517d2e7,113e,1158,1175,118d
5,5,0,0465045f0457c4515a5545f4bb80000000000000000000000000000000000000003c3c3c3c00000000000000000000000000000000000000003fc03fc0000000000000000000000000033333c003ffffc00020160b0582ea2b06774503c6774503c6774503c6774503c91503cc291503cc291503cc291503cc2,91503cc2,91503cc2,91503cc2,91503cc2,6774503c,6774503c,6774503c,6774503c,0,1,1,0,1,0,1,0,0,0,1,0,1,0,1,0582c160b,8,0,0,0,0,f,f,f,f,f,000,f,cccc,00000,00000,0000000000000000,0,f,f,0,0,f,f,0000,0000,0000,0000,0000,0000,0000,0000,00,00,00,00,f0,f0,f0,f0,0000,0000,0000,0000,0000,0000,0000,0000,00,00,00,00,695517d2ee,1145,115f,117c,1194
6,6,0,046704610459c4535a5545f4bd80000000000000000000000000000000000000003c3c3c3c00000000000000000000000000000000000000003fc03fc0000000000000000000000000033333c003ffffc00020160b0582e22a033ba503c33ba503c33ba503c33ba503c48503ce148503ce148503ce148503ce1,48503ce1,48503ce1,48503ce1,48503ce1,33ba503c,33ba503c,33ba503c,33ba503c,0,0,1,0,1,0,1,0,0,0,1,0,0,0,1,0582c160b,8,0,0,0,0,f,f,f,f,f,000,f,cccc,00000,00000,0000000000000000,0,f,f,0,0,f,f,0000,0000,0000,0000,0000,0000,0000,0000,00,00,00,00,f0,f0,f0,f0,0000,0000,0000,0000,0000,0000,0000,0000,00,00,00,00,695517d2f6,114d,1167,1184,119c
7,7,0,04690463045bc4555a5545f4bf80000000000000000000000000000000000000003c3c3c3c00000000000000000000000000000000000000003fc03fc0000000000000000000000000033333c003ffffc00020160b0582e3ba099dd503c99dd503c99dd503c99dd503c24503c7024503c7024503c7024503c70,24503c70,24503c70,24503c70,24503c70,99dd503c,99dd503c,99dd503c,99dd503c,0,0,1,0,1,1,1,0,1,1,1,0,0,0,1,0582c160b,8,0,0,0,0,f,f,f,f,f,000,f,cccc,00000,00000,0000000000000000,0,f,f,0,0,f,f,0000,0000,0000,0000,0000,0000,0000,0000,00,00,00,00,f0,f0,f0,f0,0000,0000,0000,0000,0000,0000,0000,0000,00,00,00,00,695517d2fe,1155,116f,118c,11a4
8,8,0,046b0465045dc4575a5545f4c180000000000000000000000000000000000000003c3c3c3c00000000000000000000000000000000000000003fc03fc0000000000000000000000000033333c003ffffc00020160b0582fbbb04cee503c4cee503c4cee503c4cee503c92503c3892503c3892503c3892503c38,92503c38,92503c38,92503c38,92503c38,4cee503c,4cee503c,4cee503c,4cee503c,0,1,1,0,1,1,1,0,1,1,1,0,1,1,1,0582c160b,8,0,0,0,0,f,f,f,f,f,000,f,cccc,00000,00000,0000000000000000,0,f,f,0,0,f,f,0000,0000,0000,0000,0000,0000,0000,0000,00,00,00,00,f0,f0,f0,f0,0000,0000,0000,0000,0000,0000,0000,0000,00,00,00,00,695517d306,115d,1177,1194,11ac
9,9,0,046d0467045fc4595a5545f4c380000000000000000000000000000000000000003c3c3c3c00000000000000000000000000000000000000003fc03fc0000000000000000000000000033333c003ffffc00020160b0582fabb04f1b503c4b1b503c6b1b503ce75b503c2f503c952f503c952f503c952f503c95,2f503c95,2f503c95,2f503c95,2f503c95,e75b503c,6b1b503c,4b1b503c,4f1b503c,0,1,1,0,1,1,1,0,1,0,1,0,1,1,1,0582c160b,8,0,0,0,0,f,f,f,f,f,000,f,cccc,00000,00000,0000000000000000,0,f,f,0,0,f,f,0000,0000,0000,0000,0000,0000,0000,0000,00,00,00,00,f0,f0,f0,f0,0000,0000,0000,0000,0000,0000,0000,0000,00,00,00,00,695517d30e,1165,117f,119c,11b4
10,10,0,046ec468c461845b1a5545f4c540000000000000000000000000000000000000003c3c3c3c00000000000000000000000000000000000000003fc03fc0000000000000000000000000033333c003ffffc00020160b0582ea2b0a58d503ca58d503ca58d503ca58d503c17503cca17503cca17503cca17503cca,17503cca,17503cca,17503cca,17503cca,a58d503c,a58d503c,a58d503c,a58d503c,0,1,1,0,1,0,1,0,0,0,1,0,1,0,1,0582c160b,8,0,0,0,0,f,f,f,f,f,000,f,cccc,00000,00000,0000000000000000,0,f,f,0,0,f,f,0000,0000,0000,0000,0000,0000,0000,0000,00,00,00,00,f0,f0,f0,f0,0000,0000,0000,0000,0000,0000,0000,0000,00,00,00,00,695517d315,116c,1186,11a3,11bb
11,11,0,0470c46ac463845d1a5545f4c740000000000000000000000000000000000000003c3c3c3c00000000000000000000000000000000000000003fc03fc0000000000000000000000000033333c003ffffc00020160b0582e22a0d2c6503cd2c6503cd2c6503cd2c6503c0b503ce50b503ce50b503ce50b503ce5,0b503ce5,0b503ce5,0b503ce5,0b503ce5,d2c6503c,d2c6503c,d2c6503c,d2c6503c,0,0,1,0,1,0,1,0,0,0,1,0,0,0,1,0582c160b,8,0,0,0,0,f,f,f,f,f,000,f,cccc,00000,00000,0000000000000000,0,f,f,0,0,f,f,0000,0000,0000,0000,0000,0000,0000,0000,00,00,00,00,f0,f0,f0,f0,0000,0000,0000,0000,0000,0000,0000,0000,00,00,00,00,695517d31d,1174,118e,11ab,11c3
12,12,0,0472c46cc465845f1a5545f4c940000000000000000000000000000000000000003c3c3c3c00000000000000000000000000000000000000003fc03fc0000000000000000000000000033333c003ffffc00020160b0582e3ba0e963503ce963503ce963503ce963503c85503cf285503cf285503cf285503cf2,85503cf2,85503cf2,85503cf2,85503cf2,e963503c,e963503c,e963503c,e963503c,0,0,1,0,1,1,1,0,1,1,1,0,0,0,1,0582c160b,8,0,0,0,0,f,f,f,f,f,000,f,cccc,00000,00000,0000000000000000,0,f,f,0,0,f,f,0000,0000,0000,0000,0000,0000,0000,0000,00,00,00,00,f0,f0,f0,f0,0000,0000,0000,0000,0000,0000,0000,0000,00,00,00,00,695517d325,117c,1196,11b3,11cb
13,13,0,0474c46ec46784611a5545f4cb40000000000000000000000000000000000000003c3c3c3c00000000000000000000000000000000000000003fc03fc0000000000000000000000000033333c003ffffc00020160b0582fbbbf74b1503c74b1503c74b1503c74b1503cc2503cf9c2503cf9c2503cf9c2503cf9,c2503cf9,c2503cf9,c2503cf9,c2503cf9,74b1503c,74b1503c,74b1503c,74b1503c,f,1,1,0,1,1,1,0,1,1,1,0,1,1,1,0582c160b,8,0,0,0,0,f,f,f,f,f,000,f,cccc,00000,00000,0000000000000000,0,f,f,0,0,f,f,0000,0000,0000,0000,0000,0000,0000,0000,00,00,00,00,f0,f0,f0,f0,0000,0000,0000,0000,0000,0000,0000,0000,00,00,00,00,695517d32d,1184,119e,11bb,11d3
14,14,0,0476847084694462da5545f4cd40000000000000000000000000000000000000003c3c3c3c00000000000000000000000000000000000000003fc03fc0000000000000000000000000033333c003ffffc00020160b0582fabb0ded6503cded6503cded6503cfed6503cae503c68ae503c68ae503c68ae503c68,ae503c68,ae503c68,ae503c68,ae503c68,fed6503c,ded6503c,ded6503c,ded6503c,0,1,1,0,1,1,1,0,1,0,1,0,1,1,1,0582c160b,8,0,0,0,0,f,f,f,f,f,000,f,cccc,00000,00000,0000000000000000,0,f,f,0,0,f,f,0000,0000,0000,0000,0000,0000,0000,0000,00,00,00,00,f0,f0,f0,f0,0000,0000,0000,0000,0000,0000,0000,0000,00,00,00,00,695517d335,118b,11a5,11c2,11da
15,15,0,04784472446b04649a5545f4cf00000000000000000000000000000000000000003c3c3c3c00000000000000000000000000000000000000003fc03fc0000000000000000000000000033333c003ffffc00020160b0002ea2b06f6b503c6f6b503c6f6b503c6f6b503c57503c3457503c3457503c3457503c34,57503c34,57503c34,57503c34,57503c34,6f6b503c,6f6b503c,6f6b503c,6f6b503c,0,1,1,0,1,0,1,0,0,0,1,0,1,0,1,0582c000b,8,0,0,0,0,f,f,f,f,f,000,f,cccc,00000,00000,0000000000000000,0,f,f,0,0,f,f,0000,0000,0000,0000,0000,0000,0000,0000,00,00,00,00,f0,f0,f0,f0,0000,0000,0000,0000,0000,0000,0000,0000,00,00,00,00,695517d33c,1192,11ac,11c9,11e1
16,16,0,047a4474446d04669a5545f4d100000000000000000000000000000000000000003c3c3c3c00000000000000000000000000000000000000003fc03fc0000000000000000000000000033333c003ffffc00020160b0002e22a037b5503c37b5503c37b5503c37b5503c2b503c9a2b503c9a2b503c9a2b503c9a,2b503c9a,2b503c9a,2b503c9a,2b503c9a,37b5503c,37b5503c,37b5503c,37b5503c,0,0,1,0,1,0,1,0,0,0,1,0,0,0,1,0582c000b,8,0,0,0,0,f,f,f,f,f,000,f,cccc,00000,00000,0000000000000000,0,f,f,0,0,f,f,0000,0000,0000,0000,0000,0000,0000,0000,00,00,00,00,f0,f0,f0,f0,0000,0000,0000,0000,0000,0000,0000,0000,00,00,00,00,695517d344,119a,11b4,11d1,11e9
17,17,0,047c4476446f04689a5545f4d300000000000000000000000000000000000000003c3c3c3c00000000000000000000000000000000000000003fc03fc0000000000000000000000000033333c003ffffc00020160b0002e3ba01bda503c1bda503c1bda503c1bda503c95503ccd95503ccd95503ccd95503ccd,95503ccd,95503ccd,95503ccd,95503ccd,1bda503c,1bda503c,1bda503c,1bda503c,0,0,1,0,1,1,1,0,1,1,1,0,0,0,1,0582c000b,8,0,0,0,0,f,f,f,f,f,000,f,cccc,00000,00000,0000000000000000,0,f,f,0,0,f,f,0000,0000,0000,0000,0000,0000,0000,0000,00,00,00,00,f0,f0,f0,f0,0000,0000,0000,0000,0000,0000,0000,0000,00,00,00,00,695517d34c,11a2,11bc,11d9,11f1
18,18,0,047e44784471046a9a5545f4d500000000000000000000000000000000000000003c3c3c3c00000000000000000000000000000000000000003fc03fc0000000000000000000000000033333c003ffffc00030160b0002fbbb08ded503c8ded503c8ded503c8ded503cca503ce6ca503ce6ca503ce6ca503ce6,ca503ce6,ca503ce6,ca503ce6,ca503ce6,8ded503c,8ded503c,8ded503c,8ded503c,0,1,1,0,1,1,1,0,1,1,1,0,1,1,1,0582c000b,c,0,0,0,0,f,f,f,f,f,000,f,cccc,00000,00000,0000000000000000,0,f,f,0,0,f,f,0000,0000,0000,0000,0000,0000,0000,0000,00,00,00,00,f0,f0,f0,f0,0000,0000,0000,0000,0000,0000,0000,0000,00,00,00,00,695517d354,11aa,11c4,11e1,11f9
19,19,0,0480447a4473046c9a5545f4d700000000000000000000000000000000000000003c3c3c3c00000000000000000000000000000000000000003fc03fc0000000000000000000000000033333c003ffffc00030160b0002fabb0f648503cb648503cb648503c8648503c44503cf144503cf144503cf144503cf1,44503cf1,44503cf1,44503cf1,44503cf1,8648503c,b648503c,b648503c,f648503c,0,1,1,0,1,1,1,0,1,0,1,0,1,1,1,0582c000b,c,0,0,0,0,f,f,f,f,f,000,f,cccc,00000,00000,0000000000000000,0,f,f,0,0,f,f,0000,0000,0000,0000,0000,0000,0000,0000,00,00,00,00,f0,f0,f0,f0,0000,0000,0000,0000,0000,0000,0000,0000,00,00,00,00,695517d35c,11b2,11cc,11e9,1201
20,20,0,0482047c0474c46e5a5545f4d8c0000000000000000000000000000000000000003c3c3c3c00000000000000000000000000000000000000003fc03fc0000000000000000000000000033333c003ffffc00020160b0002ea2b05b24503c5b24503c5b24503c5b24503ca2503c78a2503c78a2503c78a2503c78,a2503c78,a2503c78,a2503c78,a2503c78,5b24503c,5b24503c,5b24503c,5b24503c,0,1,1,0,1,0,1,0,0,0,1,0,1,0,1,0582c000b,8,0,0,0,0,f,f,f,f,f,000,f,cccc,00000,00000,0000000000000000,0,f,f,0,0,f,f,0000,0000,0000,0000,0000,0000,0000,0000,00,00,00,00,f0,f0,f0,f0,0000,0000,0000,0000,0000,0000,0000,0000,00,00,00,00,695517d363,11b9,11d3,11f0,1208
21,21,0,0484047e0476c4705a5545f4dac0000000000000000000000000000000000000003c3c3c3c00000000000000000000000000000000000000003fc03fc0000000000000000000000000033333c003ffffc00020160b0002e22a0ad92503cad92503cad92503cad92503cd1503c3cd1503c3cd1503c3cd1503c3c,d1503c3c,d1503c3c,d1503c3c,d1503c3c,ad92503c,ad92503c,ad92503c,ad92503c,0,0,1,0,1,0,1,0,0,0,1,0,0,0,1,0582c000b,8,0,0,0,0,f,f,f,f,f,000,f,cccc,00000,00000,0000000000000000,0,f,f,0,0,f,f,0000,0000,0000,0000,0000,0000,0000,0000,00,00,00,00,f0,f0,f0,f0,0000,0000,0000,0000,0000,0000,0000,0000,00,00,00,00,695517d36b,11c1,11db,11f8,1210
22,22,0,048604800478c4725a5545f4dcc0000000000000000000000000000000000000003c3c3c3c00000000000000000000000000000000000000003fc03fc0000000000000000000000000033333c003ffffc00020160b0002e3ba0d6c9503cd6c9503cd6c9503cd6c9503c68503c9e68503c9e68503c9e68503c9e,68503c9e,68503c9e,68503c9e,68503c9e,d6c9503c,d6c9503c,d6c9503c,d6c9503c,0,0,1,0,1,1,1,0,1,1,1,0,0,0,1,0582c000b,8,0,0,0,0,f,f,f,f,f,000,f,cccc,00000,00000,0000000000000000,0,f,f,0,0,f,f,0000,0000,0000,0000,0000,0000,0000,0000,00,00,00,00,f0,f0,f0,f0,0000,0000,0000,0000,0000,0000,0000,0000,00,00,00,00,695517d373,11c9,11e3,1200,1218
23,23,0,04880482047ac4745a5545f4dec0000000000000000000000000000000000000003c3c3c3c00000000000000000000000000000000000000003fc03fc0000000000000000000000000033333c003ffffc00030160b0002fbbb06b64503c6b64503c6b64503c6b64503c34503c4f34503c4f34503c4f34503c4f,34503c4f,34503c4f,34503c4f,34503c4f,6b64503c,6b64503c,6b64503c,6b64503c,0,1,1,0,1,1,1,0,1,1,1,0,1,1,1,0582c000b,c,0,0,0,0,f,f,f,f,f,000,f,cccc,00000,00000,0000000000000000,0,f,f,0,0,f,f,0000,0000,0000,0000,0000,0000,0000,0000,00,00,00,00,f0,f0,f0,f0,0000,0000,0000,0000,0000,0000,0000,0000,00,00,00,00,695517d37b,11d1,11eb,1208,1220
24,24,0,048a0484047cc4765a5545f4e0c0000000000000000000000000000000000000003c3c3c3c00000000000000000000000000000000000000003fc03fc0000000000000000000000000033333c003ffffc00020160b0002fabb0570b503c470b503c470b503cf70b503c8a503c188a503c188a503c188a503c18,8a503c18,8a503c18,8a503c18,8a503c18,f70b503c,470b503c,470b503c,570b503c,0,1,1,0,1,1,1,0,1,0,1,0,1,1,1,0582c000b,8,0,0,0,0,f,f,f,f,f,000,f,cccc,00000,00000,0000000000000000,0,f,f,0,0,f,f,0000,0000,0000,0000,0000,0000,0000,0000,00,00,00,00,f0,f0,f0,f0,0000,0000,0000,0000,0000,0000,0000,0000,00,00,00,00,695517d383,11d9,11f3,1210,1228
25,25,0,048bc485c47e84781a5545f4e280000000000000000000000000000000000000003c3c3c3c00000000000000000000000000000000000000003fc03fc0000000000000000000000000033333c003ffffc00020160b0002ea2b02385503c2385503c2385503c2385503cc5503c0cc5503c0cc5503c0cc5503c0c,c5503c0c,c5503c0c,c5503c0c,c5503c0c,2385503c,2385503c,2385503c,2385503c,0,1,1,0,1,0,1,0,0,0,1,0,1,0,1,0582c000b,8,0,0,0,0,f,f,f,f,f,000,f,cccc,00000,00000,0000000000000000,0,f,f,0,0,f,f,0000,0000,0000,0000,0000,0000,0000,0000,00,00,00,00,f0,f0,f0,f0,0000,0000,0000,0000,0000,0000,0000,0000,00,00,00,00,695517d38a,11e0,11fa,1217,122f
26,26,0,048dc487c480847a1a5545f4e480000000000000000000000000000000000000003c3c3c3c00000000000000000000000000000000000000003fc03fc0000000000000000000000000033333c003ffffc00020160b0002e22a091c2503c91c2503c91c2503c91c2503ce2503c86e2503c86e2503c86e2503c86,e2503c86,e2503c86,e2503c86,e2503c86,91c2503c,91c2503c,91c2503c,91c2503c,0,0,1,0,1,0,1,0,0,0,1,0,0,0,1,0582c000b,8,0,0,0,0,f,f,f,f,f,000,f,cccc,00000,00000,0000000000000000,0,f,f,0,0,f,f,0000,0000,0000,0000,0000,0000,0000,0000,00,00,00,00,f0,f0,f0,f0,0000,0000,0000,0000,0000,0000,0000,0000,00,00,00,00,695517d392,11e8,1202,121f,1237
27,27,0,048fc489c482847c1a5545f4e680000000000000000000000000000000000000003c3c3c3c00000000000000000000000000000000000000003fc03fc0000000000000000000000000033333c003ffffc00020160b0002e3ba048e1503c48e1503c48e1503c48e1503cf1503c43f1503c43f1503c43f1503c43,f1503c43,f1503c43,f1503c43,f1503c43,48e1503c,48e1503c,48e1503c,48e1503c,0,0,1,0,1,1,1,0,1,1,1,0,0,0,1,0582c000b,8,0,0,0,0,f,f,f,f,f,000,f,cccc,00000,00000,0000000000000000,0,f,f,0,0,f,f,0000,0000,0000,0000,0000,0000,0000,0000,00,00,00,00,f0,f0,f0,f0,0000,0000,0000,0000,0000,0000,0000,0000,00,00,00,00,695517d39a,11f0,120a,1227,123f
28,28,0,0491c48bc484847e1a5545f4e880000000000000000000000000000000000000003c3c3c3c00000000000000000000000000000000000000003fc03fc0000000000000000000000000033333c003ffffc00030160b0002fbbb02470503c2470503c2470503c2470503c78503ca178503ca178503ca178503ca1,78503ca1,78503ca1,78503ca1,78503ca1,2470503c,2470503c,2470503c,2470503c,0,1,1,0,1,1,1,0,1,1,1,0,1,1,1,0582c000b,c,0,0,0,0,f,f,f,f,f,000,f,cccc,00000,00000,0000000000000000,0,f,f,0,0,f,f,0000,0000,0000,0000,0000,0000,0000,0000,00,00,00,00,f0,f0,f0,f0,0000,0000,0000,0000,0000,0000,0000,0000,00,00,00,00,695517d3a2,11f8,1212,122f,1247
29,29,0,0493c48dc48684801a5545f4ea80000000000000000000000000000000000000003c3c3c3c00000000000000000000000000000000000000003fc03fc0000000000000000000000000033333c003ffffc00020160b0002fabb05f2b503c5f2b503c5f2b503cdf2b503cc1503c03c1503c03c1503c03c1503c03,c1503c03,c1503c03,c1503c03,c1503c03,df2b503c,5f2b503c,5f2b503c,5f2b503c,0,1,1,0,1,1,1,0,1,0,1,0,1,1,1,0582c000b,8,0,0,0,0,f,f,f,f,f,000,f,cccc,00000,00000,0000000000000000,0,f,f,0,0,f,f,0000,0000,0000,0000,0000,0000,0000,0000,00,00,00,00,f0,f0,f0,f0,0000,0000,0000,0000,0000,0000,0000,0000,00,00,00,00,695517d3aa,1200,121a,1237,124f
