Sample in Buffer,Sample in Window,TRIGGER,ila_data[865:0],receiver_0[31:0],receiver_1[31:0],receiver_2[31:0],receiver_3[31:0],transmitter_0[31:0],transmitter_1[31:0],transmitter_2[31:0],transmitter_3[31:0],prbs_match_int[3:0],hb0_gtwiz_userclk_rx_usrclk2_int,hb0_gtwiz_userclk_rx_active_int,hb_gtwiz_reset_all_int,hb0_gtwiz_reset_rx_done_int,hb0_gtwiz_userclk_tx_usrclk2_int,hb0_gtwiz_userclk_tx_active_int,gtwiz_userclk_tx_reset_int,gtwiz_userclk_tx_usrclk_int,gtwiz_userclk_tx_usrclk2_int,gtwiz_userclk_tx_active_int,gtwiz_userclk_rx_reset_int,gtwiz_userclk_rx_usrclk_int,gtwiz_userclk_rx_usrclk2_int,gtwiz_userclk_rx_active_int,drpaddr_int[35:0],drpclk_int[3:0],drpdi_int[3:0],drpen_int[3:0],drpwe_int[3:0],eyescanreset_int[3:0],rx8b10ben_int[3:0],rxcommadeten_int[3:0],rxlpmen_int[3:0],rxmcommaalignen_int[3:0],rxpcommaalignen_int[3:0],rxrate_int[11:0],tx8b10ben_int[3:0],txdiffctrl_int[15:0],txpostcursor_int[19:0],txprecursor_int[19:0],drpdo_int[63:0],drprdy_int[3:0],gtpowergood_int[3:0],rxbyteisaligned_int[3:0],rxbyterealign_int[3:0],rxcommadet_int[3:0],rxpmaresetdone_int[3:0],txpmaresetdone_int[3:0],ch0_rxctrl0_int[15:0],ch1_rxctrl0_int[15:0],ch2_rxctrl0_int[15:0],ch3_rxctrl0_int[15:0],ch0_rxctrl1_int[15:0],ch1_rxctrl1_int[15:0],ch2_rxctrl1_int[15:0],ch3_rxctrl1_int[15:0],ch0_rxctrl2_int[7:0],ch1_rxctrl2_int[7:0],ch2_rxctrl2_int[7:0],ch3_rxctrl2_int[7:0],ch0_rxctrl3_int[7:0],ch1_rxctrl3_int[7:0],ch2_rxctrl3_int[7:0],ch3_rxctrl3_int[7:0],ch0_txctrl0_int[15:0],ch1_txctrl0_int[15:0],ch2_txctrl0_int[15:0],ch3_txctrl0_int[15:0],ch0_txctrl1_int[15:0],ch1_txctrl1_int[15:0],ch2_txctrl1_int[15:0],ch3_txctrl1_int[15:0],ch0_txctrl2_int[7:0],ch1_txctrl2_int[7:0],ch2_txctrl2_int[7:0],ch3_txctrl2_int[7:0]
Radix - UNSIGNED,UNSIGNED,UNSIGNED,HEX,HEX,HEX,HEX,HEX,HEX,HEX,HEX,HEX,HEX,HEX,HEX,HEX,HEX,HEX,HEX,HEX,HEX,HEX,HEX,HEX,HEX,HEX,HEX,HEX,HEX,HEX,HEX,HEX,HEX,HEX,HEX,HEX,HEX,HEX,HEX,HEX,HEX,HEX,HEX,HEX,HEX,HEX,HEX,HEX,HEX,HEX,HEX,HEX,HEX,HEX,HEX,HEX,HEX,HEX,HEX,HEX,HEX,HEX,HEX,HEX,HEX,HEX,HEX,HEX,HEX,HEX,HEX,HEX,HEX,HEX,HEX,HEX,HEX,HEX,HEX
0,0,0,00000000000000000000000000000000000000003c3cbe7d8000000000000000c000400100000000800040003fc003c0000000000000000000000000033333c003ffffc0000016000582fbab0e05b503c1fa4503cf02d503c0fd2503ceed3c91459c2b39c56420070b75753b5,b75753b5,56420070,59c2b39c,eed3c914,0fd2503c,f02d503c,1fa4503c,e05b503c,0,1,1,0,1,0,1,0,1,1,1,0,1,1,1,05800160b,0,0,0,0,0,f,f,f,f,f,000,f,cccc,00000,00000,0000000000000000,0,f,0,0,0,f,f,0000,0001,0002,0000,0004,0001,0003,0000,00,00,00,00,f6,f9,f2,f0,0000,0000,0000,0000,0000,0000,0000,0000,00,00,00,00
1,1,0,00000000000000000000000000000000000000003c3cbe7cc000000000008000c001400000000000800040003fc003c0000000000000000000000000033333c003ffffc0000016000582ebbb0e059503c1fa6503cf02c503c0fd3503ceec46174591ab39c328c000f37647b52,37647b52,328c000f,591ab39c,eec46174,0fd3503c,f02c503c,1fa6503c,e059503c,0,1,1,0,1,1,1,0,1,1,1,0,1,0,1,05800160b,0,0,0,0,0,f,f,f,f,f,000,f,cccc,00000,00000,0000000000000000,0,f,0,0,0,f,f,0000,0001,0002,0000,0000,0005,0003,0002,00,00,00,00,f3,f9,f2,f0,0000,0000,0000,0000,0000,0000,0000,0000,00,00,00,00
2,2,0,00000000000000000000000000000000000000003cbcbc7c8000000000008000c002400040008000800040003fc003c0000000000000000000000000033333c003ffffc0000016000582e2ba0e057503c1fa8503cf02b503c0fd4503ceec2a91459ddb39cee42007037647202,37647202,ee420070,59ddb39c,eec2a914,0fd4503c,f02b503c,1fa8503c,e057503c,0,0,1,0,1,1,1,0,1,0,1,0,0,0,1,05800160b,0,0,0,0,0,f,f,f,f,f,000,f,cccc,00000,00000,0000000000000000,0,f,0,0,0,f,f,0000,0001,0002,0002,0001,0009,0003,0002,00,00,00,00,f2,f1,f2,f2,0000,0000,0000,0000,0000,0000,0000,0000,00,00,00,00
3,3,0,00000000000000000000000000000000000000003c3cbe7c8000000000008000c001400040000000800040003fc003c0000000000000000000000000033333c003ffffc0000016000582f22a0e055503c1faa503cf02a503c0fd5503ceed58174590ab39c2a8c000f37647a22,37647a22,2a8c000f,590ab39c,eed58174,0fd5503c,f02a503c,1faa503c,e055503c,0,0,1,0,1,0,1,0,0,0,1,0,0,1,1,05800160b,0,0,0,0,0,f,f,f,f,f,000,f,cccc,00000,00000,0000000000000000,0,f,0,0,0,f,f,0000,0001,0002,0000,0001,0005,0003,0002,00,00,00,00,f2,f9,f2,f0,0000,0000,0000,0000,0000,0000,0000,0000,00,00,00,00
4,4,0,00000000000000000000000000000000000000003c3cbe7c80000000000080004001400040000000800040003fc003c0000000000000000000000000033333c003ffffc0000016000582fa2b0e053503c1fac503cf029503c0fd6503ce455e1345912b39c268c000f37647aa2,37647aa2,268c000f,5912b39c,e455e134,0fd6503c,f029503c,1fac503c,e053503c,0,1,1,0,1,0,1,0,0,0,1,0,1,1,1,05800160b,0,0,0,0,0,f,f,f,f,f,000,f,cccc,00000,00000,0000000000000000,0,f,0,0,0,f,f,0000,0001,0002,0000,0001,0005,0001,0002,00,00,00,00,f2,f9,f2,f0,0000,0000,0000,0000,0000,0000,0000,0000,00,00,00,00
5,5,0,00000000000000000000000000000000000000003c3dbe7d8000000000008003c001400140000000800040013fc003c0000000000000000000000000033333c003ffffc0000016000582fbbb0e051503c1fae503cf028503c0fd7503cf02969141ec2b39c628c000fb7db8502,b7db8502,628c000f,1ec2b39c,f0296914,0fd7503c,f028503c,1fae503c,e051503c,0,1,1,0,1,1,1,0,1,1,1,0,1,1,1,05800160b,0,0,0,0,0,f,f,f,f,f,000,f,cccc,00000,00000,0000000000000000,0,f,0,0,0,f,f,0004,0001,0002,0000,0005,0005,000f,0002,00,00,00,00,f6,f9,f6,f0,0000,0000,0000,0000,0000,0000,0000,0000,00,00,00,00
6,6,0,00000000000000000000000000000000000000003c3dbe7d8000000000028000c000400140000001800040013fc003c0000000000000000000000000033333c003ffffc0000016000582e3bb0e04f503c1fb0503cf027503c0fd8503cf037417459c2b39c6c420070b7db8c02,b7db8c02,6c420070,59c2b39c,f0374174,0fd8503c,f027503c,1fb0503c,e04f503c,0,1,1,0,1,1,1,0,1,1,1,0,0,0,1,05800160b,0,0,0,0,0,f,f,f,f,f,000,f,cccc,00000,00000,0000000000000000,0,f,0,0,0,f,f,0004,0001,0006,0000,0005,0001,0003,000a,00,00,00,00,f6,f9,f6,f0,0000,0000,0000,0000,0000,0000,0000,0000,00,00,00,00
7,7,0,00000000000000000000000000000000000000003c3cbc3c8000000000008000c001400040000000800000003fc003c0000000000000000000000000033333c003ffffc0000016000582e23a0e04d503c1fb2503cf026503c0fd9503cf0218914597fb39c1a8c006e37647922,37647922,1a8c006e,597fb39c,f0218914,0fd9503c,f026503c,1fb2503c,e04d503c,0,0,1,0,1,1,1,0,0,0,1,0,0,0,1,05800160b,0,0,0,0,0,f,f,f,f,f,000,f,cccc,00000,00000,0000000000000000,0,f,0,0,0,f,f,0000,0000,0002,0000,0001,0005,0003,0002,00,00,00,00,f2,f0,f2,f0,0000,0000,0000,0000,0000,0000,0000,0000,00,00,00,00
8,8,0,00000000000000000000000000000000000000003c3cbc3c8000000000008000c001400040000000800000003fc003c0000000000000000000000000033333c003ffffc0000016000582f22a0e04b503c1fb4503cf025503c0fda503cf021e9145962b39c168c006e376479a2,376479a2,168c006e,5962b39c,f021e914,0fda503c,f025503c,1fb4503c,e04b503c,0,0,1,0,1,0,1,0,0,0,1,0,0,1,1,05800160b,0,0,0,0,0,f,f,f,f,f,000,f,cccc,00000,00000,0000000000000000,0,f,0,0,0,f,f,0000,0000,0002,0000,0001,0005,0003,0002,00,00,00,00,f2,f0,f2,f0,0000,0000,0000,0000,0000,0000,0000,0000,00,00,00,00
9,9,0,00000000000000000000000000000000000000003c3cbe7d8000000000008000c001400140000000800040013fc003c0000000000000000000000000033333c003ffffc0000016000582fb2b0e049503c1fb6503cf024503c0fdb503ceec261741e5db39c528c000fb7db8602,b7db8602,528c000f,1e5db39c,eec26174,0fdb503c,f024503c,1fb6503c,e049503c,0,1,1,0,1,0,1,0,0,1,1,0,1,1,1,05800160b,0,0,0,0,0,f,f,f,f,f,000,f,cccc,00000,00000,0000000000000000,0,f,0,0,0,f,f,0004,0001,0002,0000,0005,0005,0003,0002,00,00,00,00,f6,f9,f2,f0,0000,0000,0000,0000,0000,0000,0000,0000,00,00,00,00
10,10,0,00000000000000000000000000000000000000003cbc3e7dc0000000000200030003400140000000000240017fc003c0000000000000000000000000033333c003ffffc0000016000582ebbb0e047503c1fb8503cf023503c0fdc503ceed72e741e9d2b9b988c000fb7db885d,b7db885d,988c000f,1e9d2b9b,eed72e74,0fdc503c,f023503c,1fb8503c,e047503c,0,1,1,0,1,1,1,0,1,1,1,0,1,0,1,05800160b,0,0,0,0,0,f,f,f,f,f,000,f,cccc,00000,00000,0000000000000000,0,f,0,0,0,f,f,0005,0009,0000,0000,0005,000d,000c,0008,00,00,00,00,f7,f9,f0,f2,0000,0000,0000,0000,0000,0000,0000,0000,00,00,00,00
11,11,0,00000000000000000000000000000000000000003c3c3e7c80000000000080000002400000000000000240003fc003c0000000000000000000000000033333c003ffffc0000016000582e3ba0e045503c1fba503cf022503c0fdd503ceed3817459aa2b9bca4200703764783d,3764783d,ca420070,59aa2b9b,eed38174,0fdd503c,f022503c,1fba503c,e045503c,0,0,1,0,1,1,1,0,1,1,1,0,0,0,1,05800160b,0,0,0,0,0,f,f,f,f,f,000,f,cccc,00000,00000,0000000000000000,0,f,0,0,0,f,f,0000,0009,0000,0000,0000,0009,0000,0002,00,00,00,00,f2,f9,f0,f0,0000,0000,0000,0000,0000,0000,0000,0000,00,00,00,00
12,12,0,00000000000000000000000000000000000000003c3c3e7c80000000000080000002400000000000000240003fc003c0000000000000000000000000033333c003ffffc0000016000582e22a0e043503c1fbc503cf021503c0fde503ceed3e17459b22b9bc6420070376478bd,376478bd,c6420070,59b22b9b,eed3e174,0fde503c,f021503c,1fbc503c,e043503c,0,0,1,0,1,0,1,0,0,0,1,0,0,0,1,05800160b,0,0,0,0,0,f,f,f,f,f,000,f,cccc,00000,00000,0000000000000000,0,f,0,0,0,f,f,0000,0009,0000,0000,0000,0009,0000,0002,00,00,00,00,f2,f9,f0,f0,0000,0000,0000,0000,0000,0000,0000,0000,00,00,00,00
13,13,0,00000000000000000000000000000000000000003c3c3e7c80000000000280014003400000000000000240003fc003c0000000000000000000000000033333c003ffffc0000016000582fa2a0e041503c1fbe503cf020503c0fdf503ceed5691459ff2b9bc28c000f3764723d,3764723d,c28c000f,59ff2b9b,eed56914,0fdf503c,f020503c,1fbe503c,e041503c,0,0,1,0,1,0,1,0,0,0,1,0,1,1,1,05800160b,0,0,0,0,0,f,f,f,f,f,000,f,cccc,00000,00000,0000000000000000,0,f,0,0,0,f,f,0000,0009,0000,0000,0000,000d,0005,000a,00,00,00,00,f2,f9,f0,f0,0000,0000,0000,0000,0000,0000,0000,0000,00,00,00,00
14,14,0,00000000000000000000000000000000000000003d3c7c3d8000000000010002000000018001000040000001bfc003c0000000000000000000000000033333c003ffffc0000016000582fbab0e03f503c1fc0503cf01f503c0fe0503cffc64914dbca2b1fb242000e3722d13d,3722d13d,b242000e,dbca2b1f,ffc64914,0fe0503c,f01f503c,1fc0503c,e03f503c,0,1,1,0,1,0,1,0,1,1,1,0,1,1,1,05800160b,0,0,0,0,0,f,f,f,f,f,000,f,cccc,00000,00000,0000000000000000,0,f,0,0,0,f,f,0006,0000,0001,0004,0006,0000,0008,0004,00,00,00,00,f6,f0,f1,f4,0000,0000,0000,0000,0000,0000,0000,0000,00,00,00,00
15,15,0,00000000000000000000000000000000000000003d3c7c3d8000000000010002000000018001000040000001bfc003c0000000000000000000000000033333c003ffffc0000016000582ebbb0e03d503c1fc2503cf01e503c0fe1503cffc34914db722b1fba42000e3722d4bd,3722d4bd,ba42000e,db722b1f,ffc34914,0fe1503c,f01e503c,1fc2503c,e03d503c,0,1,1,0,1,1,1,0,1,1,1,0,1,0,1,05800160b,0,0,0,0,0,f,f,f,f,f,000,f,cccc,00000,00000,0000000000000000,0,f,0,0,0,f,f,0006,0000,0001,0004,0006,0000,0008,0004,00,00,00,00,f6,f0,f1,f4,0000,0000,0000,0000,0000,0000,0000,0000,00,00,00,00
16,16,0,00000000000000000000000000000000000000003d3c7c3d8000000000010002000000018001000040000001bfc003c0000000000000000000000000033333c003ffffc0000016000582e2ba0e03b503c1fc4503cf01d503c0fe2503cffc3c914db6a2b1fb642000e3722d43d,3722d43d,b642000e,db6a2b1f,ffc3c914,0fe2503c,f01d503c,1fc4503c,e03b503c,0,0,1,0,1,1,1,0,1,0,1,0,0,0,1,05800160b,0,0,0,0,0,f,f,f,f,f,000,f,cccc,00000,00000,0000000000000000,0,f,0,0,0,f,f,0006,0000,0001,0004,0006,0000,0008,0004,00,00,00,00,f6,f0,f1,f4,0000,0000,0000,0000,0000,0000,0000,0000,00,00,00,00
17,17,0,00000000000000000000000000000000000000003d3c7c3d00000000000180010001400100010000400000017fc003c0000000000000000000000000033333c003ffffc0000016000582f22a0e039503c1fc6503cf01c503c0fe3503cffc46174c37a2b1f928c0071b7d268fd,b7d268fd,928c0071,c37a2b1f,ffc46174,0fe3503c,f01c503c,1fc6503c,e039503c,0,0,1,0,1,0,1,0,0,0,1,0,0,1,1,05800160b,0,0,0,0,0,f,f,f,f,f,000,f,cccc,00000,00000,0000000000000000,0,f,0,0,0,f,f,0005,0000,0001,0004,0004,0005,0004,0006,00,00,00,00,f4,f0,f1,f4,0000,0000,0000,0000,0000,0000,0000,0000,00,00,00,00
18,18,0,00000000000000000000000000000000000000003dbc7c3d8000000000018002000000018001800040000001ffc003c0000000000000000000000000033333c003ffffc0000016000582fa2b0e037503c1fc8503cf01b503c0fe4503cffc2a914db7a2b1fae42000e3722d5fd,3722d5fd,ae42000e,db7a2b1f,ffc2a914,0fe4503c,f01b503c,1fc8503c,e037503c,0,1,1,0,1,0,1,0,0,0,1,0,1,1,1,05800160b,0,0,0,0,0,f,f,f,f,f,000,f,cccc,00000,00000,0000000000000000,0,f,0,0,0,f,f,0007,0000,0001,0006,0006,0000,0008,0006,00,00,00,00,f6,f0,f1,f6,0000,0000,0000,0000,0000,0000,0000,0000,00,00,00,00
19,19,0,00000000000000000000000000000000000000003d3cbc3d800000000000800280000001c000000080000001bfc003c0000000000000000000000000033333c003ffffc0000016000582fbbb0e035503c1fca503cf01a503c0fe5503ced3d8914db8ab39c4a42000e3722d622,3722d622,4a42000e,db8ab39c,ed3d8914,0fe5503c,f01a503c,1fca503c,e035503c,0,1,1,0,1,1,1,0,1,1,1,0,1,1,1,05800160b,0,0,0,0,0,f,f,f,f,f,000,f,cccc,00000,00000,0000000000000000,0,f,0,0,0,f,f,0006,0000,0002,0000,0007,0000,000a,0002,00,00,00,00,f6,f0,f2,f4,0000,0000,0000,0000,0000,0000,0000,0000,00,00,00,00
20,20,0,00000000000000000000000000000000000000003d3cbc3d800000000000800280000001c000000080000001bfc003c0000000000000000000000000033333c003ffffc0000016000582e3bb0e033503c1fcc503cf019503c0fe6503ced3de914db92b39c4642000e3722d6a2,3722d6a2,4642000e,db92b39c,ed3de914,0fe6503c,f019503c,1fcc503c,e033503c,0,1,1,0,1,1,1,0,1,1,1,0,0,0,1,05800160b,0,0,0,0,0,f,f,f,f,f,000,f,cccc,00000,00000,0000000000000000,0,f,0,0,0,f,f,0006,0000,0002,0000,0007,0000,000a,0002,00,00,00,00,f6,f0,f2,f4,0000,0000,0000,0000,0000,0000,0000,0000,00,00,00,00
21,21,0,00000000000000000000000000000000000000003d3cbc3d8000000000008000c0020001c000000080000001bfc003c0000000000000000000000000033333c003ffffc0000016000582e23a0e031503c1fce503cf018503c0fe7503ced396914c33db39c9d42000e3722d102,3722d102,9d42000e,c33db39c,ed396914,0fe7503c,f018503c,1fce503c,e031503c,0,0,1,0,1,1,1,0,0,0,1,0,0,0,1,05800160b,0,0,0,0,0,f,f,f,f,f,000,f,cccc,00000,00000,0000000000000000,0,f,0,0,0,f,f,0006,0000,0002,0000,0007,0008,0003,0002,00,00,00,00,f6,f0,f2,f4,0000,0000,0000,0000,0000,0000,0000,0000,00,00,00,00
22,22,0,00000000000000000000000000000000000000003d3dbc3d00000000000080018001400140000001800000013fc003c0000000000000000000000000033333c003ffffc0000016000582f22a0e02f503c1fd0503cf017503c0fe8503ced384174c342b39c428c0071b7d26902,b7d26902,428c0071,c342b39c,ed384174,0fe8503c,f017503c,1fd0503c,e02f503c,0,0,1,0,1,0,1,0,0,0,1,0,0,1,1,05800160b,0,0,0,0,0,f,f,f,f,f,000,f,cccc,00000,00000,0000000000000000,0,f,0,0,0,f,f,0004,0000,0006,0000,0005,0005,0006,0002,00,00,00,00,f4,f0,f6,f4,0000,0000,0000,0000,0000,0000,0000,0000,00,00,00,00
23,23,0,00000000000000000000000000000000000000003d3c7c3d800000000001800100014001c0010000c0000001bfc003c0000000000000000000000000033333c003ffffc0000016000582fb2b0e02d503c1fd2503cf016503c0fe9503cffc68174d39f2b1e5a4a00573722d522,3722d522,5a4a0057,d39f2b1e,ffc68174,0fe9503c,f016503c,1fd2503c,e02d503c,0,1,1,0,1,0,1,0,0,1,1,0,1,1,1,05800160b,0,0,0,0,0,f,f,f,f,f,000,f,cccc,00000,00000,0000000000000000,0,f,0,0,0,f,f,0006,0000,0003,0004,0007,0005,0004,0006,00,00,00,00,f6,f0,f1,f4,0000,0000,0000,0000,0000,0000,0000,0000,00,00,00,00
24,24,0,00000000000000000000000000000000000000003d3c7c3d00000000000180010001400100010000400000013fc003c0000000000000000000000000033333c003ffffc0000016000582ebbb0e02b503c1fd4503cf015503c0fea503cffc6e174c3022b1f968c0071b7d265bd,b7d265bd,968c0071,c3022b1f,ffc6e174,0fea503c,f015503c,1fd4503c,e02b503c,0,1,1,0,1,1,1,0,1,1,1,0,1,0,1,05800160b,0,0,0,0,0,f,f,f,f,f,000,f,cccc,00000,00000,0000000000000000,0,f,0,0,0,f,f,0004,0000,0001,0004,0004,0005,0004,0006,00,00,00,00,f4,f0,f1,f4,0000,0000,0000,0000,0000,0000,0000,0000,00,00,00,00
25,25,0,00000000000000000000000000000000000000003d3c7c3d00000000000180000001000100010000400000017fc003c0000000000000000000000000033333c003ffffc0000016000582e3ba0e029503c1fd6503cf014503c0feb503cffc26174c33a2b1fa28c0071b7d262fd,b7d262fd,a28c0071,c33a2b1f,ffc26174,0feb503c,f014503c,1fd6503c,e029503c,0,0,1,0,1,1,1,0,1,1,1,0,0,0,1,05800160b,0,0,0,0,0,f,f,f,f,f,000,f,cccc,00000,00000,0000000000000000,0,f,0,0,0,f,f,0005,0000,0001,0004,0004,0004,0000,0006,00,00,00,00,f4,f0,f1,f4,0000,0000,0000,0000,0000,0000,0000,0000,00,00,00,00
26,26,0,00000000000000000000000000000000000000003dbc7c3dc00000000001000100000001c001000040000001ffc003c0000000000000000000000000033333c003ffffc0000016000582e22a0e027503c1fd8503cf013503c0fec503cffc72e74c31d2b1fa642000eb7d2245d,b7d2245d,a642000e,c31d2b1f,ffc72e74,0fec503c,f013503c,1fd8503c,e027503c,0,0,1,0,1,0,1,0,0,0,1,0,0,0,1,05800160b,0,0,0,0,0,f,f,f,f,f,000,f,cccc,00000,00000,0000000000000000,0,f,0,0,0,f,f,0007,0000,0001,0004,0007,0000,0004,0004,00,00,00,00,f7,f0,f1,f6,0000,0000,0000,0000,0000,0000,0000,0000,00,00,00,00
27,27,0,00000000000000000000000000000000000000003d3c7c3d00000000000080000001000100010000400000013fc003c0000000000000000000000000033333c003ffffc0000016000582fa2a0e025503c1fda503cf012503c0fed503cffc38174c32a2b1fbf8c0071b7d26c3d,b7d26c3d,bf8c0071,c32a2b1f,ffc38174,0fed503c,f012503c,1fda503c,e025503c,0,0,1,0,1,0,1,0,0,0,1,0,1,1,1,05800160b,0,0,0,0,0,f,f,f,f,f,000,f,cccc,00000,00000,0000000000000000,0,f,0,0,0,f,f,0004,0000,0001,0004,0004,0004,0000,0002,00,00,00,00,f4,f0,f1,f4,0000,0000,0000,0000,0000,0000,0000,0000,00,00,00,00
28,28,0,00000000000000000000000000000000000000003d3ebc3d8000000000008000c00200010000000280000001bfc003c0000000000000000000000000033333c003ffffc0000016000582fbab0e023503c1fdc503cf011503c0fee503ced3be914a032b39c8042000e3722cca2,3722cca2,8042000e,a032b39c,ed3be914,0fee503c,f011503c,1fdc503c,e023503c,0,1,1,0,1,0,1,0,1,1,1,0,1,1,1,05800160b,0,0,0,0,0,f,f,f,f,f,000,f,cccc,00000,00000,0000000000000000,0,f,0,0,0,f,f,0006,0000,000a,0000,0004,0008,0003,0002,00,00,00,00,f6,f0,fa,f4,0000,0000,0000,0000,0000,0000,0000,0000,00,00,00,00
29,29,0,00000000000000000000000000000000000000003d3c7c3d8000000000018002000000018001000040020001bfc003c0000000000000000000000000033333c003ffffc0000016000582e3bb0e021503c1fde503cf010503c0fef503cffc56914dbd22b1f9c42000e3722d1bd,3722d1bd,9c42000e,dbd22b1f,ffc56914,0fef503c,f010503c,1fde503c,e021503c,0,1,1,0,1,1,1,0,1,1,1,0,0,0,1,05800160b,0,0,0,0,0,f,f,f,f,f,000,f,cccc,00000,00000,0000000000000000,0,f,0,0,0,f,f,0006,0008,0001,0004,0006,0000,0008,0006,00,00,00,00,f6,f0,f1,f4,0000,0000,0000,0000,0000,0000,0000,0000,00,00,00,00
30,30,0,00000000000000000000000000000000000000003c3c7c3d00000000000100010000400140000000400000013fc003c0000000000000000000000000033333c003ffffc0000016000582e23a0e01f503c1fe0503cf00f503c0ff0503cedee4914dbe22b1f1242000eb7d26222,b7d26222,1242000e,dbe22b1f,edee4914,0ff0503c,f00f503c,1fe0503c,e01f503c,0,0,1,0,1,1,1,0,0,0,1,0,0,0,1,05800160b,0,0,0,0,0,f,f,f,f,f,000,f,cccc,00000,00000,0000000000000000,0,f,0,0,0,f,f,0004,0000,0001,0000,0005,0001,0004,0004,00,00,00,00,f4,f0,f1,f0,0000,0000,0000,0000,0000,0000,0000,0000,00,00,00,00
31,31,0,00000000000000000000000000000000000000003c3c7c3d800000000001000100004001c000000040000001bfc003c0000000000000000000000000033333c003ffffc0000016000582f22a0e01d503c1fe2503cf00e503c0ff1503cedeb4914c8df2b1f1a42000e3722d322,3722d322,1a42000e,c8df2b1f,edeb4914,0ff1503c,f00e503c,1fe2503c,e01d503c,0,0,1,0,1,0,1,0,0,0,1,0,0,1,1,05800160b,0,0,0,0,0,f,f,f,f,f,000,f,cccc,00000,00000,0000000000000000,0,f,0,0,0,f,f,0006,0000,0001,0000,0007,0001,0004,0004,00,00,00,00,f6,f0,f1,f0,0000,0000,0000,0000,0000,0000,0000,0000,00,00,00,00
32,32,0,00000000000000000000000000000000000000003c3cfc3d800000000001800280034001c001000040000001bfc003c0000000000000000000000000033333c003ffffc0000016000582fa2b0e01b503c1fe4503cf00d503c0ff2503cffcfe974c8c22b1f1642000e3722d3a2,3722d3a2,1642000e,c8c22b1f,ffcfe974,0ff2503c,f00d503c,1fe4503c,e01b503c,0,1,1,0,1,0,1,0,0,0,1,0,1,1,1,05800160b,0,0,0,0,0,f,f,f,f,f,000,f,cccc,00000,00000,0000000000000000,0,f,0,0,0,f,f,0006,0000,0001,0004,0007,000d,000a,0006,00,00,00,00,f6,f0,f3,f0,0000,0000,0000,0000,0000,0000,0000,0000,00,00,00,00
33,33,0,00000000000000000000000000000000000000003d3cbc7d0000000000008002c001400100000000800040017fc003c0000000000000000000000000033333c003ffffc0000016000582fbbb0e019503c1fe6503cf00c503c0ff3503ced4c6174db1ab39c728c0030b7d264fd,b7d264fd,728c0030,db1ab39c,ed4c6174,0ff3503c,f00c503c,1fe6503c,e019503c,0,1,1,0,1,1,1,0,1,1,1,0,1,1,1,05800160b,0,0,0,0,0,f,f,f,f,f,000,f,cccc,00000,00000,0000000000000000,0,f,0,0,0,f,f,0005,0001,0002,0000,0004,0005,000b,0002,00,00,00,00,f4,f1,f2,f4,0000,0000,0000,0000,0000,0000,0000,0000,00,00,00,00
