Sample in Buffer,Sample in Window,TRIGGER,ila_data[617:0],receiver_0[31:0],userdata_rx_0[31:0],receiver_1[31:0],userdata_rx_1[31:0],userdata_rx_2[31:0],receiver_2[31:0],userdata_rx_3[31:0],receiver_3[31:0],userdata_tx_0[31:0],transmitter_0[31:0],userdata_tx_1[31:0],transmitter_1[31:0],userdata_tx_2[31:0],transmitter_2[31:0],transmitter_3[31:0],userdata_tx_3[31:0],prbs_match_int[3:0],ch0_rxctrl0_int[15:0],ch1_rxctrl0_int[15:0],ch2_rxctrl0_int[15:0],ch3_rxctrl0_int[15:0],ch0_rxctrl1_int[15:0],ch1_rxctrl1_int[15:0],ch2_rxctrl1_int[15:0],ch3_rxctrl1_int[15:0],ch0_rxctrl2_int[7:0],ch1_rxctrl2_int[7:0],ch2_rxctrl2_int[7:0],ch3_rxctrl2_int[7:0],ch0_rxctrl3_int[7:0],ch1_rxctrl3_int[7:0],ch2_rxctrl3_int[7:0],ch3_rxctrl3_int[7:0],ch0_txctrl0_int[15:0],ch1_txctrl0_int[15:0],ch2_txctrl0_int[15:0],ch3_txctrl0_int[15:0],ch0_txctrl1_int[15:0],ch2_txctrl1_int[15:0],ch3_txctrl1_int[15:0],ch0_txctrl2_int[7:0],ch1_txctrl2_int[7:0],ch2_txctrl2_int[7:0],ch3_txctrl2_int[7:0],hb0_gtwiz_userclk_rx_usrclk2_int,hb0_gtwiz_userclk_rx_active_int,hb_gtwiz_reset_all_int,hb0_gtwiz_reset_rx_done_int,hb0_gtwiz_userclk_tx_usrclk2_int,hb0_gtwiz_userclk_tx_active_int
Radix - UNSIGNED,UNSIGNED,UNSIGNED,HEX,HEX,HEX,HEX,HEX,HEX,HEX,HEX,HEX,HEX,HEX,HEX,HEX,HEX,HEX,HEX,HEX,HEX,HEX,HEX,HEX,HEX,HEX,HEX,HEX,HEX,HEX,HEX,HEX,HEX,HEX,HEX,HEX,HEX,HEX,HEX,HEX,HEX,HEX,HEX,HEX,HEX,HEX,HEX,HEX,HEX,HEX,HEX,HEX,HEX,HEX
0,0,0,2a0000000000000000000000000000000000000000f0f0f0f0000000000000000000000000000000000000000083e3a9eb7503c9eb7503c8095503c7f6a42de069ed700503c8097503c7f68503c,7f68503c,7f68503c,8097503c,8097503c,d700503c,d700503c,42de069e,42de069e,503c7f6a,503c7f6a,503c8095,503c8095,503c9eb7,503c9eb7,3e3a9eb7,3e3a9eb7,8,0000,0000,0000,0000,0000,0000,0000,0000,00,00,00,00,f0,f0,f0,f0,0000,0000,0000,0000,0000,0000,0000,00,00,00,00,0,1,0,1,0,1
1,1,0,3a0000000000000000000000000000000000000000f0f0f0f00000000000000000000000000000000000000000828e1e722503ce722503c8094503c7f6b50edd8350f3a503c8096503c7f69503c,7f69503c,7f69503c,8096503c,8096503c,0f3a503c,0f3a503c,50edd835,50edd835,503c7f6b,503c7f6b,503c8094,503c8094,503ce722,503ce722,28e1e722,28e1e722,8,0000,0000,0000,0000,0000,0000,0000,0000,00,00,00,00,f0,f0,f0,f0,0000,0000,0000,0000,0000,0000,0000,00,00,00,00,0,1,0,1,1,1
2,2,0,3a0000000000000000000000000000000000000000f0f0f0f000000000000000000000000000000000000000008d081fdc0503cfdc0503c8093503c7f6ca54e997dcd41503c8095503c7f6a503c,7f6a503c,7f6a503c,8095503c,8095503c,cd41503c,cd41503c,a54e997d,a54e997d,503c7f6c,503c7f6c,503c8093,503c8093,503cfdc0,503cfdc0,d081fdc0,d081fdc0,8,0000,0000,0000,0000,0000,0000,0000,0000,00,00,00,00,f0,f0,f0,f0,0000,0000,0000,0000,0000,0000,0000,00,00,00,00,0,1,0,1,1,1
3,3,0,2b0000000000000000000000000000000000000000f0f0f0f000000000000000000000000000000000000000008c7529007503c9007503c8092503c7f6d3c8de041b9e3503c8094503c7f6b503c,7f6b503c,7f6b503c,8094503c,8094503c,b9e3503c,b9e3503c,3c8de041,3c8de041,503c7f6d,503c7f6d,503c8092,503c8092,503c9007,503c9007,c7529007,c7529007,8,0000,0000,0000,0000,0000,0000,0000,0000,00,00,00,00,f0,f0,f0,f0,0000,0000,0000,0000,0000,0000,0000,00,00,00,00,1,1,0,1,0,1
4,4,0,2b0000000000000000000000000000000000000000f0f0f0f0000000000000000000000000000000000000000088c1e87e1503c87e1503c8091503c7f6edf7516b615ec503c8093503c7f6c503c,7f6c503c,7f6c503c,8093503c,8093503c,15ec503c,15ec503c,df7516b6,df7516b6,503c7f6e,503c7f6e,503c8091,503c8091,503c87e1,503c87e1,8c1e87e1,8c1e87e1,8,0000,0000,0000,0000,0000,0000,0000,0000,00,00,00,00,f0,f0,f0,f0,0000,0000,0000,0000,0000,0000,0000,00,00,00,00,1,1,0,1,0,1
5,5,0,2a0000000000000000000000000000000000000000f0f0f0f000000000000000000000000000000000000000008cba1489f503c489f503c8090503c7f6f10f18ee547e4503c8092503c7f6d503c,7f6d503c,7f6d503c,8092503c,8092503c,47e4503c,47e4503c,10f18ee5,10f18ee5,503c7f6f,503c7f6f,503c8090,503c8090,503c489f,503c489f,cba1489f,cba1489f,8,0000,0000,0000,0000,0000,0000,0000,0000,00,00,00,00,f0,f0,f0,f0,0000,0000,0000,0000,0000,0000,0000,00,00,00,00,0,1,0,1,0,1
6,6,0,3a0000000000000000000000000000000000000000f0f0f0f0000000000000000000000000000000000000000084d88320c503c320c503c808f503c7f7024195646fe5e503c8091503c7f6e503c,7f6e503c,7f6e503c,8091503c,8091503c,fe5e503c,fe5e503c,24195646,24195646,503c7f70,503c7f70,503c808f,503c808f,503c320c,503c320c,4d88320c,4d88320c,8,0000,0000,0000,0000,0000,0000,0000,0000,00,00,00,00,f0,f0,f0,f0,0000,0000,0000,0000,0000,0000,0000,00,00,00,00,0,1,0,1,1,1
7,7,0,3a0000000000000000000000000000000000000000f0f0f0f000000000000000000000000000000000000000008afec988b503c988b503c808e503c7f7140afbdf2bd51503c8090503c7f6f503c,7f6f503c,7f6f503c,8090503c,8090503c,bd51503c,bd51503c,40afbdf2,40afbdf2,503c7f71,503c7f71,503c808e,503c808e,503c988b,503c988b,afec988b,afec988b,8,0000,0000,0000,0000,0000,0000,0000,0000,00,00,00,00,f0,f0,f0,f0,0000,0000,0000,0000,0000,0000,0000,00,00,00,00,0,1,0,1,1,1
8,8,0,2b0000000000000000000000000000000000000000f0f0f0f0000000000000000000000000000000000000000087c9120f7503c20f7503c808d503c7f728f43477dcfcc503c808f503c7f70503c,7f70503c,7f70503c,808f503c,808f503c,cfcc503c,cfcc503c,8f43477d,8f43477d,503c7f72,503c7f72,503c808d,503c808d,503c20f7,503c20f7,7c9120f7,7c9120f7,8,0000,0000,0000,0000,0000,0000,0000,0000,00,00,00,00,f0,f0,f0,f0,0000,0000,0000,0000,0000,0000,0000,00,00,00,00,1,1,0,1,0,1
9,9,0,2b0000000000000000000000000000000000000000f0f0f0f000000000000000000000000000000000000000008595b9fe1503c9fe1503c808c503c7f734229aaa84be6503c808e503c7f71503c,7f71503c,7f71503c,808e503c,808e503c,4be6503c,4be6503c,4229aaa8,4229aaa8,503c7f73,503c7f73,503c808c,503c808c,503c9fe1,503c9fe1,595b9fe1,595b9fe1,8,0000,0000,0000,0000,0000,0000,0000,0000,00,00,00,00,f0,f0,f0,f0,0000,0000,0000,0000,0000,0000,0000,00,00,00,00,1,1,0,1,0,1
10,10,0,2a0000000000000000000000000000000000000000f0f0f0f000000000000000000000000000000000000000008d2d1e630503ce630503c808b503c7f748fa716e974ec503c808d503c7f72503c,7f72503c,7f72503c,808d503c,808d503c,74ec503c,74ec503c,8fa716e9,8fa716e9,503c7f74,503c7f74,503c808b,503c808b,503ce630,503ce630,d2d1e630,d2d1e630,8,0000,0000,0000,0000,0000,0000,0000,0000,00,00,00,00,f0,f0,f0,f0,0000,0000,0000,0000,0000,0000,0000,00,00,00,00,0,1,0,1,0,1
11,11,0,3a0000000000000000000000000000000000000000f0f0f0f000000000000000000000000000000000000000008688b7006503c7006503c808a503c7f75fad77e0a9ea3503c808c503c7f73503c,7f73503c,7f73503c,808c503c,808c503c,9ea3503c,9ea3503c,fad77e0a,fad77e0a,503c7f75,503c7f75,503c808a,503c808a,503c7006,503c7006,688b7006,688b7006,8,0000,0000,0000,0000,0000,0000,0000,0000,00,00,00,00,f0,f0,f0,f0,0000,0000,0000,0000,0000,0000,0000,00,00,00,00,0,1,0,1,1,1
12,12,0,3a0000000000000000000000000000000000000000f0f0f0f0000000000000000000000000000000000000000088f8f638f503c638f503c8089503c7f7659d43ccba84a503c808b503c7f74503c,7f74503c,7f74503c,808b503c,808b503c,a84a503c,a84a503c,59d43ccb,59d43ccb,503c7f76,503c7f76,503c8089,503c8089,503c638f,503c638f,8f8f638f,8f8f638f,8,0000,0000,0000,0000,0000,0000,0000,0000,00,00,00,00,f0,f0,f0,f0,0000,0000,0000,0000,0000,0000,0000,00,00,00,00,0,1,0,1,1,1
13,13,0,2b0000000000000000000000000000000000000000f0f0f0f0000000000000000000000000000000000000000080b453184503c3184503c8088503c7f77b159c47ac88d503c808a503c7f75503c,7f75503c,7f75503c,808a503c,808a503c,c88d503c,c88d503c,b159c47a,b159c47a,503c7f77,503c7f77,503c8088,503c8088,503c3184,503c3184,0b453184,0b453184,8,0000,0000,0000,0000,0000,0000,0000,0000,00,00,00,00,f0,f0,f0,f0,0000,0000,0000,0000,0000,0000,0000,00,00,00,00,1,1,0,1,0,1
14,14,0,2b0000000000000000000000000000000000000000f0f0f0f000000000000000000000000000000000000000008ed0152bf503c52bf503c8087503c7f7879df16811e37503c8089503c7f76503c,7f76503c,7f76503c,8089503c,8089503c,1e37503c,1e37503c,79df1681,79df1681,503c7f78,503c7f78,503c8087,503c8087,503c52bf,503c52bf,ed0152bf,ed0152bf,8,0000,0000,0000,0000,0000,0000,0000,0000,00,00,00,00,f0,f0,f0,f0,0000,0000,0000,0000,0000,0000,0000,00,00,00,00,1,1,0,1,0,1
15,15,0,2a0000000000000000000000000000000000000000f0f0f0f000000000000000000000000000000000000000008f667b56e503cb56e503c8086503c7f791eae658542b0503c8088503c7f77503c,7f77503c,7f77503c,8088503c,8088503c,42b0503c,42b0503c,1eae6585,1eae6585,503c7f79,503c7f79,503c8086,503c8086,503cb56e,503cb56e,f667b56e,f667b56e,8,0000,0000,0000,0000,0000,0000,0000,0000,00,00,00,00,f0,f0,f0,f0,0000,0000,0000,0000,0000,0000,0000,00,00,00,00,0,1,0,1,0,1
16,16,0,3a0000000000000000000000000000000000000000f0f0f0f000000000000000000000000000000000000000008665f2b56503c2b56503c8085503c7f7ad0b48f82f5f6503c8087503c7f78503c,7f78503c,7f78503c,8087503c,8087503c,f5f6503c,f5f6503c,d0b48f82,d0b48f82,503c7f7a,503c7f7a,503c8085,503c8085,503c2b56,503c2b56,665f2b56,665f2b56,8,0000,0000,0000,0000,0000,0000,0000,0000,00,00,00,00,f0,f0,f0,f0,0000,0000,0000,0000,0000,0000,0000,00,00,00,00,0,1,0,1,1,1
17,17,0,3a0000000000000000000000000000000000000000f0f0f0f000000000000000000000000000000000000000008de39b736503cb736503c8084503c7f7becc568d3bb30503c8086503c7f79503c,7f79503c,7f79503c,8086503c,8086503c,bb30503c,bb30503c,ecc568d3,ecc568d3,503c7f7b,503c7f7b,503c8084,503c8084,503cb736,503cb736,de39b736,de39b736,8,0000,0000,0000,0000,0000,0000,0000,0000,00,00,00,00,f0,f0,f0,f0,0000,0000,0000,0000,0000,0000,0000,00,00,00,00,0,1,0,1,1,1
18,18,0,2b0000000000000000000000000000000000000000f0f0f0f00000000000000000000000000000000000000000833096c05503c6c05503c8083503c7f7ca41c267768d9503c8085503c7f7a503c,7f7a503c,7f7a503c,8085503c,8085503c,68d9503c,68d9503c,a41c2677,a41c2677,503c7f7c,503c7f7c,503c8083,503c8083,503c6c05,503c6c05,33096c05,33096c05,8,0000,0000,0000,0000,0000,0000,0000,0000,00,00,00,00,f0,f0,f0,f0,0000,0000,0000,0000,0000,0000,0000,00,00,00,00,1,1,0,1,0,1
19,19,0,2b0000000000000000000000000000000000000000f0f0f0f000000000000000000000000000000000000000008678445bc503c45bc503c8082503c7f7dad2c8de37d64503c8084503c7f7b503c,7f7b503c,7f7b503c,8084503c,8084503c,7d64503c,7d64503c,ad2c8de3,ad2c8de3,503c7f7d,503c7f7d,503c8082,503c8082,503c45bc,503c45bc,678445bc,678445bc,8,0000,0000,0000,0000,0000,0000,0000,0000,00,00,00,00,f0,f0,f0,f0,0000,0000,0000,0000,0000,0000,0000,00,00,00,00,1,1,0,1,0,1
20,20,0,2a0000000000000000000000000000000000000000f0f0f0f000000000000000000000000000000000000000008a64fe5d3503ce5d3503c8081503c7f7e083eba5cb543503c8083503c7f7c503c,7f7c503c,7f7c503c,8083503c,8083503c,b543503c,b543503c,083eba5c,083eba5c,503c7f7e,503c7f7e,503c8081,503c8081,503ce5d3,503ce5d3,a64fe5d3,a64fe5d3,8,0000,0000,0000,0000,0000,0000,0000,0000,00,00,00,00,f0,f0,f0,f0,0000,0000,0000,0000,0000,0000,0000,00,00,00,00,0,1,0,1,0,1
21,21,0,3a0000000000000000000000000000000000000000f0f0f0f0000000000000000000000000000000000000000089e7d6312503c6312503c8080503c7f7fe3f0d23daa45503c8082503c7f7d503c,7f7d503c,7f7d503c,8082503c,8082503c,aa45503c,aa45503c,e3f0d23d,e3f0d23d,503c7f7f,503c7f7f,503c8080,503c8080,503c6312,503c6312,9e7d6312,9e7d6312,8,0000,0000,0000,0000,0000,0000,0000,0000,00,00,00,00,f0,f0,f0,f0,0000,0000,0000,0000,0000,0000,0000,00,00,00,00,0,1,0,1,1,1
22,22,0,3a0000000000000000000000000000000000000000f0f0f0f00000000000000000000000000000000000000000880963225503c3225503c807f503c7f8010ce85814464503c8081503c7f7e503c,7f7e503c,7f7e503c,8081503c,8081503c,4464503c,4464503c,10ce8581,10ce8581,503c7f80,503c7f80,503c807f,503c807f,503c3225,503c3225,80963225,80963225,8,0000,0000,0000,0000,0000,0000,0000,0000,00,00,00,00,f0,f0,f0,f0,0000,0000,0000,0000,0000,0000,0000,00,00,00,00,0,1,0,1,1,1
23,23,0,2b0000000000000000000000000000000000000000f0f0f0f0000000000000000000000000000000000000000086d026d48503c6d48503c807e503c7f81c4ca0145d424503c8080503c7f7f503c,7f7f503c,7f7f503c,8080503c,8080503c,d424503c,d424503c,c4ca0145,c4ca0145,503c7f81,503c7f81,503c807e,503c807e,503c6d48,503c6d48,6d026d48,6d026d48,8,0000,0000,0000,0000,0000,0000,0000,0000,00,00,00,00,f0,f0,f0,f0,0000,0000,0000,0000,0000,0000,0000,00,00,00,00,1,1,0,1,0,1
24,24,0,2b0000000000000000000000000000000000000000f0f0f0f00000000000000000000000000000000000000000845bda31a503ca31a503c807d503c7f82462a1fc202fe503c807f503c7f80503c,7f80503c,7f80503c,807f503c,807f503c,02fe503c,02fe503c,462a1fc2,462a1fc2,503c7f82,503c7f82,503c807d,503c807d,503ca31a,503ca31a,45bda31a,45bda31a,8,0000,0000,0000,0000,0000,0000,0000,0000,00,00,00,00,f0,f0,f0,f0,0000,0000,0000,0000,0000,0000,0000,00,00,00,00,1,1,0,1,0,1
25,25,0,2a0000000000000000000000000000000000000000f0f0f0f000000000000000000000000000000000000000008d96169ee503c69ee503c807c503c7f838628f4bdfd2a503c807e503c7f81503c,7f81503c,7f81503c,807e503c,807e503c,fd2a503c,fd2a503c,8628f4bd,8628f4bd,503c7f83,503c7f83,503c807c,503c807c,503c69ee,503c69ee,d96169ee,d96169ee,8,0000,0000,0000,0000,0000,0000,0000,0000,00,00,00,00,f0,f0,f0,f0,0000,0000,0000,0000,0000,0000,0000,00,00,00,00,0,1,0,1,0,1
26,26,0,3a0000000000000000000000000000000000000000f0f0f0f000000000000000000000000000000000000000008610bca58503cca58503c807b503c7f84f246c9f896bb503c807d503c7f82503c,7f82503c,7f82503c,807d503c,807d503c,96bb503c,96bb503c,f246c9f8,f246c9f8,503c7f84,503c7f84,503c807b,503c807b,503cca58,503cca58,610bca58,610bca58,8,0000,0000,0000,0000,0000,0000,0000,0000,00,00,00,00,f0,f0,f0,f0,0000,0000,0000,0000,0000,0000,0000,00,00,00,00,0,1,0,1,1,1
27,27,0,3a0000000000000000000000000000000000000000f0f0f0f000000000000000000000000000000000000000008b1120f26503c0f26503c807a503c7f851c0afcff499c503c807c503c7f83503c,7f83503c,7f83503c,807c503c,807c503c,499c503c,499c503c,1c0afcff,1c0afcff,503c7f85,503c7f85,503c807a,503c807a,503c0f26,503c0f26,b1120f26,b1120f26,8,0000,0000,0000,0000,0000,0000,0000,0000,00,00,00,00,f0,f0,f0,f0,0000,0000,0000,0000,0000,0000,0000,00,00,00,00,0,1,0,1,1,1
28,28,0,2b0000000000000000000000000000000000000000f0f0f0f00000000000000000000000000000000000000000853ea7775503c7775503c8079503c7f86e477361bf87d503c807b503c7f84503c,7f84503c,7f84503c,807b503c,807b503c,f87d503c,f87d503c,e477361b,e477361b,503c7f86,503c7f86,503c8079,503c8079,503c7775,503c7775,53ea7775,53ea7775,8,0000,0000,0000,0000,0000,0000,0000,0000,00,00,00,00,f0,f0,f0,f0,0000,0000,0000,0000,0000,0000,0000,00,00,00,00,1,1,0,1,0,1
29,29,0,2b0000000000000000000000000000000000000000f0f0f0f00000000000000000000000000000000000000000800562478503c2478503c8078503c7f87068163dc9b79503c807a503c7f85503c,7f85503c,7f85503c,807a503c,807a503c,9b79503c,9b79503c,068163dc,068163dc,503c7f87,503c7f87,503c8078,503c8078,503c2478,503c2478,00562478,00562478,8,0000,0000,0000,0000,0000,0000,0000,0000,00,00,00,00,f0,f0,f0,f0,0000,0000,0000,0000,0000,0000,0000,00,00,00,00,1,1,0,1,0,1
30,30,0,2a0000000000000000000000000000000000000000f0f0f0f0000000000000000000000000000000000000000080abec7d6503cc7d6503c8077503c7f8857d46f49a84f503c8079503c7f86503c,7f86503c,7f86503c,8079503c,8079503c,a84f503c,a84f503c,57d46f49,57d46f49,503c7f88,503c7f88,503c8077,503c8077,503cc7d6,503cc7d6,0abec7d6,0abec7d6,8,0000,0000,0000,0000,0000,0000,0000,0000,00,00,00,00,f0,f0,f0,f0,0000,0000,0000,0000,0000,0000,0000,00,00,00,00,0,1,0,1,0,1
31,31,0,3a0000000000000000000000000000000000000000f0f0f0f000000000000000000000000000000000000000008b9e700ca503c00ca503c8076503c7f89374d9621e9e5503c8078503c7f87503c,7f87503c,7f87503c,8078503c,8078503c,e9e5503c,e9e5503c,374d9621,374d9621,503c7f89,503c7f89,503c8076,503c8076,503c00ca,503c00ca,b9e700ca,b9e700ca,8,0000,0000,0000,0000,0000,0000,0000,0000,00,00,00,00,f0,f0,f0,f0,0000,0000,0000,0000,0000,0000,0000,00,00,00,00,0,1,0,1,1,1
32,32,0,3a0000000000000000000000000000000000000000f0f0f0f000000000000000000000000000000000000000008980963f8503c63f8503c8075503c7f8ab50d8e6cc9e4503c8077503c7f88503c,7f88503c,7f88503c,8077503c,8077503c,c9e4503c,c9e4503c,b50d8e6c,b50d8e6c,503c7f8a,503c7f8a,503c8075,503c8075,503c63f8,503c63f8,980963f8,980963f8,8,0000,0000,0000,0000,0000,0000,0000,0000,00,00,00,00,f0,f0,f0,f0,0000,0000,0000,0000,0000,0000,0000,00,00,00,00,0,1,0,1,1,1
33,33,0,2b0000000000000000000000000000000000000000f0f0f0f0000000000000000000000000000000000000000082e0c59d6503c59d6503c8074503c7f8bbac100d60fec503c8076503c7f89503c,7f89503c,7f89503c,8076503c,8076503c,0fec503c,0fec503c,bac100d6,bac100d6,503c7f8b,503c7f8b,503c8074,503c8074,503c59d6,503c59d6,2e0c59d6,2e0c59d6,8,0000,0000,0000,0000,0000,0000,0000,0000,00,00,00,00,f0,f0,f0,f0,0000,0000,0000,0000,0000,0000,0000,00,00,00,00,1,1,0,1,0,1
34,34,0,2b0000000000000000000000000000000000000000f0f0f0f00000000000000000000000000000000000000000857fe116d503c116d503c8073503c7f8c6e8f0ff09b80503c8075503c7f8a503c,7f8a503c,7f8a503c,8075503c,8075503c,9b80503c,9b80503c,6e8f0ff0,6e8f0ff0,503c7f8c,503c7f8c,503c8073,503c8073,503c116d,503c116d,57fe116d,57fe116d,8,0000,0000,0000,0000,0000,0000,0000,0000,00,00,00,00,f0,f0,f0,f0,0000,0000,0000,0000,0000,0000,0000,00,00,00,00,1,1,0,1,0,1
35,35,0,2a0000000000000000000000000000000000000000f0f0f0f000000000000000000000000000000000000000008a105afb5503cafb5503c8072503c7f8d5a7daeb9b1e6503c8074503c7f8b503c,7f8b503c,7f8b503c,8074503c,8074503c,b1e6503c,b1e6503c,5a7daeb9,5a7daeb9,503c7f8d,503c7f8d,503c8072,503c8072,503cafb5,503cafb5,a105afb5,a105afb5,8,0000,0000,0000,0000,0000,0000,0000,0000,00,00,00,00,f0,f0,f0,f0,0000,0000,0000,0000,0000,0000,0000,00,00,00,00,0,1,0,1,0,1
36,36,0,3a0000000000000000000000000000000000000000f0f0f0f0000000000000000000000000000000000000000086f866f88503c6f88503c8071503c7f8e40d6bb6e2867503c8073503c7f8c503c,7f8c503c,7f8c503c,8073503c,8073503c,2867503c,2867503c,40d6bb6e,40d6bb6e,503c7f8e,503c7f8e,503c8071,503c8071,503c6f88,503c6f88,6f866f88,6f866f88,8,0000,0000,0000,0000,0000,0000,0000,0000,00,00,00,00,f0,f0,f0,f0,0000,0000,0000,0000,0000,0000,0000,00,00,00,00,0,1,0,1,1,1
37,37,0,3a0000000000000000000000000000000000000000f0f0f0f00000000000000000000000000000000000000000872a0cb4d503ccb4d503c8070503c7f8fe2af7fbf0b87503c8072503c7f8d503c,7f8d503c,7f8d503c,8072503c,8072503c,0b87503c,0b87503c,e2af7fbf,e2af7fbf,503c7f8f,503c7f8f,503c8070,503c8070,503ccb4d,503ccb4d,72a0cb4d,72a0cb4d,8,0000,0000,0000,0000,0000,0000,0000,0000,00,00,00,00,f0,f0,f0,f0,0000,0000,0000,0000,0000,0000,0000,00,00,00,00,0,1,0,1,1,1
38,38,0,2b0000000000000000000000000000000000000000f0f0f0f00000000000000000000000000000000000000000856037c1b503c7c1b503c806f503c7f90eedff8512c70503c8071503c7f8e503c,7f8e503c,7f8e503c,8071503c,8071503c,2c70503c,2c70503c,eedff851,eedff851,503c7f90,503c7f90,503c806f,503c806f,503c7c1b,503c7c1b,56037c1b,56037c1b,8,0000,0000,0000,0000,0000,0000,0000,0000,00,00,00,00,f0,f0,f0,f0,0000,0000,0000,0000,0000,0000,0000,00,00,00,00,1,1,0,1,0,1
39,39,0,2b0000000000000000000000000000000000000000f0f0f0f00000000000000000000000000000000000000000865c199d2503c99d2503c806e503c7f91417b91d6ce77503c8070503c7f8f503c,7f8f503c,7f8f503c,8070503c,8070503c,ce77503c,ce77503c,417b91d6,417b91d6,503c7f91,503c7f91,503c806e,503c806e,503c99d2,503c99d2,65c199d2,65c199d2,8,0000,0000,0000,0000,0000,0000,0000,0000,00,00,00,00,f0,f0,f0,f0,0000,0000,0000,0000,0000,0000,0000,00,00,00,00,1,1,0,1,0,1
40,40,0,2a0000000000000000000000000000000000000000f0f0f0f000000000000000000000000000000000000000008bef75a84503c5a84503c806d503c7f92fd6d761ceba3503c806f503c7f90503c,7f90503c,7f90503c,806f503c,806f503c,eba3503c,eba3503c,fd6d761c,fd6d761c,503c7f92,503c7f92,503c806d,503c806d,503c5a84,503c5a84,bef75a84,bef75a84,8,0000,0000,0000,0000,0000,0000,0000,0000,00,00,00,00,f0,f0,f0,f0,0000,0000,0000,0000,0000,0000,0000,00,00,00,00,0,1,0,1,0,1
41,41,0,3a0000000000000000000000000000000000000000f0f0f0f000000000000000000000000000000000000000008545367eb503c67eb503c806c503c7f93c43667c5b5dd503c806e503c7f91503c,7f91503c,7f91503c,806e503c,806e503c,b5dd503c,b5dd503c,c43667c5,c43667c5,503c7f93,503c7f93,503c806c,503c806c,503c67eb,503c67eb,545367eb,545367eb,8,0000,0000,0000,0000,0000,0000,0000,0000,00,00,00,00,f0,f0,f0,f0,0000,0000,0000,0000,0000,0000,0000,00,00,00,00,0,1,0,1,1,1
42,42,0,3a0000000000000000000000000000000000000000f0f0f0f000000000000000000000000000000000000000008365d3ab9503c3ab9503c806b503c7f9471350cb5ee80503c806d503c7f92503c,7f92503c,7f92503c,806d503c,806d503c,ee80503c,ee80503c,71350cb5,71350cb5,503c7f94,503c7f94,503c806b,503c806b,503c3ab9,503c3ab9,365d3ab9,365d3ab9,8,0000,0000,0000,0000,0000,0000,0000,0000,00,00,00,00,f0,f0,f0,f0,0000,0000,0000,0000,0000,0000,0000,00,00,00,00,0,1,0,1,1,1
