Sample in Buffer,Sample in Window,TRIGGER,ila_data[617:0],receiver_0[31:0],userdata_rx_0[31:0],receiver_1[31:0],userdata_rx_1[31:0],userdata_rx_2[31:0],receiver_2[31:0],userdata_rx_3[31:0],receiver_3[31:0],userdata_tx_0[31:0],transmitter_0[31:0],userdata_tx_1[31:0],transmitter_1[31:0],userdata_tx_2[31:0],transmitter_2[31:0],transmitter_3[31:0],userdata_tx_3[31:0],prbs_match_int[3:0],ch0_rxctrl0_int[15:0],ch1_rxctrl0_int[15:0],ch2_rxctrl0_int[15:0],ch3_rxctrl0_int[15:0],ch0_rxctrl1_int[15:0],ch1_rxctrl1_int[15:0],ch2_rxctrl1_int[15:0],ch3_rxctrl1_int[15:0],ch0_rxctrl2_int[7:0],ch1_rxctrl2_int[7:0],ch2_rxctrl2_int[7:0],ch3_rxctrl2_int[7:0],ch0_rxctrl3_int[7:0],ch1_rxctrl3_int[7:0],ch2_rxctrl3_int[7:0],ch3_rxctrl3_int[7:0],ch0_txctrl0_int[15:0],ch1_txctrl0_int[15:0],ch2_txctrl0_int[15:0],ch3_txctrl0_int[15:0],ch0_txctrl1_int[15:0],ch2_txctrl1_int[15:0],ch3_txctrl1_int[15:0],ch0_txctrl2_int[7:0],ch1_txctrl2_int[7:0],ch2_txctrl2_int[7:0],ch3_txctrl2_int[7:0],hb0_gtwiz_userclk_rx_usrclk2_int,hb0_gtwiz_userclk_rx_active_int,hb_gtwiz_reset_all_int,hb0_gtwiz_reset_rx_done_int,hb0_gtwiz_userclk_tx_usrclk2_int,hb0_gtwiz_userclk_tx_active_int
Radix - UNSIGNED,UNSIGNED,UNSIGNED,HEX,HEX,HEX,HEX,HEX,HEX,HEX,HEX,HEX,HEX,HEX,HEX,HEX,HEX,HEX,HEX,HEX,HEX,HEX,HEX,HEX,HEX,HEX,HEX,HEX,HEX,HEX,HEX,HEX,HEX,HEX,HEX,HEX,HEX,HEX,HEX,HEX,HEX,HEX,HEX,HEX,HEX,HEX,HEX,HEX,HEX,HEX,HEX,HEX,HEX,HEX
0,0,0,2b0000000000000000000000000000000000000000f0f0f0f00000000000000000000000000000000000000000f0f8215970f8215970f8215970f821597901d9b3f38df2c01901d9b3f38df2c01,38df2c01,38df2c01,901d9b3f,901d9b3f,38df2c01,38df2c01,901d9b3f,901d9b3f,0f821597,0f821597,0f821597,0f821597,0f821597,0f821597,0f821597,0f821597,f,0000,0000,0000,0000,0000,0000,0000,0000,00,00,00,00,f0,f0,f0,f0,0000,0000,0000,0000,0000,0000,0000,00,00,00,00,1,1,0,1,0,1
1,1,0,2a0000000000000000000000000000000000000000f0f0f0f00000000000000000000000000000000000000000f3a36a9873a36a9873a36a9873a36a987229f09b750dabbec229f09b750dabbec,50dabbec,50dabbec,229f09b7,229f09b7,50dabbec,50dabbec,229f09b7,229f09b7,3a36a987,3a36a987,3a36a987,3a36a987,3a36a987,3a36a987,3a36a987,3a36a987,f,0000,0000,0000,0000,0000,0000,0000,0000,00,00,00,00,f0,f0,f0,f0,0000,0000,0000,0000,0000,0000,0000,00,00,00,00,0,1,0,1,0,1
2,2,0,3a0000000000000000000000000000000000000000f0f0f0f00000000000000000000000000000000000000000ffa8208f2fa8208f2fa8208f2fa8208f2dc44eb496a302cf3dc44eb496a302cf3,6a302cf3,6a302cf3,dc44eb49,dc44eb49,6a302cf3,6a302cf3,dc44eb49,dc44eb49,fa8208f2,fa8208f2,fa8208f2,fa8208f2,fa8208f2,fa8208f2,fa8208f2,fa8208f2,f,0000,0000,0000,0000,0000,0000,0000,0000,00,00,00,00,f0,f0,f0,f0,0000,0000,0000,0000,0000,0000,0000,00,00,00,00,0,1,0,1,1,1
3,3,0,3b0000000000000000000000000000000000000000f0f0f0f00000000000000000000000000000000000000000f7b1ba6fe7f13ac2e6b37be6e7f13b6fefc3a7ffb6ad1249afc3a7ffb6ad1249a,6ad1249a,6ad1249a,fc3a7ffb,fc3a7ffb,6ad1249a,6ad1249a,fc3a7ffb,fc3a7ffb,7f13b6fe,7f13b6fe,6b37be6e,6b37be6e,7f13ac2e,7f13ac2e,7b1ba6fe,7b1ba6fe,f,0000,0000,0000,0000,0000,0000,0000,0000,00,00,00,00,f0,f0,f0,f0,0000,0000,0000,0000,0000,0000,0000,00,00,00,00,1,1,0,1,1,1
4,4,0,2b0000000000000000000000000000000000000000f0f0f0f00000000000000000000000000000000000000000f6a1b66586a1b66586a1b66586a1b6658f8af51200f485755f8af51200f485755,0f485755,0f485755,f8af5120,f8af5120,0f485755,0f485755,f8af5120,f8af5120,6a1b6658,6a1b6658,6a1b6658,6a1b6658,6a1b6658,6a1b6658,6a1b6658,6a1b6658,f,0000,0000,0000,0000,0000,0000,0000,0000,00,00,00,00,f0,f0,f0,f0,0000,0000,0000,0000,0000,0000,0000,00,00,00,00,1,1,0,1,0,1
5,5,0,2b0000000000000000000000000000000000000000f0f0f0f00000000000000000000000000000000000000000fe5c61e2fe5c61e2fe5c61e2fe5c61e2f5e25f2d3275fe6885e25f2d3275fe688,275fe688,275fe688,5e25f2d3,5e25f2d3,275fe688,275fe688,5e25f2d3,5e25f2d3,e5c61e2f,e5c61e2f,e5c61e2f,e5c61e2f,e5c61e2f,e5c61e2f,e5c61e2f,e5c61e2f,f,0000,0000,0000,0000,0000,0000,0000,0000,00,00,00,00,f0,f0,f0,f0,0000,0000,0000,0000,0000,0000,0000,00,00,00,00,1,1,0,1,0,1
6,6,0,2a0000000000000000000000000000000000000000f0f0f0f00000000000000000000000000000000000000000fd65aa8ebd65aa8ebd65aa8ebd65aa8eba1ae83b672fd52caa1ae83b672fd52ca,72fd52ca,72fd52ca,a1ae83b6,a1ae83b6,72fd52ca,72fd52ca,a1ae83b6,a1ae83b6,d65aa8eb,d65aa8eb,d65aa8eb,d65aa8eb,d65aa8eb,d65aa8eb,d65aa8eb,d65aa8eb,f,0000,0000,0000,0000,0000,0000,0000,0000,00,00,00,00,f0,f0,f0,f0,0000,0000,0000,0000,0000,0000,0000,00,00,00,00,0,1,0,1,0,1
7,7,0,3a0000000000000000000000000000000000000000f0f0f0f00000000000000000000000000000000000000000f229ea453229ea453229ea453229ea453356c0763e823811b356c0763e823811b,e823811b,e823811b,356c0763,356c0763,e823811b,e823811b,356c0763,356c0763,229ea453,229ea453,229ea453,229ea453,229ea453,229ea453,229ea453,229ea453,f,0000,0000,0000,0000,0000,0000,0000,0000,00,00,00,00,f0,f0,f0,f0,0000,0000,0000,0000,0000,0000,0000,00,00,00,00,0,1,0,1,1,1
8,8,0,3b0000000000000000000000000000000000000000f0f0f0f00000000000000000000000000000000000000000f304426c826c42e4830a02e4824c426caa1d5afc0a97bdb1da1d5afc0a97bdb1d,a97bdb1d,a97bdb1d,a1d5afc0,a1d5afc0,a97bdb1d,a97bdb1d,a1d5afc0,a1d5afc0,24c426ca,24c426ca,30a02e48,30a02e48,26c42e48,26c42e48,304426c8,304426c8,f,0000,0000,0000,0000,0000,0000,0000,0000,00,00,00,00,f0,f0,f0,f0,0000,0000,0000,0000,0000,0000,0000,00,00,00,00,1,1,0,1,1,1
9,9,0,2b0000000000000000000000000000000000000000f0f0f0f00000000000000000000000000000000000000000f07357afc07357afc07357afc07357afc9e832be44b88bfce9e832be44b88bfce,4b88bfce,4b88bfce,9e832be4,9e832be4,4b88bfce,4b88bfce,9e832be4,9e832be4,07357afc,07357afc,07357afc,07357afc,07357afc,07357afc,07357afc,07357afc,f,0000,0000,0000,0000,0000,0000,0000,0000,00,00,00,00,f0,f0,f0,f0,0000,0000,0000,0000,0000,0000,0000,00,00,00,00,1,1,0,1,0,1
10,10,0,2b0000000000000000000000000000000000000000f0f0f0f00000000000000000000000000000000000000000fcdeedfabcdeedfabcdeedfabcdeedfab4537246785375ca44537246785375ca4,85375ca4,85375ca4,45372467,45372467,85375ca4,85375ca4,45372467,45372467,cdeedfab,cdeedfab,cdeedfab,cdeedfab,cdeedfab,cdeedfab,cdeedfab,cdeedfab,f,0000,0000,0000,0000,0000,0000,0000,0000,00,00,00,00,f0,f0,f0,f0,0000,0000,0000,0000,0000,0000,0000,00,00,00,00,1,1,0,1,0,1
11,11,0,2a0000000000000000000000000000000000000000f0f0f0f00000000000000000000000000000000000000000fbae46cf0bae46cf0bae46cf0bae46cf00c8dd751dd4decc40c8dd751dd4decc4,dd4decc4,dd4decc4,0c8dd751,0c8dd751,dd4decc4,dd4decc4,0c8dd751,0c8dd751,bae46cf0,bae46cf0,bae46cf0,bae46cf0,bae46cf0,bae46cf0,bae46cf0,bae46cf0,f,0000,0000,0000,0000,0000,0000,0000,0000,00,00,00,00,f0,f0,f0,f0,0000,0000,0000,0000,0000,0000,0000,00,00,00,00,0,1,0,1,0,1
12,12,0,3a0000000000000000000000000000000000000000f0f0f0f00000000000000000000000000000000000000000f9e6694db9e6694db9e6694db9e6694db0482bb0aa2af65420482bb0aa2af6542,a2af6542,a2af6542,0482bb0a,0482bb0a,a2af6542,a2af6542,0482bb0a,0482bb0a,9e6694db,9e6694db,9e6694db,9e6694db,9e6694db,9e6694db,9e6694db,9e6694db,f,0000,0000,0000,0000,0000,0000,0000,0000,00,00,00,00,f0,f0,f0,f0,0000,0000,0000,0000,0000,0000,0000,00,00,00,00,0,1,0,1,1,1
13,13,0,3b0000000000000000000000000000000000000000f0f0f0f00000000000000000000000000000000000000000ff94b45b4fb4b4da4a92f6da4f94b45b6680df48ef1dfeb90680df48ef1dfeb90,f1dfeb90,f1dfeb90,680df48e,680df48e,f1dfeb90,f1dfeb90,680df48e,680df48e,f94b45b6,f94b45b6,a92f6da4,a92f6da4,fb4b4da4,fb4b4da4,f94b45b4,f94b45b4,f,0000,0000,0000,0000,0000,0000,0000,0000,00,00,00,00,f0,f0,f0,f0,0000,0000,0000,0000,0000,0000,0000,00,00,00,00,1,1,0,1,1,1
14,14,0,2b0000000000000000000000000000000000000000f0f0f0f00000000000000000000000000000000000000000fa20e96a2a20e96a2a20e96a2a20e96a21903d49a9e3fa2991903d49a9e3fa299,9e3fa299,9e3fa299,1903d49a,1903d49a,9e3fa299,9e3fa299,1903d49a,1903d49a,a20e96a2,a20e96a2,a20e96a2,a20e96a2,a20e96a2,a20e96a2,a20e96a2,a20e96a2,f,0000,0000,0000,0000,0000,0000,0000,0000,00,00,00,00,f0,f0,f0,f0,0000,0000,0000,0000,0000,0000,0000,00,00,00,00,1,1,0,1,0,1
15,15,0,2b0000000000000000000000000000000000000000f0f0f0f00000000000000000000000000000000000000000fdf85acaddf85acaddf85acaddf85acadc608d4d07c6214c7c608d4d07c6214c7,7c6214c7,7c6214c7,c608d4d0,c608d4d0,7c6214c7,7c6214c7,c608d4d0,c608d4d0,df85acad,df85acad,df85acad,df85acad,df85acad,df85acad,df85acad,df85acad,f,0000,0000,0000,0000,0000,0000,0000,0000,00,00,00,00,f0,f0,f0,f0,0000,0000,0000,0000,0000,0000,0000,00,00,00,00,1,1,0,1,0,1
16,16,0,2a0000000000000000000000000000000000000000f0f0f0f00000000000000000000000000000000000000000fb1e50930b1e50930b1e50930b1e5093015a2eff1e98b493b15a2eff1e98b493b,e98b493b,e98b493b,15a2eff1,15a2eff1,e98b493b,e98b493b,15a2eff1,15a2eff1,b1e50930,b1e50930,b1e50930,b1e50930,b1e50930,b1e50930,b1e50930,b1e50930,f,0000,0000,0000,0000,0000,0000,0000,0000,00,00,00,00,f0,f0,f0,f0,0000,0000,0000,0000,0000,0000,0000,00,00,00,00,0,1,0,1,0,1
17,17,0,3a0000000000000000000000000000000000000000f0f0f0f00000000000000000000000000000000000000000fe75d3102e75d3102e75d3102e75d3102739efbe81bb49b47739efbe81bb49b47,1bb49b47,1bb49b47,739efbe8,739efbe8,1bb49b47,1bb49b47,739efbe8,739efbe8,e75d3102,e75d3102,e75d3102,e75d3102,e75d3102,e75d3102,e75d3102,e75d3102,f,0000,0000,0000,0000,0000,0000,0000,0000,00,00,00,00,f0,f0,f0,f0,0000,0000,0000,0000,0000,0000,0000,00,00,00,00,0,1,0,1,1,1
18,18,0,3b0000000000000000000000000000000000000000f0f0f0f00000000000000000000000000000000000000000ff33c16a0f3bc1ca0b3dc1ea0f3bc16a25b850cb1647ab08c5b850cb1647ab08c,647ab08c,647ab08c,5b850cb1,5b850cb1,647ab08c,647ab08c,5b850cb1,5b850cb1,f3bc16a2,f3bc16a2,b3dc1ea0,b3dc1ea0,f3bc1ca0,f3bc1ca0,f33c16a0,f33c16a0,f,0000,0000,0000,0000,0000,0000,0000,0000,00,00,00,00,f0,f0,f0,f0,0000,0000,0000,0000,0000,0000,0000,00,00,00,00,1,1,0,1,1,1
19,19,0,2b0000000000000000000000000000000000000000f0f0f0f00000000000000000000000000000000000000000facd93506acd93506acd93506acd93506151e89fe17262927151e89fe17262927,17262927,17262927,151e89fe,151e89fe,17262927,17262927,151e89fe,151e89fe,acd93506,acd93506,acd93506,acd93506,acd93506,acd93506,acd93506,acd93506,f,0000,0000,0000,0000,0000,0000,0000,0000,00,00,00,00,f0,f0,f0,f0,0000,0000,0000,0000,0000,0000,0000,00,00,00,00,1,1,0,1,0,1
20,20,0,2b0000000000000000000000000000000000000000f0f0f0f00000000000000000000000000000000000000000fb00dd0e6b00dd0e6b00dd0e6b00dd0e6e4cbb2e914f65028e4cbb2e914f65028,14f65028,14f65028,e4cbb2e9,e4cbb2e9,14f65028,14f65028,e4cbb2e9,e4cbb2e9,b00dd0e6,b00dd0e6,b00dd0e6,b00dd0e6,b00dd0e6,b00dd0e6,b00dd0e6,b00dd0e6,f,0000,0000,0000,0000,0000,0000,0000,0000,00,00,00,00,f0,f0,f0,f0,0000,0000,0000,0000,0000,0000,0000,00,00,00,00,1,1,0,1,0,1
21,21,0,2a0000000000000000000000000000000000000000f0f0f0f00000000000000000000000000000000000000000ff1b638adf1b638adf1b638adf1b638ad09cda9e8f220bb4609cda9e8f220bb46,f220bb46,f220bb46,09cda9e8,09cda9e8,f220bb46,f220bb46,09cda9e8,09cda9e8,f1b638ad,f1b638ad,f1b638ad,f1b638ad,f1b638ad,f1b638ad,f1b638ad,f1b638ad,f,0000,0000,0000,0000,0000,0000,0000,0000,00,00,00,00,f0,f0,f0,f0,0000,0000,0000,0000,0000,0000,0000,00,00,00,00,0,1,0,1,0,1
22,22,0,3a0000000000000000000000000000000000000000f0f0f0f00000000000000000000000000000000000000000fe431c9e4e431c9e4e431c9e4e431c9e44173c3c31ec076ac4173c3c31ec076ac,1ec076ac,1ec076ac,4173c3c3,4173c3c3,1ec076ac,1ec076ac,4173c3c3,4173c3c3,e431c9e4,e431c9e4,e431c9e4,e431c9e4,e431c9e4,e431c9e4,e431c9e4,e431c9e4,f,0000,0000,0000,0000,0000,0000,0000,0000,00,00,00,00,f0,f0,f0,f0,0000,0000,0000,0000,0000,0000,0000,00,00,00,00,0,1,0,1,1,1
23,23,0,3b0000000000000000000000000000000000000000f0f0f0f00000000000000000000000000000000000000000f7fbfc8a75f3fc7755f6fd13d7f3fd9a726efae1e7d92fc4a26efae1e7d92fc4a,7d92fc4a,7d92fc4a,26efae1e,26efae1e,7d92fc4a,7d92fc4a,26efae1e,26efae1e,7f3fd9a7,7f3fd9a7,5f6fd13d,5f6fd13d,5f3fc775,5f3fc775,7fbfc8a7,7fbfc8a7,f,0000,0000,0000,0000,0000,0000,0000,0000,00,00,00,00,f0,f0,f0,f0,0000,0000,0000,0000,0000,0000,0000,00,00,00,00,1,1,0,1,1,1
24,24,0,2b0000000000000000000000000000000000000000f0f0f0f00000000000000000000000000000000000000000f05bf5b8c05bf5b8c05bf5b8c05bf5b8cc76dc31dc8207720c76dc31dc8207720,c8207720,c8207720,c76dc31d,c76dc31d,c8207720,c8207720,c76dc31d,c76dc31d,05bf5b8c,05bf5b8c,05bf5b8c,05bf5b8c,05bf5b8c,05bf5b8c,05bf5b8c,05bf5b8c,f,0000,0000,0000,0000,0000,0000,0000,0000,00,00,00,00,f0,f0,f0,f0,0000,0000,0000,0000,0000,0000,0000,00,00,00,00,1,1,0,1,0,1
25,25,0,2b0000000000000000000000000000000000000000f0f0f0f00000000000000000000000000000000000000000f1381e7251381e7251381e7251381e7252f07507c255a1c952f07507c255a1c95,255a1c95,255a1c95,2f07507c,2f07507c,255a1c95,255a1c95,2f07507c,2f07507c,1381e725,1381e725,1381e725,1381e725,1381e725,1381e725,1381e725,1381e725,f,0000,0000,0000,0000,0000,0000,0000,0000,00,00,00,00,f0,f0,f0,f0,0000,0000,0000,0000,0000,0000,0000,00,00,00,00,1,1,0,1,0,1
26,26,0,2a0000000000000000000000000000000000000000f0f0f0f00000000000000000000000000000000000000000f67eb6c0767eb6c0767eb6c0767eb6c07b35cda69acddf59fb35cda69acddf59f,acddf59f,acddf59f,b35cda69,b35cda69,acddf59f,acddf59f,b35cda69,b35cda69,67eb6c07,67eb6c07,67eb6c07,67eb6c07,67eb6c07,67eb6c07,67eb6c07,67eb6c07,f,0000,0000,0000,0000,0000,0000,0000,0000,00,00,00,00,f0,f0,f0,f0,0000,0000,0000,0000,0000,0000,0000,00,00,00,00,0,1,0,1,0,1
27,27,0,3a0000000000000000000000000000000000000000f0f0f0f00000000000000000000000000000000000000000fc9ecebafc9ecebafc9ecebafc9ecebaf6f28fc48250ff8636f28fc48250ff863,250ff863,250ff863,6f28fc48,6f28fc48,250ff863,250ff863,6f28fc48,6f28fc48,c9ecebaf,c9ecebaf,c9ecebaf,c9ecebaf,c9ecebaf,c9ecebaf,c9ecebaf,c9ecebaf,f,0000,0000,0000,0000,0000,0000,0000,0000,00,00,00,00,f0,f0,f0,f0,0000,0000,0000,0000,0000,0000,0000,00,00,00,00,0,1,0,1,1,1
28,28,0,3b0000000000000000000000000000000000000000f0f0f0f00000000000000000000000000000000000000000fdaa95786d9a15dc69a854f86daa147865e09d91cd8f20c4f5e09d91cd8f20c4f,d8f20c4f,d8f20c4f,5e09d91c,5e09d91c,d8f20c4f,d8f20c4f,5e09d91c,5e09d91c,daa14786,daa14786,9a854f86,9a854f86,d9a15dc6,d9a15dc6,daa95786,daa95786,f,0000,0000,0000,0000,0000,0000,0000,0000,00,00,00,00,f0,f0,f0,f0,0000,0000,0000,0000,0000,0000,0000,00,00,00,00,1,1,0,1,1,1
29,29,0,2b0000000000000000000000000000000000000000f0f0f0f00000000000000000000000000000000000000000fa3c724b0a3c724b0a3c724b0a3c724b0bd2ed4ef68b4cfdabd2ed4ef68b4cfda,68b4cfda,68b4cfda,bd2ed4ef,bd2ed4ef,68b4cfda,68b4cfda,bd2ed4ef,bd2ed4ef,a3c724b0,a3c724b0,a3c724b0,a3c724b0,a3c724b0,a3c724b0,a3c724b0,a3c724b0,f,0000,0000,0000,0000,0000,0000,0000,0000,00,00,00,00,f0,f0,f0,f0,0000,0000,0000,0000,0000,0000,0000,00,00,00,00,1,1,0,1,0,1
30,30,0,2b0000000000000000000000000000000000000000f0f0f0f00000000000000000000000000000000000000000f777c2737777c2737777c2737777c2737f3f8a9edadb99fdff3f8a9edadb99fdf,adb99fdf,adb99fdf,f3f8a9ed,f3f8a9ed,adb99fdf,adb99fdf,f3f8a9ed,f3f8a9ed,777c2737,777c2737,777c2737,777c2737,777c2737,777c2737,777c2737,777c2737,f,0000,0000,0000,0000,0000,0000,0000,0000,00,00,00,00,f0,f0,f0,f0,0000,0000,0000,0000,0000,0000,0000,00,00,00,00,1,1,0,1,0,1
31,31,0,2a0000000000000000000000000000000000000000f0f0f0f00000000000000000000000000000000000000000fdbbeadcfdbbeadcfdbbeadcfdbbeadcf113026c1e1aaef8d113026c1e1aaef8d,e1aaef8d,e1aaef8d,113026c1,113026c1,e1aaef8d,e1aaef8d,113026c1,113026c1,dbbeadcf,dbbeadcf,dbbeadcf,dbbeadcf,dbbeadcf,dbbeadcf,dbbeadcf,dbbeadcf,f,0000,0000,0000,0000,0000,0000,0000,0000,00,00,00,00,f0,f0,f0,f0,0000,0000,0000,0000,0000,0000,0000,00,00,00,00,0,1,0,1,0,1
32,32,0,3a0000000000000000000000000000000000000000f0f0f0f00000000000000000000000000000000000000000fe4bf0296e4bf0296e4bf0296e4bf02964a9a212a2f2e73d14a9a212a2f2e73d1,2f2e73d1,2f2e73d1,4a9a212a,4a9a212a,2f2e73d1,2f2e73d1,4a9a212a,4a9a212a,e4bf0296,e4bf0296,e4bf0296,e4bf0296,e4bf0296,e4bf0296,e4bf0296,e4bf0296,f,0000,0000,0000,0000,0000,0000,0000,0000,00,00,00,00,f0,f0,f0,f0,0000,0000,0000,0000,0000,0000,0000,00,00,00,00,0,1,0,1,1,1
33,33,0,3b0000000000000000000000000000000000000000f0f0f0f00000000000000000000000000000000000000000fb1f8ce60a5f0ce70b1a0c66085f0ce40d9ae28a69f4af0a6d9ae28a69f4af0a6,9f4af0a6,9f4af0a6,d9ae28a6,d9ae28a6,9f4af0a6,9f4af0a6,d9ae28a6,d9ae28a6,85f0ce40,85f0ce40,b1a0c660,b1a0c660,a5f0ce70,a5f0ce70,b1f8ce60,b1f8ce60,f,0000,0000,0000,0000,0000,0000,0000,0000,00,00,00,00,f0,f0,f0,f0,0000,0000,0000,0000,0000,0000,0000,00,00,00,00,1,1,0,1,1,1
34,34,0,2b0000000000000000000000000000000000000000f0f0f0f00000000000000000000000000000000000000000f2e829a9c2e829a9c2e829a9c2e829a9c80ce9da9c6b44d0d80ce9da9c6b44d0d,c6b44d0d,c6b44d0d,80ce9da9,80ce9da9,c6b44d0d,c6b44d0d,80ce9da9,80ce9da9,2e829a9c,2e829a9c,2e829a9c,2e829a9c,2e829a9c,2e829a9c,2e829a9c,2e829a9c,f,0000,0000,0000,0000,0000,0000,0000,0000,00,00,00,00,f0,f0,f0,f0,0000,0000,0000,0000,0000,0000,0000,00,00,00,00,1,1,0,1,0,1
35,35,0,2b0000000000000000000000000000000000000000f0f0f0f00000000000000000000000000000000000000000f8d87e67d8d87e67d8d87e67d8d87e67d29eb6993d6f7d61b29eb6993d6f7d61b,d6f7d61b,d6f7d61b,29eb6993,29eb6993,d6f7d61b,d6f7d61b,29eb6993,29eb6993,8d87e67d,8d87e67d,8d87e67d,8d87e67d,8d87e67d,8d87e67d,8d87e67d,8d87e67d,f,0000,0000,0000,0000,0000,0000,0000,0000,00,00,00,00,f0,f0,f0,f0,0000,0000,0000,0000,0000,0000,0000,00,00,00,00,1,1,0,1,0,1
36,36,0,2a0000000000000000000000000000000000000000f0f0f0f00000000000000000000000000000000000000000f88960abf88960abf88960abf88960abfc942e93945c261bac942e93945c261ba,45c261ba,45c261ba,c942e939,c942e939,45c261ba,45c261ba,c942e939,c942e939,88960abf,88960abf,88960abf,88960abf,88960abf,88960abf,88960abf,88960abf,f,0000,0000,0000,0000,0000,0000,0000,0000,00,00,00,00,f0,f0,f0,f0,0000,0000,0000,0000,0000,0000,0000,00,00,00,00,0,1,0,1,0,1
37,37,0,3a0000000000000000000000000000000000000000f0f0f0f00000000000000000000000000000000000000000f774af3fe774af3fe774af3fe774af3fe98fc18e60ff8d4a798fc18e60ff8d4a7,0ff8d4a7,0ff8d4a7,98fc18e6,98fc18e6,0ff8d4a7,0ff8d4a7,98fc18e6,98fc18e6,774af3fe,774af3fe,774af3fe,774af3fe,774af3fe,774af3fe,774af3fe,774af3fe,f,0000,0000,0000,0000,0000,0000,0000,0000,00,00,00,00,f0,f0,f0,f0,0000,0000,0000,0000,0000,0000,0000,00,00,00,00,0,1,0,1,1,1
38,38,0,3b0000000000000000000000000000000000000000f0f0f0f00000000000000000000000000000000000000000f73ae9c3377269ee37376aca377268c31676931e5810c1fcd676931e5810c1fcd,810c1fcd,810c1fcd,676931e5,676931e5,810c1fcd,810c1fcd,676931e5,676931e5,77268c31,77268c31,7376aca3,7376aca3,77269ee3,77269ee3,73ae9c33,73ae9c33,f,0000,0000,0000,0000,0000,0000,0000,0000,00,00,00,00,f0,f0,f0,f0,0000,0000,0000,0000,0000,0000,0000,00,00,00,00,1,1,0,1,1,1
39,39,0,2b0000000000000000000000000000000000000000f0f0f0f00000000000000000000000000000000000000000fbf2f1ea6bf2f1ea6bf2f1ea6bf2f1ea67d17c205b3a4e7167d17c205b3a4e716,b3a4e716,b3a4e716,7d17c205,7d17c205,b3a4e716,b3a4e716,7d17c205,7d17c205,bf2f1ea6,bf2f1ea6,bf2f1ea6,bf2f1ea6,bf2f1ea6,bf2f1ea6,bf2f1ea6,bf2f1ea6,f,0000,0000,0000,0000,0000,0000,0000,0000,00,00,00,00,f0,f0,f0,f0,0000,0000,0000,0000,0000,0000,0000,00,00,00,00,1,1,0,1,0,1
40,40,0,2b0000000000000000000000000000000000000000f0f0f0f00000000000000000000000000000000000000000f72da51a772da51a772da51a772da51a7b4278ae0875b991db4278ae0875b991d,875b991d,875b991d,b4278ae0,b4278ae0,875b991d,875b991d,b4278ae0,b4278ae0,72da51a7,72da51a7,72da51a7,72da51a7,72da51a7,72da51a7,72da51a7,72da51a7,f,0000,0000,0000,0000,0000,0000,0000,0000,00,00,00,00,f0,f0,f0,f0,0000,0000,0000,0000,0000,0000,0000,00,00,00,00,1,1,0,1,0,1
41,41,0,2a0000000000000000000000000000000000000000f0f0f0f00000000000000000000000000000000000000000f68325798683257986832579868325798e0e59a54ab5f2e86e0e59a54ab5f2e86,ab5f2e86,ab5f2e86,e0e59a54,e0e59a54,ab5f2e86,ab5f2e86,e0e59a54,e0e59a54,68325798,68325798,68325798,68325798,68325798,68325798,68325798,68325798,f,0000,0000,0000,0000,0000,0000,0000,0000,00,00,00,00,f0,f0,f0,f0,0000,0000,0000,0000,0000,0000,0000,00,00,00,00,0,1,0,1,0,1
42,42,0,3a0000000000000000000000000000000000000000f0f0f0f00000000000000000000000000000000000000000fd8f23ce2d8f23ce2d8f23ce2d8f23ce20e9c71154bb13a850e9c71154bb13a85,4bb13a85,4bb13a85,0e9c7115,0e9c7115,4bb13a85,4bb13a85,0e9c7115,0e9c7115,d8f23ce2,d8f23ce2,d8f23ce2,d8f23ce2,d8f23ce2,d8f23ce2,d8f23ce2,d8f23ce2,f,0000,0000,0000,0000,0000,0000,0000,0000,00,00,00,00,f0,f0,f0,f0,0000,0000,0000,0000,0000,0000,0000,00,00,00,00,0,1,0,1,1,1
