Sample in Buffer,Sample in Window,TRIGGER,ila_data[969:0],receiver_0[31:0],receiver_1[31:0],receiver_2[31:0],receiver_3[31:0],transmitter_0[31:0],transmitter_1[31:0],transmitter_2[31:0],transmitter_3[31:0],prbs_match_int[3:0],hb0_gtwiz_userclk_rx_usrclk2_int,hb0_gtwiz_userclk_rx_active_int,hb_gtwiz_reset_all_int,hb0_gtwiz_reset_rx_done_int,hb0_gtwiz_userclk_tx_usrclk2_int,hb0_gtwiz_userclk_tx_active_int,gtwiz_userclk_tx_reset_int,gtwiz_userclk_tx_usrclk_int,gtwiz_userclk_tx_usrclk2_int,gtwiz_userclk_tx_active_int,gtwiz_userclk_rx_reset_int,gtwiz_userclk_rx_usrclk_int,gtwiz_userclk_rx_usrclk2_int,gtwiz_userclk_rx_active_int,drpaddr_int[35:0],drpclk_int[3:0],drpdi_int[3:0],drpen_int[3:0],drpwe_int[3:0],eyescanreset_int[3:0],rx8b10ben_int[3:0],rxcommadeten_int[3:0],rxlpmen_int[3:0],rxmcommaalignen_int[3:0],rxpcommaalignen_int[3:0],rxrate_int[11:0],tx8b10ben_int[3:0],txdiffctrl_int[15:0],txpostcursor_int[19:0],txprecursor_int[19:0],drpdo_int[63:0],drprdy_int[3:0],gtpowergood_int[3:0],rxbyteisaligned_int[3:0],rxbyterealign_int[3:0],rxcommadet_int[3:0],rxpmaresetdone_int[3:0],txpmaresetdone_int[3:0],ch0_rxctrl0_int[15:0],ch1_rxctrl0_int[15:0],ch2_rxctrl0_int[15:0],ch3_rxctrl0_int[15:0],ch0_rxctrl1_int[15:0],ch1_rxctrl1_int[15:0],ch2_rxctrl1_int[15:0],ch3_rxctrl1_int[15:0],ch0_rxctrl2_int[7:0],ch1_rxctrl2_int[7:0],ch2_rxctrl2_int[7:0],ch3_rxctrl2_int[7:0],ch0_rxctrl3_int[7:0],ch1_rxctrl3_int[7:0],ch2_rxctrl3_int[7:0],ch3_rxctrl3_int[7:0],ch0_txctrl0_int[15:0],ch1_txctrl0_int[15:0],ch2_txctrl0_int[15:0],ch3_txctrl0_int[15:0],ch0_txctrl1_int[15:0],ch1_txctrl1_int[15:0],ch2_txctrl1_int[15:0],ch3_txctrl1_int[15:0],ch0_txctrl2_int[7:0],ch1_txctrl2_int[7:0],ch2_txctrl2_int[7:0],ch3_txctrl2_int[7:0],hb0_rxdata_nml_ctr[39:0],ch0_rxdata_err_ctr[15:0],ch1_rxdata_err_ctr[15:0],ch2_rxdata_err_ctr[15:0],ch3_rxdata_err_ctr[15:0]
Radix - UNSIGNED,UNSIGNED,UNSIGNED,HEX,HEX,HEX,HEX,HEX,HEX,HEX,HEX,HEX,HEX,HEX,HEX,HEX,HEX,HEX,HEX,HEX,HEX,HEX,HEX,HEX,HEX,HEX,HEX,HEX,HEX,HEX,HEX,HEX,HEX,HEX,HEX,HEX,HEX,HEX,HEX,HEX,HEX,HEX,HEX,HEX,HEX,HEX,HEX,HEX,HEX,HEX,HEX,HEX,HEX,HEX,HEX,HEX,HEX,HEX,HEX,HEX,HEX,HEX,HEX,HEX,HEX,HEX,HEX,HEX,HEX,HEX,HEX,HEX,HEX,HEX,HEX,HEX,HEX,HEX,HEX,HEX,HEX,HEX,HEX,HEX
0,0,0,25d2e430b19667fc87c894c47c00000000000000000000000000000000000000003c3c3c3c00000000000000000000000000000000000000003fc03fc0000000000000000000000000033333c003ffffc00000160b0582fa2b048e17cae689e286048e17cae48e17cae4da714fa4da714fa4da714fa4da714fa,4da714fa,4da714fa,4da714fa,4da714fa,48e17cae,48e17cae,689e2860,48e17cae,0,1,1,0,1,0,1,0,0,0,1,0,1,1,1,0582c160b,0,0,0,0,0,f,f,f,f,f,000,f,cccc,00000,00000,0000000000000000,0,f,f,0,0,f,f,0000,0000,0000,0000,0000,0000,0000,0000,00,00,00,00,f0,f0,f0,f0,0000,0000,0000,0000,0000,0000,0000,0000,00,00,00,00,1f225311f0,9ff2,c659,90c2,974b
1,1,0,25d4a432719827fe47c894c47dc0000000000000000000000000000000000000003c3c3c3c00000000000000000000000000000000000000003fc03fc0000000000000000000000000033333c003ffffc00000160b0582e3ba092385f2b9a278a1892385f2b92385f2b738e22e6738e22e6738e22e6738e22e6,738e22e6,738e22e6,738e22e6,738e22e6,92385f2b,92385f2b,9a278a18,92385f2b,0,0,1,0,1,1,1,0,1,1,1,0,0,0,1,0582c160b,0,0,0,0,0,f,f,f,f,f,000,f,cccc,00000,00000,0000000000000000,0,f,f,0,0,f,f,0000,0000,0000,0000,0000,0000,0000,0000,00,00,00,00,f0,f0,f0,f0,0000,0000,0000,0000,0000,0000,0000,0000,00,00,00,00,1f225311f7,9ff9,c660,90c9,9752
2,2,0,25d6a434719a280047c894c47fc0000000000000000000000000000000000000003c3c3c3c00000000000000000000000000000000000000003fc03fc0000000000000000000000000033333c003ffffc00000160b0582e3ba0668e17cae289e286648e17ca648e178abbc4705ebbc4705ebbc4705ebbc4705e,bbc4705e,bbc4705e,bbc4705e,bbc4705e,648e178a,648e17ca,e289e286,668e17ca,0,0,1,0,1,1,1,0,1,1,1,0,0,0,1,0582c160b,0,0,0,0,0,f,f,f,f,f,000,f,cccc,00000,00000,0000000000000000,0,f,f,0,0,f,f,0000,0000,0000,0000,0000,0000,0000,0000,00,00,00,00,f0,f0,f0,f0,0000,0000,0000,0000,0000,0000,0000,0000,00,00,00,00,1f225311ff,a001,c668,90d1,975a
3,3,0,25d8a436719c280247c894c481c0000000000000000000000000000000000000003c3c3c3c00000000000000000000000000000000000000003fc03fc0000000000000000000000000033333c003ffffc00000160b0582f2ba0b9a278a18207f54cb9a278a1b9a278a12936038f293603cf293603cf293603cf,293603cf,293603cf,293603cf,2936038f,b9a278a1,b9a278a1,8207f54c,b9a278a1,0,0,1,0,1,1,1,0,1,0,1,0,0,1,1,0582c160b,0,0,0,0,0,f,f,f,f,f,000,f,cccc,00000,00000,0000000000000000,0,f,f,0,0,f,f,0000,0000,0000,0000,0000,0000,0000,0000,00,00,00,00,f0,f0,f0,f0,0000,0000,0000,0000,0000,0000,0000,0000,00,00,00,00,1f22531207,a009,c670,90d9,9762
4,4,0,25daa438719e280447c894c483c0000000000000000000000000000000000000003c3c3c3c00000000000000000000000000000000000000003fc03fc0000000000000000000000000033333c003ffffc00000160b0582fa2b0ae689e286081fd53ae689e28ae689e28fa6ca4eefa6ca4eefa6ca4eefa6ca4ee,fa6ca4ee,fa6ca4ee,fa6ca4ee,fa6ca4ee,ae689e28,ae689e28,6081fd53,ae689e28,0,1,1,0,1,0,1,0,0,0,1,0,1,1,1,0582c160b,0,0,0,0,0,f,f,f,f,f,000,f,cccc,00000,00000,0000000000000000,0,f,f,0,0,f,f,0000,0000,0000,0000,0000,0000,0000,0000,00,00,00,00,f0,f0,f0,f0,0000,0000,0000,0000,0000,0000,0000,0000,00,00,00,00,1f2253120f,a011,c678,90e1,976a
5,5,0,25dc643a319fe80607c894c485c0000000000000000000000000000000000000003c3c3c3c00000000000000000000000000000000000000003fc03fc0000000000000000000000000033333c003ffffc00000160b0582eb2b02b9a278a18207f542b9a278a2b9a278ae6a32ec3e6a32ec3e6a32ec3e6a32ec3,e6a32ec3,e6a32ec3,e6a32ec3,e6a32ec3,2b9a278a,2b9a278a,18207f54,2b9a278a,0,1,1,0,1,0,1,0,0,1,1,0,1,0,1,0582c160b,0,0,0,0,0,f,f,f,f,f,000,f,cccc,00000,00000,0000000000000000,0,f,f,0,0,f,f,0000,0000,0000,0000,0000,0000,0000,0000,00,00,00,00,f0,f0,f0,f0,0000,0000,0000,0000,0000,0000,0000,0000,00,00,00,00,1f22531217,a018,c67f,90e8,9771
6,6,0,25de643c31a1e80807c894c48780000000000000000000000000000000000000003c3c3c3c00000000000000000000000000000000000000003fc03fc0000000000000000000000000033333c003ffffc00000160b0582e3ba0cae689e286081fd5cae689e2cae689e25eb7cbaf5eb7cbaf5eb7cbaf5eb7cbaf,5eb7cbaf,5eb7cbaf,5eb7cbaf,5eb7cbaf,cae689e2,cae689e2,86081fd5,cae689e2,0,0,1,0,1,1,1,0,1,1,1,0,0,0,1,0582c160b,0,0,0,0,0,f,f,f,f,f,000,f,cccc,00000,00000,0000000000000000,0,f,f,0,0,f,f,0000,0000,0000,0000,0000,0000,0000,0000,00,00,00,00,f0,f0,f0,f0,0000,0000,0000,0000,0000,0000,0000,0000,00,00,00,00,1f2253121e,a020,c687,90f0,9779
7,7,0,25e0643e31a3e80a07c894c48980000000000000000000000000000000000000003c3c3c3c00000000000000000000000000000000000000003fc03fc0000000000000000000000000033333c003ffffc00000160b0582e2ba0a18026f8a5820775f2a1a374f3a18375cf8a320ccf8a320ccf8a320ccf8a320c,cf8a320c,cf8a320c,cf8a320c,cf8a320c,f3a18375,f2a1a374,a5820775,a18026f8,0,0,1,0,1,1,1,0,1,0,1,0,0,0,1,0582c160b,0,0,0,0,0,f,f,f,f,f,000,f,cccc,00000,00000,0000000000000000,0,f,f,0,0,f,f,0000,0000,0000,0000,0000,0000,0000,0000,00,00,00,00,f0,f0,f0,f0,0000,0000,0000,0000,0000,0000,0000,0000,00,00,00,00,1f22531226,a028,c68f,90f8,9781
8,8,0,25e2644031a5e80c07c894c48b80000000000000000000000000000000000000003c3c3c3c00000000000000000000000000000000000000003fc03fc0000000000000000000000000033333c003ffffc00000160b0582fa2b0286081fd533ba58d286081fd286081fd6ebc042ee6be6c2e14fa6ca414fa6ca4,14fa6ca4,14fa6ca4,e6be6c2e,6ebc042e,286081fd,286081fd,533ba58d,286081fd,0,1,1,0,1,0,1,0,0,0,1,0,1,1,1,0582c160b,0,0,0,0,0,f,f,f,f,f,000,f,cccc,00000,00000,0000000000000000,0,f,f,0,0,f,f,0000,0000,0000,0000,0000,0000,0000,0000,00,00,00,00,f0,f0,f0,f0,0000,0000,0000,0000,0000,0000,0000,0000,00,00,00,00,1f2253122e,a030,c697,9100,9789
9,9,0,25e4644231a7e80e07c894c48d80000000000000000000000000000000000000003c3c3c3c00000000000000000000000000000000000000003fc03fc0000000000000000000000000033333c003ffffc00000160b0582fa2b08a18207f54cee9638a18207f8a18207fc3b0211cc3b0211cc3b0211cc3b0211c,c3b0211c,c3b0211c,c3b0211c,c3b0211c,8a18207f,8a18207f,54cee963,8a18207f,0,1,1,0,1,0,1,0,0,0,1,0,1,1,1,0582c160b,0,0,0,0,0,f,f,f,f,f,000,f,cccc,00000,00000,0000000000000000,0,f,f,0,0,f,f,0000,0000,0000,0000,0000,0000,0000,0000,00,00,00,00,f0,f0,f0,f0,0000,0000,0000,0000,0000,0000,0000,0000,00,00,00,00,1f22531236,a038,c69f,9108,9791
10,10,0,25e62443f1a9a80fc7c894c48f40000000000000000000000000000000000000003c3c3c3c00000000000000000000000000000000000000003fc03fc0000000000000000000000000033333c003ffffc00000160b0582eb2b0e286081fd533ba58e286081fe286081faf0bd0a0af0bd0a0af0bd0a0af0bd0a0,af0bd0a0,af0bd0a0,af0bd0a0,af0bd0a0,e286081f,e286081f,d533ba58,e286081f,0,1,1,0,1,0,1,0,0,1,1,0,1,0,1,0582c160b,0,0,0,0,0,f,f,f,f,f,000,f,cccc,00000,00000,0000000000000000,0,f,f,0,0,f,f,0000,0000,0000,0000,0000,0000,0000,0000,00,00,00,00,f0,f0,f0,f0,0000,0000,0000,0000,0000,0000,0000,0000,00,00,00,00,1f2253123d,a03f,c6a6,910f,9798
11,11,0,25e82445f1aba811c7c894c49140000000000000000000000000000000000000003c3c3c3c00000000000000000000000000000000000000003fc03fc0000000000000000000000000033333c003ffffc00000160b0582e3ba078a18207f54cee9678a1820778a182070c3a13100c3a13100c3a13100c3a1310,0c3a1310,0c3a1310,0c3a1310,0c3a1310,78a18207,78a18207,f54cee96,78a18207,0,0,1,0,1,1,1,0,1,1,1,0,0,0,1,0582c160b,0,0,0,0,0,f,f,f,f,f,000,f,cccc,00000,00000,0000000000000000,0,f,f,0,0,f,f,0000,0000,0000,0000,0000,0000,0000,0000,00,00,00,00,f0,f0,f0,f0,0000,0000,0000,0000,0000,0000,0000,0000,00,00,00,00,1f22531245,a047,c6ae,9117,97a0
12,12,0,25ea2447f1ada813c7c894c49340000000000000000000000000000000000000003c3c3c3c00000000000000000000000000000000000000003fc03fc0000000000000000000000000033333c003ffffc00000160b0582f2ba0fd533ba58ded6c91fd533ba5fd533ba5a4eebc04a4eebc04a4eebc04a4eebc04,a4eebc04,a4eebc04,a4eebc04,a4eebc04,fd533ba5,fd533ba5,8ded6c91,fd533ba5,0,0,1,0,1,1,1,0,1,0,1,0,0,1,1,0582c160b,0,0,0,0,0,f,f,f,f,f,000,f,cccc,00000,00000,0000000000000000,0,f,f,0,0,f,f,0000,0000,0000,0000,0000,0000,0000,0000,00,00,00,00,f0,f0,f0,f0,0000,0000,0000,0000,0000,0000,0000,0000,00,00,00,00,1f2253124d,a04f,c6b6,911f,97a8
13,13,0,25ec2449f1afa815c7c894c49540000000000000000000000000000000000000003c3c3c3c00000000000000000000000000000000000000003fc03fc0000000000000000000000000033333c003ffffc00000160b0582fa2b07f54cee9637b5b247f54cee97f54cee91ce559771ce559771ce559752ec35977,2ec35977,1ce55975,1ce55977,1ce55977,7f54cee9,7f54cee9,637b5b24,7f54cee9,0,1,1,0,1,0,1,0,0,0,1,0,1,1,1,0582c160b,0,0,0,0,0,f,f,f,f,f,000,f,cccc,00000,00000,0000000000000000,0,f,f,0,0,f,f,0000,0000,0000,0000,0000,0000,0000,0000,00,00,00,00,f0,f0,f0,f0,0000,0000,0000,0000,0000,0000,0000,0000,00,00,00,00,1f22531255,a057,c6be,9127,97b0
14,14,0,25ee244bf1b1a817c7c894c49740000000000000000000000000000000000000003c3c3c3c00000000000000000000000000000000000000003fc03fc0000000000000000000000000033333c003ffffc00000160b0582eb2b01fd533ba58ded6c91fd533ba1fd533baa0fe569da0fe569da0fe569da0fe569d,a0fe569d,a0fe569d,a0fe569d,a0fe569d,1fd533ba,1fd533ba,58ded6c9,1fd533ba,0,1,1,0,1,0,1,0,0,1,1,0,1,0,1,0582c160b,0,0,0,0,0,f,f,f,f,f,000,f,cccc,00000,00000,0000000000000000,0,f,f,0,0,f,f,0000,0000,0000,0000,0000,0000,0000,0000,00,00,00,00,f0,f0,f0,f0,0000,0000,0000,0000,0000,0000,0000,0000,00,00,00,00,1f2253125d,a05f,c6c6,912f,97b8
15,15,0,25efe44db1b3681987c894c49900000000000000000000000000000000000000003c3c3c3c00000000000000000000000000000000000000003fc03fc0000000000000000000000000033333c003ffffc00000160b0582e3ba007f54cee9637b5b207f54cee07f54cee10df556710df556710df556710df5567,10df5567,10df5567,10df5567,10df5567,07f54cee,07f54cee,9637b5b2,07f54cee,0,0,1,0,1,1,1,0,1,1,1,0,0,0,1,0582c160b,0,0,0,0,0,f,f,f,f,f,000,f,cccc,00000,00000,0000000000000000,0,f,f,0,0,f,f,0000,0000,0000,0000,0000,0000,0000,0000,00,00,00,00,f0,f0,f0,f0,0000,0000,0000,0000,0000,0000,0000,0000,00,00,00,00,1f22531264,a066,c6cd,9136,97bf
16,16,0,25f1e44fb1b5681b87c894c49b00000000000000000000000000000000000000003c3c3c3c00000000000000000000000000000000000000003fc03fc0000000000000000000000000033333c003ffffc00000160b0582e3ba081cd513ba18ded4c81fd533b85fd537b040ff586040ff586040ff586040ff586,040ff586,040ff586,040ff586,040ff586,85fd537b,81fd533b,a18ded4c,81cd513b,0,0,1,0,1,1,1,0,1,1,1,0,0,0,1,0582c160b,0,0,0,0,0,f,f,f,f,f,000,f,cccc,00000,00000,0000000000000000,0,f,f,0,0,f,f,0000,0000,0000,0000,0000,0000,0000,0000,00,00,00,00,f0,f0,f0,f0,0000,0000,0000,0000,0000,0000,0000,0000,00,00,00,00,1f2253126c,a06e,c6d5,913e,97c7
17,17,0,25f3e451b1b7681d87c894c49d00000000000000000000000000000000000000003c3c3c3c00000000000000000000000000000000000000003fc03fc0000000000000000000000000033333c003ffffc00000160b0582f2ba0e9637b5b2470be57e9637b5be9637b5b2194a519211ce551211ce559211ce559,211ce559,211ce559,211ce551,2194a519,e9637b5b,e9637b5b,2470be57,e9637b5b,0,0,1,0,1,1,1,0,1,0,1,0,0,1,1,0582c160b,0,0,0,0,0,f,f,f,f,f,000,f,cccc,00000,00000,0000000000000000,0,f,f,0,0,f,f,0000,0000,0000,0000,0000,0000,0000,0000,00,00,00,00,f0,f0,f0,f0,0000,0000,0000,0000,0000,0000,0000,0000,00,00,00,00,1f22531274,a076,c6dd,9146,97cf
18,18,0,25f5e453b1b9681f87c894c49f00000000000000000000000000000000000000003c3c3c3c00000000000000000000000000000000000000003fc03fc0000000000000000000000000033333c003ffffc00000160b0582fa2b0ba58ded6c91c2f95ba58ded6ba58ded69d2d39e99d2d39e99d2d39e99d2d39e9,9d2d39e9,9d2d39e9,9d2d39e9,9d2d39e9,ba58ded6,ba58ded6,c91c2f95,ba58ded6,0,1,1,0,1,0,1,0,0,0,1,0,1,1,1,0582c160b,0,0,0,0,0,f,f,f,f,f,000,f,cccc,00000,00000,0000000000000000,0,f,f,0,0,f,f,0000,0000,0000,0000,0000,0000,0000,0000,00,00,00,00,f0,f0,f0,f0,0000,0000,0000,0000,0000,0000,0000,0000,00,00,00,00,1f2253127c,a07e,c6e5,914e,97d7
19,19,0,25f7a45571bb282147c894c4a0c0000000000000000000000000000000000000003c3c3c3c00000000000000000000000000000000000000003fc03fc0000000000000000000000000033333c003ffffc00000160b0582eb2b0ee9637b5b2470be5ee9637b5ee9637b5676b4e5d676b4e5d676b4e5d676b4e5d,676b4e5d,676b4e5d,676b4e5d,676b4e5d,ee9637b5,ee9637b5,b2470be5,ee9637b5,0,1,1,0,1,0,1,0,0,1,1,0,1,0,1,0582c160b,0,0,0,0,0,f,f,f,f,f,000,f,cccc,00000,00000,0000000000000000,0,f,f,0,0,f,f,0000,0000,0000,0000,0000,0000,0000,0000,00,00,00,00,f0,f0,f0,f0,0000,0000,0000,0000,0000,0000,0000,0000,00,00,00,00,1f22531283,a085,c6ec,9155,97de
20,20,0,25f9a45771bd282347c894c4a2c0000000000000000000000000000000000000003c3c3c3c00000000000000000000000000000000000000003fc03fc0000000000000000000000000033333c003ffffc00000160b0582e3ba03ba58ded6c91c2f93ba58ded3ba58ded863dd36f863dd36f863dd36f863dd36f,863dd36f,863dd36f,863dd36f,863dd36f,3ba58ded,3ba58ded,6c91c2f9,3ba58ded,0,0,1,0,1,1,1,0,1,1,1,0,0,0,1,0582c160b,0,0,0,0,0,f,f,f,f,f,000,f,cccc,00000,00000,0000000000000000,0,f,f,0,0,f,f,0000,0000,0000,0000,0000,0000,0000,0000,00,00,00,00,f0,f0,f0,f0,0000,0000,0000,0000,0000,0000,0000,0000,00,00,00,00,1f2253128b,a08d,c6f4,915d,97e6
21,21,0,25fba45971bf282547c894c4a4c0000000000000000000000000000000000000003c3c3c3c00000000000000000000000000000000000000003fc03fc0000000000000000000000000033333c003ffffc00000160b0582f2ba0db2461bb5f24741ecee1723f4b2472be5977b41b5977b41b5977b41b5977b41b,5977b41b,5977b41b,5977b41b,5977b41b,4b2472be,cee1723f,5f24741e,db2461bb,0,0,1,0,1,1,1,0,1,0,1,0,0,1,1,0582c160b,0,0,0,0,0,f,f,f,f,f,000,f,cccc,00000,00000,0000000000000000,0,f,f,0,0,f,f,0000,0000,0000,0000,0000,0000,0000,0000,00,00,00,00,f0,f0,f0,f0,0000,0000,0000,0000,0000,0000,0000,0000,00,00,00,00,1f22531293,a095,c6fc,9165,97ee
22,22,0,25fda45b71c1282747c894c4a6c0000000000000000000000000000000000000003c3c3c3c00000000000000000000000000000000000000003fc03fc0000000000000000000000000033333c003ffffc00000160b0582fa2b0d6c91c2f95cd13c5d6c91c2fd6c91c2fe949a8e1ed4929e15759adf1569d2da9,569d2da9,5759adf1,ed4929e1,e949a8e1,d6c91c2f,d6c91c2f,95cd13c5,d6c91c2f,0,1,1,0,1,0,1,0,0,0,1,0,1,1,1,0582c160b,0,0,0,0,0,f,f,f,f,f,000,f,cccc,00000,00000,0000000000000000,0,f,f,0,0,f,f,0000,0000,0000,0000,0000,0000,0000,0000,00,00,00,00,f0,f0,f0,f0,0000,0000,0000,0000,0000,0000,0000,0000,00,00,00,00,1f2253129b,a09d,c704,916d,97f6
23,23,0,25ffa45d71c3282947c894c4a8c0000000000000000000000000000000000000003c3c3c3c00000000000000000000000000000000000000003fc03fc0000000000000000000000000033333c003ffffc00000160b0582fa2b0b5b2470be57344f1b5b2470bb5b2470b5d528dd85d528dd85d528dd85d528dd8,5d528dd8,5d528dd8,5d528dd8,5d528dd8,b5b2470b,b5b2470b,e57344f1,b5b2470b,0,1,1,0,1,0,1,0,0,0,1,0,1,1,1,0582c160b,0,0,0,0,0,f,f,f,f,f,000,f,cccc,00000,00000,0000000000000000,0,f,f,0,0,f,f,0000,0000,0000,0000,0000,0000,0000,0000,00,00,00,00,f0,f0,f0,f0,0000,0000,0000,0000,0000,0000,0000,0000,00,00,00,00,1f225312a3,a0a5,c70c,9175,97fe
24,24,0,2601645f31c4e82b07c894c4aa80000000000000000000000000000000000000003c3c3c3c00000000000000000000000000000000000000003fc03fc0000000000000000000000000033333c003ffffc00000160b0582eb2b0ed6c91c2f95cd13ced6c91c2ed6c91c26f7464916f7464916f7464916f746491,6f746491,6f746491,6f746491,6f746491,ed6c91c2,ed6c91c2,f95cd13c,ed6c91c2,0,1,1,0,1,0,1,0,0,1,1,0,1,0,1,0582c160b,0,0,0,0,0,f,f,f,f,f,000,f,cccc,00000,00000,0000000000000000,0,f,f,0,0,f,f,0000,0000,0000,0000,0000,0000,0000,0000,00,00,00,00,f0,f0,f0,f0,0000,0000,0000,0000,0000,0000,0000,0000,00,00,00,00,1f225312aa,a0ac,c713,917c,9805
25,25,0,2603646131c6e82d07c894c4ac80000000000000000000000000000000000000003c3c3c3c00000000000000000000000000000000000000003fc03fc0000000000000000000000000033333c003ffffc00000160b0582e3ba07b5b2470be57344f7b5b24707b5b24701b2526dc1b2526dc1b2526dc1b2526dc,1b2526dc,1b2526dc,1b2526dc,1b2526dc,7b5b2470,7b5b2470,be57344f,7b5b2470,0,0,1,0,1,1,1,0,1,1,1,0,0,0,1,0582c160b,0,0,0,0,0,f,f,f,f,f,000,f,cccc,00000,00000,0000000000000000,0,f,f,0,0,f,f,0000,0000,0000,0000,0000,0000,0000,0000,00,00,00,00,f0,f0,f0,f0,0000,0000,0000,0000,0000,0000,0000,0000,00,00,00,00,1f225312b2,a0b4,c71b,9184,980d
26,26,0,2605646331c8e82f07c894c4ae80000000000000000000000000000000000000003c3c3c3c00000000000000000000000000000000000000003fc03fc0000000000000000000000000033333c003ffffc00000160b0582f2ba02f95cd13c50c103f2f95cd132f95cd1339e949a839e949a839e949a839e949a8,39e949a8,39e949a8,39e949a8,39e949a8,2f95cd13,2f95cd13,c50c103f,2f95cd13,0,0,1,0,1,1,1,0,1,0,1,0,0,1,1,0582c160b,0,0,0,0,0,f,f,f,f,f,000,f,cccc,00000,00000,0000000000000000,0,f,f,0,0,f,f,0000,0000,0000,0000,0000,0000,0000,0000,00,00,00,00,f0,f0,f0,f0,0000,0000,0000,0000,0000,0000,0000,0000,00,00,00,00,1f225312ba,a0bc,c723,918c,9815
27,27,0,2607646531cae83107c894c4b080000000000000000000000000000000000000003c3c3c3c00000000000000000000000000000000000000003fc03fc0000000000000000000000000033333c003ffffc00000160b0582fa2b00be57344f143040f0be573440be57344d8bfd485d8bfd485d8bfd4854c9dd485,4c9dd485,d8bfd485,d8bfd485,d8bfd485,0be57344,0be57344,f143040f,0be57344,0,1,1,0,1,0,1,0,0,0,1,0,1,1,1,0582c160b,0,0,0,0,0,f,f,f,f,f,000,f,cccc,00000,00000,0000000000000000,0,f,f,0,0,f,f,0000,0000,0000,0000,0000,0000,0000,0000,00,00,00,00,f0,f0,f0,f0,0000,0000,0000,0000,0000,0000,0000,0000,00,00,00,00,1f225312c2,a0c4,c72b,9194,981d
28,28,0,2609646771cca83207c894c4b280000000000000000000000000000000000000003c3c3c3c00000000000000000000000000000000000000003fc03fc0000000000000000000000000033333c003ffffc00000160b0582eb2b0c2f95cd13c50c103c2f95cd1c2f95cd1911735f9911735f9911735f9911735f9,911735f9,911735f9,911735f9,911735f9,c2f95cd1,c2f95cd1,3c50c103,c2f95cd1,0,1,1,0,1,0,1,0,0,1,1,0,1,0,1,0582c160b,0,0,0,0,0,f,f,f,f,f,000,f,cccc,00000,00000,0000000000000000,0,f,f,0,0,f,f,0000,0000,0000,0000,0000,0000,0000,0000,00,00,00,00,f0,f0,f0,f0,0000,0000,0000,0000,0000,0000,0000,0000,00,00,00,00,1f225312ca,a0c8,c732,919d,9825
29,29,0,260b2468f1cea834c7c894c4b440000000000000000000000000000000000000003c3c3c3c00000000000000000000000000000000000000003fc03fc0000000000000000000000000033333c003ffffc00000160b0582e3ba070be57344f14304070be573470be5734dc9aed46dc9aed46dc9aed46dc9aed46,dc9aed46,dc9aed46,dc9aed46,dc9aed46,70be5734,70be5734,4f143040,70be5734,0,0,1,0,1,1,1,0,1,1,1,0,0,0,1,0582c160b,0,0,0,0,0,f,f,f,f,f,000,f,cccc,00000,00000,0000000000000000,0,f,f,0,0,f,f,0000,0000,0000,0000,0000,0000,0000,0000,00,00,00,00,f0,f0,f0,f0,0000,0000,0000,0000,0000,0000,0000,0000,00,00,00,00,1f225312d1,a0d3,c73a,91a3,982c
