Sample in Buffer,Sample in Window,TRIGGER,ila_data[265:0],receiver_0[31:0],receiver_1[31:0],receiver_2[31:0],receiver_3[31:0],transmitter_0[31:0],transmitter_1[31:0],transmitter_2[31:0],transmitter_3[31:0],prbs_match_int[3:0],hb0_gtwiz_userclk_rx_usrclk2_int,hb0_gtwiz_userclk_rx_active_int,hb_gtwiz_reset_all_int,hb0_gtwiz_reset_rx_done_int,hb0_gtwiz_userclk_tx_usrclk2_int,hb0_gtwiz_userclk_tx_active_int
Radix - UNSIGNED,UNSIGNED,UNSIGNED,HEX,HEX,HEX,HEX,HEX,HEX,HEX,HEX,HEX,HEX,HEX,HEX,HEX,HEX,HEX,HEX
0,0,0,2b0abb1503c544e503cd5d8503c2a27503ce67cb0c3e34eb0c31983b0c31cb1b0c3,1cb1b0c3,1983b0c3,e34eb0c3,e67cb0c3,2a27503c,d5d8503c,544e503c,abb1503c,0,1,1,0,1,0,1
1,1,0,2b0abaf503c5450503cd5d7503c2a28503ce661b0c3e350b0c3199eb0c31cafb0c3,1cafb0c3,199eb0c3,e350b0c3,e661b0c3,2a28503c,d5d7503c,5450503c,abaf503c,0,1,1,0,1,0,1
2,2,0,3a0abad503c5452503cd5d6503c2a29503ce6bfb0c3e34fb0c31940b0c31cb0b0c3,1cb0b0c3,1940b0c3,e34fb0c3,e6bfb0c3,2a29503c,d5d6503c,5452503c,abad503c,0,0,1,0,1,1,1
3,3,0,3a0abab503c5454503cd5d5503c2a2a503ce6bdb0c3e351b0c31942b0c31caeb0c3,1caeb0c3,1942b0c3,e351b0c3,e6bdb0c3,2a2a503c,d5d5503c,5454503c,abab503c,0,0,1,0,1,1,1
4,4,0,2b0aba9503c5456503cd5d4503c2a2b503ce6bbb0c3e352b0c31944b0c31cadb0c3,1cadb0c3,1944b0c3,e352b0c3,e6bbb0c3,2a2b503c,d5d4503c,5456503c,aba9503c,0,1,1,0,1,0,1
5,5,0,2b0aba7503c5458503cd5d3503c2a2c503ce6a6b0c3e353b0c31959b0c31cacb0c3,1cacb0c3,1959b0c3,e353b0c3,e6a6b0c3,2a2c503c,d5d3503c,5458503c,aba7503c,0,1,1,0,1,0,1
6,6,0,2a0aba5503c545a503cd5d2503c2a2d503ce6b7b0c3e354b0c31948b0c31cabb0c3,1cabb0c3,1948b0c3,e354b0c3,e6b7b0c3,2a2d503c,d5d2503c,545a503c,aba5503c,0,0,1,0,1,0,1
7,7,0,3a0aba3503c545c503cd5d1503c2a2e503ce6aab0c3e355b0c31955b0c31caab0c3,1caab0c3,1955b0c3,e355b0c3,e6aab0c3,2a2e503c,d5d1503c,545c503c,aba3503c,0,0,1,0,1,1,1
8,8,0,3a0aba1503c545e503cd5d0503c2a2f503ce6acb0c3e356b0c31953b0c31ca9b0c3,1ca9b0c3,1953b0c3,e356b0c3,e6acb0c3,2a2f503c,d5d0503c,545e503c,aba1503c,0,0,1,0,1,1,1
9,9,0,2b0ab9f503c5460503cd5cf503c2a30503ce6aeb0c3e348b0c31951b0c31cb7b0c3,1cb7b0c3,1951b0c3,e348b0c3,e6aeb0c3,2a30503c,d5cf503c,5460503c,ab9f503c,0,1,1,0,1,0,1
10,10,0,2b0ab9d503c5462503cd5ce503c2a31503ce6afb0c3e347b0c31950b0c31cb8b0c3,1cb8b0c3,1950b0c3,e347b0c3,e6afb0c3,2a31503c,d5ce503c,5462503c,ab9d503c,0,1,1,0,1,0,1
11,11,0,3a0ab9b503c5464503cd5cd503c2a32503ce6b2b0c3e359b0c3194db0c31ca6b0c3,1ca6b0c3,194db0c3,e359b0c3,e6b2b0c3,2a32503c,d5cd503c,5464503c,ab9b503c,0,0,1,0,1,1,1
12,12,0,3a0ab99503c5466503cd5cc503c2a33503ce6b4b0c3e35ab0c3194bb0c31ca5b0c3,1ca5b0c3,194bb0c3,e35ab0c3,e6b4b0c3,2a33503c,d5cc503c,5466503c,ab99503c,0,0,1,0,1,1,1
13,13,0,3b0ab97503c5468503cd5cb503c2a34503ce6b6b0c3e344b0c31949b0c31cbbb0c3,1cbbb0c3,1949b0c3,e344b0c3,e6b6b0c3,2a34503c,d5cb503c,5468503c,ab97503c,0,1,1,0,1,1,1
14,14,0,2b0ab95503c546a503cd5ca503c2a35503ce6a7b0c3e35cb0c31958b0c31ca3b0c3,1ca3b0c3,1958b0c3,e35cb0c3,e6a7b0c3,2a35503c,d5ca503c,546a503c,ab95503c,0,1,1,0,1,0,1
15,15,0,2a0ab93503c546c503cd5c9503c2a36503ce6bab0c3e342b0c31945b0c31cbdb0c3,1cbdb0c3,1945b0c3,e342b0c3,e6bab0c3,2a36503c,d5c9503c,546c503c,ab93503c,0,0,1,0,1,0,1
16,16,0,3a0ab91503c546e503cd5c8503c2a37503ce6bcb0c3e341b0c31943b0c31cbeb0c3,1cbeb0c3,1943b0c3,e341b0c3,e6bcb0c3,2a37503c,d5c8503c,546e503c,ab91503c,0,0,1,0,1,1,1
17,17,0,3a0ab8f503c5470503cd5c7503c2a38503ce6a1b0c3e340b0c3195eb0c31cbfb0c3,1cbfb0c3,195eb0c3,e340b0c3,e6a1b0c3,2a38503c,d5c7503c,5470503c,ab8f503c,0,0,1,0,1,1,1
18,18,0,2b0ab8d503c5472503cd5c6503c2a39503ce6dfb0c3e39fb0c31920b0c31c60b0c3,1c60b0c3,1920b0c3,e39fb0c3,e6dfb0c3,2a39503c,d5c6503c,5472503c,ab8d503c,0,1,1,0,1,0,1
19,19,0,2b0ab8b503c5474503cd5c5503c2a3a503ce6ddb0c3e39eb0c31922b0c31c61b0c3,1c61b0c3,1922b0c3,e39eb0c3,e6ddb0c3,2a3a503c,d5c5503c,5474503c,ab8b503c,0,1,1,0,1,0,1
20,20,0,2a0ab89503c5476503cd5c4503c2a3b503ce6dbb0c3e39db0c31924b0c31c62b0c3,1c62b0c3,1924b0c3,e39db0c3,e6dbb0c3,2a3b503c,d5c4503c,5476503c,ab89503c,0,0,1,0,1,0,1
21,21,0,3a0ab87503c5478503cd5c3503c2a3c503ce6c6b0c3e383b0c31939b0c31c7cb0c3,1c7cb0c3,1939b0c3,e383b0c3,e6c6b0c3,2a3c503c,d5c3503c,5478503c,ab87503c,0,0,1,0,1,1,1
22,22,0,3b0ab85503c547a503cd5c2503c2a3d503ce6d7b0c3e39bb0c31928b0c31c64b0c3,1c64b0c3,1928b0c3,e39bb0c3,e6d7b0c3,2a3d503c,d5c2503c,547a503c,ab85503c,0,1,1,0,1,1,1
23,23,0,2b0ab83503c547c503cd5c1503c2a3e503ce6cab0c3e385b0c31935b0c31c7ab0c3,1c7ab0c3,1935b0c3,e385b0c3,e6cab0c3,2a3e503c,d5c1503c,547c503c,ab83503c,0,1,1,0,1,0,1
24,24,0,2b0ab81503c547e503cd5c0503c2a3f503ce6ccb0c3e386b0c31933b0c31c79b0c3,1c79b0c3,1933b0c3,e386b0c3,e6ccb0c3,2a3f503c,d5c0503c,547e503c,ab81503c,0,1,1,0,1,0,1
25,25,0,3a0ab7f503c5480503cd5bf503c2a40503ce6ceb0c3e398b0c31931b0c31c67b0c3,1c67b0c3,1931b0c3,e398b0c3,e6ceb0c3,2a40503c,d5bf503c,5480503c,ab7f503c,0,0,1,0,1,1,1
26,26,0,3a0ab7d503c5482503cd5be503c2a41503ce6cfb0c3e397b0c31930b0c31c68b0c3,1c68b0c3,1930b0c3,e397b0c3,e6cfb0c3,2a41503c,d5be503c,5482503c,ab7d503c,0,0,1,0,1,1,1
27,27,0,3b0ab7b503c5484503cd5bd503c2a42503ce6d2b0c3e389b0c3192db0c31c76b0c3,1c76b0c3,192db0c3,e389b0c3,e6d2b0c3,2a42503c,d5bd503c,5484503c,ab7b503c,0,1,1,0,1,1,1
28,28,0,2b0ab79503c5486503cd5bc503c2a43503ce6d4b0c3e38ab0c3192bb0c31c75b0c3,1c75b0c3,192bb0c3,e38ab0c3,e6d4b0c3,2a43503c,d5bc503c,5486503c,ab79503c,0,1,1,0,1,0,1
29,29,0,2a0ab77503c5488503cd5bb503c2a44503ce6d6b0c3e38bb0c31929b0c31c74b0c3,1c74b0c3,1929b0c3,e38bb0c3,e6d6b0c3,2a44503c,d5bb503c,5488503c,ab77503c,0,0,1,0,1,0,1
30,30,0,3a0ab75503c548a503cd5ba503c2a45503ce6c7b0c3e38cb0c31938b0c31c73b0c3,1c73b0c3,1938b0c3,e38cb0c3,e6c7b0c3,2a45503c,d5ba503c,548a503c,ab75503c,0,0,1,0,1,1,1
31,31,0,3a0ab73503c548c503cd5b9503c2a46503ce6dab0c3e38db0c31925b0c31c72b0c3,1c72b0c3,1925b0c3,e38db0c3,e6dab0c3,2a46503c,d5b9503c,548c503c,ab73503c,0,0,1,0,1,1,1
32,32,0,2b0ab71503c548e503cd5b8503c2a47503ce6dcb0c3e38eb0c31923b0c31c71b0c3,1c71b0c3,1923b0c3,e38eb0c3,e6dcb0c3,2a47503c,d5b8503c,548e503c,ab71503c,0,1,1,0,1,0,1
33,33,0,2b0ab6f503c5490503cd5b7503c2a48503ce6c1b0c3e390b0c3193eb0c31c6fb0c3,1c6fb0c3,193eb0c3,e390b0c3,e6c1b0c3,2a48503c,d5b7503c,5490503c,ab6f503c,0,1,1,0,1,0,1
34,34,0,3a0ab6d503c5492503cd5b6503c2a49503ce61fb0c3e38fb0c319e0b0c31c70b0c3,1c70b0c3,19e0b0c3,e38fb0c3,e61fb0c3,2a49503c,d5b6503c,5492503c,ab6d503c,0,0,1,0,1,1,1
35,35,0,3a0ab6b503c5494503cd5b5503c2a4a503ce61db0c3e391b0c319e2b0c31c6eb0c3,1c6eb0c3,19e2b0c3,e391b0c3,e61db0c3,2a4a503c,d5b5503c,5494503c,ab6b503c,0,0,1,0,1,1,1
36,36,0,3b0ab69503c5496503cd5b4503c2a4b503ce61bb0c3e392b0c319e4b0c31c6db0c3,1c6db0c3,19e4b0c3,e392b0c3,e61bb0c3,2a4b503c,d5b4503c,5496503c,ab69503c,0,1,1,0,1,1,1
37,37,0,2b0ab67503c5498503cd5b3503c2a4c503ce606b0c3e393b0c319f9b0c31c6cb0c3,1c6cb0c3,19f9b0c3,e393b0c3,e606b0c3,2a4c503c,d5b3503c,5498503c,ab67503c,0,1,1,0,1,0,1
38,38,0,2b0ab65503c549a503cd5b2503c2a4d503ce617b0c3e394b0c319e8b0c31c6bb0c3,1c6bb0c3,19e8b0c3,e394b0c3,e617b0c3,2a4d503c,d5b2503c,549a503c,ab65503c,0,1,1,0,1,0,1
39,39,0,3a0ab63503c549c503cd5b1503c2a4e503ce60ab0c3e395b0c319f5b0c31c6ab0c3,1c6ab0c3,19f5b0c3,e395b0c3,e60ab0c3,2a4e503c,d5b1503c,549c503c,ab63503c,0,0,1,0,1,1,1
40,40,0,3a0ab61503c549e503cd5b0503c2a4f503ce60cb0c3e396b0c319f3b0c31c69b0c3,1c69b0c3,19f3b0c3,e396b0c3,e60cb0c3,2a4f503c,d5b0503c,549e503c,ab61503c,0,0,1,0,1,1,1
41,41,0,2b0ab5f503c54a0503cd5af503c2a50503ce60eb0c3e388b0c319f1b0c31c77b0c3,1c77b0c3,19f1b0c3,e388b0c3,e60eb0c3,2a50503c,d5af503c,54a0503c,ab5f503c,0,1,1,0,1,0,1
42,42,0,2b0ab5d503c54a2503cd5ae503c2a51503ce60fb0c3e387b0c319f0b0c31c78b0c3,1c78b0c3,19f0b0c3,e387b0c3,e60fb0c3,2a51503c,d5ae503c,54a2503c,ab5d503c,0,1,1,0,1,0,1
43,43,0,2a0ab5b503c54a4503cd5ad503c2a52503ce612b0c3e399b0c319edb0c31c66b0c3,1c66b0c3,19edb0c3,e399b0c3,e612b0c3,2a52503c,d5ad503c,54a4503c,ab5b503c,0,0,1,0,1,0,1
44,44,0,3a0ab59503c54a6503cd5ac503c2a53503ce614b0c3e39ab0c319ebb0c31c65b0c3,1c65b0c3,19ebb0c3,e39ab0c3,e614b0c3,2a53503c,d5ac503c,54a6503c,ab59503c,0,0,1,0,1,1,1
45,45,0,3a0ab57503c54a8503cd5ab503c2a54503ce616b0c3e384b0c319e9b0c31c7bb0c3,1c7bb0c3,19e9b0c3,e384b0c3,e616b0c3,2a54503c,d5ab503c,54a8503c,ab57503c,0,0,1,0,1,1,1
46,46,0,2b0ab55503c54aa503cd5aa503c2a55503ce607b0c3e39cb0c319f8b0c31c63b0c3,1c63b0c3,19f8b0c3,e39cb0c3,e607b0c3,2a55503c,d5aa503c,54aa503c,ab55503c,0,1,1,0,1,0,1
47,47,0,2b0ab53503c54ac503cd5a9503c2a56503ce61ab0c3e382b0c319e5b0c31c7db0c3,1c7db0c3,19e5b0c3,e382b0c3,e61ab0c3,2a56503c,d5a9503c,54ac503c,ab53503c,0,1,1,0,1,0,1
48,48,0,3a0ab51503c54ae503cd5a8503c2a57503ce61cb0c3e381b0c319e3b0c31c7eb0c3,1c7eb0c3,19e3b0c3,e381b0c3,e61cb0c3,2a57503c,d5a8503c,54ae503c,ab51503c,0,0,1,0,1,1,1
49,49,0,3a0ab4f503c54b0503cd5a7503c2a58503ce601b0c3e380b0c319feb0c31c7fb0c3,1c7fb0c3,19feb0c3,e380b0c3,e601b0c3,2a58503c,d5a7503c,54b0503c,ab4f503c,0,0,1,0,1,1,1
50,50,0,3b0ab4d503c54b2503cd5a6503c2a59503cf8ffb0c3e37fb0c30700b0c31c80b0c3,1c80b0c3,0700b0c3,e37fb0c3,f8ffb0c3,2a59503c,d5a6503c,54b2503c,ab4d503c,0,1,1,0,1,1,1
51,51,0,2b0ab4b503c54b4503cd5a5503c2a5a503cf8fdb0c3e37eb0c30702b0c31c81b0c3,1c81b0c3,0702b0c3,e37eb0c3,f8fdb0c3,2a5a503c,d5a5503c,54b4503c,ab4b503c,0,1,1,0,1,0,1
52,52,0,2b0ab49503c54b6503cd5a4503c2a5b503cf8fbb0c3e37db0c30704b0c31c82b0c3,1c82b0c3,0704b0c3,e37db0c3,f8fbb0c3,2a5b503c,d5a4503c,54b6503c,ab49503c,0,1,1,0,1,0,1
53,53,0,3a0ab47503c54b8503cd5a3503c2a5c503cf8e6b0c3e363b0c30719b0c31c9cb0c3,1c9cb0c3,0719b0c3,e363b0c3,f8e6b0c3,2a5c503c,d5a3503c,54b8503c,ab47503c,0,0,1,0,1,1,1
54,54,0,3a0ab45503c54ba503cd5a2503c2a5d503cf8f7b0c3e37bb0c30708b0c31c84b0c3,1c84b0c3,0708b0c3,e37bb0c3,f8f7b0c3,2a5d503c,d5a2503c,54ba503c,ab45503c,0,0,1,0,1,1,1
55,55,0,2b0ab43503c54bc503cd5a1503c2a5e503cf8eab0c3e365b0c30715b0c31c9ab0c3,1c9ab0c3,0715b0c3,e365b0c3,f8eab0c3,2a5e503c,d5a1503c,54bc503c,ab43503c,0,1,1,0,1,0,1
56,56,0,2b0ab41503c54be503cd5a0503c2a5f503cf8ecb0c3e366b0c30713b0c31c99b0c3,1c99b0c3,0713b0c3,e366b0c3,f8ecb0c3,2a5f503c,d5a0503c,54be503c,ab41503c,0,1,1,0,1,0,1
57,57,0,2a0ab3f503c54c0503cd59f503c2a60503cf8eeb0c3e378b0c30711b0c31c87b0c3,1c87b0c3,0711b0c3,e378b0c3,f8eeb0c3,2a60503c,d59f503c,54c0503c,ab3f503c,0,0,1,0,1,0,1
58,58,0,3a0ab3d503c54c2503cd59e503c2a61503cf8efb0c3e377b0c30710b0c31c88b0c3,1c88b0c3,0710b0c3,e377b0c3,f8efb0c3,2a61503c,d59e503c,54c2503c,ab3d503c,0,0,1,0,1,1,1
59,59,0,3a0ab3b503c54c4503cd59d503c2a62503cf8f2b0c3e369b0c3070db0c31c96b0c3,1c96b0c3,070db0c3,e369b0c3,f8f2b0c3,2a62503c,d59d503c,54c4503c,ab3b503c,0,0,1,0,1,1,1
60,60,0,2b0ab39503c54c6503cd59c503c2a63503cf8f4b0c3e36ab0c3070bb0c31c95b0c3,1c95b0c3,070bb0c3,e36ab0c3,f8f4b0c3,2a63503c,d59c503c,54c6503c,ab39503c,0,1,1,0,1,0,1
61,61,0,2b0ab37503c54c8503cd59b503c2a64503cf8f6b0c3e36bb0c30709b0c31c94b0c3,1c94b0c3,0709b0c3,e36bb0c3,f8f6b0c3,2a64503c,d59b503c,54c8503c,ab37503c,0,1,1,0,1,0,1
62,62,0,3a0ab35503c54ca503cd59a503c2a65503cf8e7b0c3e36cb0c30718b0c31c93b0c3,1c93b0c3,0718b0c3,e36cb0c3,f8e7b0c3,2a65503c,d59a503c,54ca503c,ab35503c,0,0,1,0,1,1,1
63,63,0,3a0ab33503c54cc503cd599503c2a66503cf8fab0c3e36db0c30705b0c31c92b0c3,1c92b0c3,0705b0c3,e36db0c3,f8fab0c3,2a66503c,d599503c,54cc503c,ab33503c,0,0,1,0,1,1,1
64,64,0,3b0ab31503c54ce503cd598503c2a67503cf8fcb0c3e36eb0c30703b0c31c91b0c3,1c91b0c3,0703b0c3,e36eb0c3,f8fcb0c3,2a67503c,d598503c,54ce503c,ab31503c,0,1,1,0,1,1,1
65,65,0,2b0ab2f503c54d0503cd597503c2a68503cf8e1b0c3e370b0c3071eb0c31c8fb0c3,1c8fb0c3,071eb0c3,e370b0c3,f8e1b0c3,2a68503c,d597503c,54d0503c,ab2f503c,0,1,1,0,1,0,1
66,66,0,2b0ab2d503c54d2503cd596503c2a69503cf83fb0c3e36fb0c307c0b0c31c90b0c3,1c90b0c3,07c0b0c3,e36fb0c3,f83fb0c3,2a69503c,d596503c,54d2503c,ab2d503c,0,1,1,0,1,0,1
67,67,0,3a0ab2b503c54d4503cd595503c2a6a503cf83db0c3e371b0c307c2b0c31c8eb0c3,1c8eb0c3,07c2b0c3,e371b0c3,f83db0c3,2a6a503c,d595503c,54d4503c,ab2b503c,0,0,1,0,1,1,1
68,68,0,3a0ab29503c54d6503cd594503c2a6b503cf83bb0c3e372b0c307c4b0c31c8db0c3,1c8db0c3,07c4b0c3,e372b0c3,f83bb0c3,2a6b503c,d594503c,54d6503c,ab29503c,0,0,1,0,1,1,1
69,69,0,2b0ab27503c54d8503cd593503c2a6c503cf826b0c3e373b0c307d9b0c31c8cb0c3,1c8cb0c3,07d9b0c3,e373b0c3,f826b0c3,2a6c503c,d593503c,54d8503c,ab27503c,0,1,1,0,1,0,1
70,70,0,2b0ab25503c54da503cd592503c2a6d503cf837b0c3e374b0c307c8b0c31c8bb0c3,1c8bb0c3,07c8b0c3,e374b0c3,f837b0c3,2a6d503c,d592503c,54da503c,ab25503c,0,1,1,0,1,0,1
71,71,0,2a0ab23503c54dc503cd591503c2a6e503cf82ab0c3e375b0c307d5b0c31c8ab0c3,1c8ab0c3,07d5b0c3,e375b0c3,f82ab0c3,2a6e503c,d591503c,54dc503c,ab23503c,0,0,1,0,1,0,1
72,72,0,3a0ab21503c54de503cd590503c2a6f503cf82cb0c3e376b0c307d3b0c31c89b0c3,1c89b0c3,07d3b0c3,e376b0c3,f82cb0c3,2a6f503c,d590503c,54de503c,ab21503c,0,0,1,0,1,1,1
73,73,0,3a0ab1f503c54e0503cd58f503c2a70503cf82eb0c3e368b0c307d1b0c31c97b0c3,1c97b0c3,07d1b0c3,e368b0c3,f82eb0c3,2a70503c,d58f503c,54e0503c,ab1f503c,0,0,1,0,1,1,1
74,74,0,2b0ab1d503c54e2503cd58e503c2a71503cf82fb0c3e367b0c307d0b0c31c98b0c3,1c98b0c3,07d0b0c3,e367b0c3,f82fb0c3,2a71503c,d58e503c,54e2503c,ab1d503c,0,1,1,0,1,0,1
75,75,0,2b0ab1b503c54e4503cd58d503c2a72503cf832b0c3e379b0c307cdb0c31c86b0c3,1c86b0c3,07cdb0c3,e379b0c3,f832b0c3,2a72503c,d58d503c,54e4503c,ab1b503c,0,1,1,0,1,0,1
76,76,0,3a0ab19503c54e6503cd58c503c2a73503cf834b0c3e37ab0c307cbb0c31c85b0c3,1c85b0c3,07cbb0c3,e37ab0c3,f834b0c3,2a73503c,d58c503c,54e6503c,ab19503c,0,0,1,0,1,1,1
77,77,0,3a0ab17503c54e8503cd58b503c2a74503cf836b0c3e364b0c307c9b0c31c9bb0c3,1c9bb0c3,07c9b0c3,e364b0c3,f836b0c3,2a74503c,d58b503c,54e8503c,ab17503c,0,0,1,0,1,1,1
78,78,0,3b0ab15503c54ea503cd58a503c2a75503cf827b0c3e37cb0c307d8b0c31c83b0c3,1c83b0c3,07d8b0c3,e37cb0c3,f827b0c3,2a75503c,d58a503c,54ea503c,ab15503c,0,1,1,0,1,1,1
79,79,0,2b0ab13503c54ec503cd589503c2a76503cf83ab0c3e362b0c307c5b0c31c9db0c3,1c9db0c3,07c5b0c3,e362b0c3,f83ab0c3,2a76503c,d589503c,54ec503c,ab13503c,0,1,1,0,1,0,1
80,80,0,2a0ab11503c54ee503cd588503c2a77503cf83cb0c3e361b0c307c3b0c31c9eb0c3,1c9eb0c3,07c3b0c3,e361b0c3,f83cb0c3,2a77503c,d588503c,54ee503c,ab11503c,0,0,1,0,1,0,1
81,81,0,3a0ab0f503c54f0503cd587503c2a78503cf821b0c3e360b0c307deb0c31c9fb0c3,1c9fb0c3,07deb0c3,e360b0c3,f821b0c3,2a78503c,d587503c,54f0503c,ab0f503c,0,0,1,0,1,1,1
82,82,0,3a0ab0d503c54f2503cd586503c2a79503cf85fb0c3e3bfb0c307a0b0c31c40b0c3,1c40b0c3,07a0b0c3,e3bfb0c3,f85fb0c3,2a79503c,d586503c,54f2503c,ab0d503c,0,0,1,0,1,1,1
83,83,0,2b0ab0b503c54f4503cd585503c2a7a503cf85db0c3e3beb0c307a2b0c31c41b0c3,1c41b0c3,07a2b0c3,e3beb0c3,f85db0c3,2a7a503c,d585503c,54f4503c,ab0b503c,0,1,1,0,1,0,1
84,84,0,2b0ab09503c54f6503cd584503c2a7b503cf85bb0c3e3bdb0c307a4b0c31c42b0c3,1c42b0c3,07a4b0c3,e3bdb0c3,f85bb0c3,2a7b503c,d584503c,54f6503c,ab09503c,0,1,1,0,1,0,1
85,85,0,2a0ab07503c54f8503cd583503c2a7c503cf846b0c3e3a3b0c307b9b0c31c5cb0c3,1c5cb0c3,07b9b0c3,e3a3b0c3,f846b0c3,2a7c503c,d583503c,54f8503c,ab07503c,0,0,1,0,1,0,1
86,86,0,3a0ab05503c54fa503cd582503c2a7d503cf857b0c3e3bbb0c307a8b0c31c44b0c3,1c44b0c3,07a8b0c3,e3bbb0c3,f857b0c3,2a7d503c,d582503c,54fa503c,ab05503c,0,0,1,0,1,1,1
87,87,0,3b0ab03503c54fc503cd581503c2a7e503cf84ab0c3e3a5b0c307b5b0c31c5ab0c3,1c5ab0c3,07b5b0c3,e3a5b0c3,f84ab0c3,2a7e503c,d581503c,54fc503c,ab03503c,0,1,1,0,1,1,1
88,88,0,2b0ab01503c54fe503cd580503c2a7f503cf84cb0c3e3a6b0c307b3b0c31c59b0c3,1c59b0c3,07b3b0c3,e3a6b0c3,f84cb0c3,2a7f503c,d580503c,54fe503c,ab01503c,0,1,1,0,1,0,1
89,89,0,2b0aaff503c5500503cd57f503c2a80503cf84eb0c3e3b8b0c307b1b0c31c47b0c3,1c47b0c3,07b1b0c3,e3b8b0c3,f84eb0c3,2a80503c,d57f503c,5500503c,aaff503c,0,1,1,0,1,0,1
90,90,0,3a0aafd503c5502503cd57e503c2a81503cf84fb0c3e3b7b0c307b0b0c31c48b0c3,1c48b0c3,07b0b0c3,e3b7b0c3,f84fb0c3,2a81503c,d57e503c,5502503c,aafd503c,0,0,1,0,1,1,1
91,91,0,3a0aafb503c5504503cd57d503c2a82503cf852b0c3e3a9b0c307adb0c31c56b0c3,1c56b0c3,07adb0c3,e3a9b0c3,f852b0c3,2a82503c,d57d503c,5504503c,aafb503c,0,0,1,0,1,1,1
92,92,0,2b0aaf9503c5506503cd57c503c2a83503cf854b0c3e3aab0c307abb0c31c55b0c3,1c55b0c3,07abb0c3,e3aab0c3,f854b0c3,2a83503c,d57c503c,5506503c,aaf9503c,0,1,1,0,1,0,1
93,93,0,2b0aaf7503c5508503cd57b503c2a84503cf856b0c3e3abb0c307a9b0c31c54b0c3,1c54b0c3,07a9b0c3,e3abb0c3,f856b0c3,2a84503c,d57b503c,5508503c,aaf7503c,0,1,1,0,1,0,1
94,94,0,2a0aaf5503c550a503cd57a503c2a85503cf847b0c3e3acb0c307b8b0c31c53b0c3,1c53b0c3,07b8b0c3,e3acb0c3,f847b0c3,2a85503c,d57a503c,550a503c,aaf5503c,0,0,1,0,1,0,1
95,95,0,3a0aaf3503c550c503cd579503c2a86503cf85ab0c3e3adb0c307a5b0c31c52b0c3,1c52b0c3,07a5b0c3,e3adb0c3,f85ab0c3,2a86503c,d579503c,550c503c,aaf3503c,0,0,1,0,1,1,1
96,96,0,3a0aaf1503c550e503cd578503c2a87503cf85cb0c3e3aeb0c307a3b0c31c51b0c3,1c51b0c3,07a3b0c3,e3aeb0c3,f85cb0c3,2a87503c,d578503c,550e503c,aaf1503c,0,0,1,0,1,1,1
97,97,0,2b0aaef503c5510503cd577503c2a88503cf841b0c3e3b0b0c307beb0c31c4fb0c3,1c4fb0c3,07beb0c3,e3b0b0c3,f841b0c3,2a88503c,d577503c,5510503c,aaef503c,0,1,1,0,1,0,1
98,98,0,2b0aaed503c5512503cd576503c2a89503cf89fb0c3e3afb0c30760b0c31c50b0c3,1c50b0c3,0760b0c3,e3afb0c3,f89fb0c3,2a89503c,d576503c,5512503c,aaed503c,0,1,1,0,1,0,1
99,99,0,3a0aaeb503c5514503cd575503c2a8a503cf89db0c3e3b1b0c30762b0c31c4eb0c3,1c4eb0c3,0762b0c3,e3b1b0c3,f89db0c3,2a8a503c,d575503c,5514503c,aaeb503c,0,0,1,0,1,1,1
100,100,0,3a0aae9503c5516503cd574503c2a8b503cf89bb0c3e3b2b0c30764b0c31c4db0c3,1c4db0c3,0764b0c3,e3b2b0c3,f89bb0c3,2a8b503c,d574503c,5516503c,aae9503c,0,0,1,0,1,1,1
101,101,0,3b0aae7503c5518503cd573503c2a8c503cf886b0c3e3b3b0c30779b0c31c4cb0c3,1c4cb0c3,0779b0c3,e3b3b0c3,f886b0c3,2a8c503c,d573503c,5518503c,aae7503c,0,1,1,0,1,1,1
102,102,0,2b0aae5503c551a503cd572503c2a8d503cf897b0c3e3b4b0c30768b0c31c4bb0c3,1c4bb0c3,0768b0c3,e3b4b0c3,f897b0c3,2a8d503c,d572503c,551a503c,aae5503c,0,1,1,0,1,0,1
103,103,0,2b0aae3503c551c503cd571503c2a8e503cf88ab0c3e3b5b0c30775b0c31c4ab0c3,1c4ab0c3,0775b0c3,e3b5b0c3,f88ab0c3,2a8e503c,d571503c,551c503c,aae3503c,0,1,1,0,1,0,1
104,104,0,3a0aae1503c551e503cd570503c2a8f503cf88cb0c3e3b6b0c30773b0c31c49b0c3,1c49b0c3,0773b0c3,e3b6b0c3,f88cb0c3,2a8f503c,d570503c,551e503c,aae1503c,0,0,1,0,1,1,1
105,105,0,3a0aadf503c5520503cd56f503c2a90503cf88eb0c3e3a8b0c30771b0c31c57b0c3,1c57b0c3,0771b0c3,e3a8b0c3,f88eb0c3,2a90503c,d56f503c,5520503c,aadf503c,0,0,1,0,1,1,1
106,106,0,2b0aadd503c5522503cd56e503c2a91503cf88fb0c3e3a7b0c30770b0c31c58b0c3,1c58b0c3,0770b0c3,e3a7b0c3,f88fb0c3,2a91503c,d56e503c,5522503c,aadd503c,0,1,1,0,1,0,1
107,107,0,2b0aadb503c5524503cd56d503c2a92503cf892b0c3e3b9b0c3076db0c31c46b0c3,1c46b0c3,076db0c3,e3b9b0c3,f892b0c3,2a92503c,d56d503c,5524503c,aadb503c,0,1,1,0,1,0,1
108,108,0,2a0aad9503c5526503cd56c503c2a93503cf894b0c3e3bab0c3076bb0c31c45b0c3,1c45b0c3,076bb0c3,e3bab0c3,f894b0c3,2a93503c,d56c503c,5526503c,aad9503c,0,0,1,0,1,0,1
109,109,0,3a0aad7503c5528503cd56b503c2a94503cf896b0c3e3a4b0c30769b0c31c5bb0c3,1c5bb0c3,0769b0c3,e3a4b0c3,f896b0c3,2a94503c,d56b503c,5528503c,aad7503c,0,0,1,0,1,1,1
110,110,0,3a0aad5503c552a503cd56a503c2a95503cf887b0c3e3bcb0c30778b0c31c43b0c3,1c43b0c3,0778b0c3,e3bcb0c3,f887b0c3,2a95503c,d56a503c,552a503c,aad5503c,0,0,1,0,1,1,1
111,111,0,2b0aad3503c552c503cd569503c2a96503cf89ab0c3e3a2b0c30765b0c31c5db0c3,1c5db0c3,0765b0c3,e3a2b0c3,f89ab0c3,2a96503c,d569503c,552c503c,aad3503c,0,1,1,0,1,0,1
112,112,0,2b0aad1503c552e503cd568503c2a97503cf89cb0c3e3a1b0c30763b0c31c5eb0c3,1c5eb0c3,0763b0c3,e3a1b0c3,f89cb0c3,2a97503c,d568503c,552e503c,aad1503c,0,1,1,0,1,0,1
113,113,0,3a0aacf503c5530503cd567503c2a98503cf881b0c3e3a0b0c3077eb0c31c5fb0c3,1c5fb0c3,077eb0c3,e3a0b0c3,f881b0c3,2a98503c,d567503c,5530503c,aacf503c,0,0,1,0,1,1,1
114,114,0,3a0aacd503c5532503cd566503c2a99503cf87fb0c3e3dfb0c30780b0c31c20b0c3,1c20b0c3,0780b0c3,e3dfb0c3,f87fb0c3,2a99503c,d566503c,5532503c,aacd503c,0,0,1,0,1,1,1
115,115,0,3b0aacb503c5534503cd565503c2a9a503cf87db0c3e3deb0c30782b0c31c21b0c3,1c21b0c3,0782b0c3,e3deb0c3,f87db0c3,2a9a503c,d565503c,5534503c,aacb503c,0,1,1,0,1,1,1
116,116,0,2b0aac9503c5536503cd564503c2a9b503cf87bb0c3e3ddb0c30784b0c31c22b0c3,1c22b0c3,0784b0c3,e3ddb0c3,f87bb0c3,2a9b503c,d564503c,5536503c,aac9503c,0,1,1,0,1,0,1
117,117,0,2b0aac7503c5538503cd563503c2a9c503cf866b0c3e3c3b0c30799b0c31c3cb0c3,1c3cb0c3,0799b0c3,e3c3b0c3,f866b0c3,2a9c503c,d563503c,5538503c,aac7503c,0,1,1,0,1,0,1
118,118,0,3a0aac5503c553a503cd562503c2a9d503cf877b0c3e3dbb0c30788b0c31c24b0c3,1c24b0c3,0788b0c3,e3dbb0c3,f877b0c3,2a9d503c,d562503c,553a503c,aac5503c,0,0,1,0,1,1,1
119,119,0,3a0aac3503c553c503cd561503c2a9e503cf86ab0c3e3c5b0c30795b0c31c3ab0c3,1c3ab0c3,0795b0c3,e3c5b0c3,f86ab0c3,2a9e503c,d561503c,553c503c,aac3503c,0,0,1,0,1,1,1
